!Agilent Technologies,E8363B,MY43030572,A.06.04.32
!Agilent E8363B: A.06.04.32
!Date: Tuesday, June 07, 2011 09:25:55
!Correction: S11(Full 2 Port(1,2)) S21(Full 2 Port(1,2)) S12(Full 2 Port(1,2)) S22(Full 2 Port(1,2)) 
!S2P File: Measurements: S11, S21, S12, S22:
# Hz S  dB   R 50
3000000000 -2.182321e+001 6.974559e+001 -3.172046e+001 -6.596425e+001 -1.091095e+002 -1.707656e+002 -1.667465e+001 -1.581021e+001
3001093750 -2.093968e+001 7.745277e+001 -3.269099e+001 -1.593383e+002 -8.382424e+001 1.334778e+002 -1.686789e+001 -1.257084e+001
3002187500 -2.033792e+001 8.565538e+001 -3.207478e+001 1.186487e+002 -8.864903e+001 1.438137e+002 -1.709818e+001 -9.011670e+000
3003281250 -1.997704e+001 9.375835e+001 -3.207945e+001 4.268589e+001 -8.082878e+001 1.209286e+002 -1.747797e+001 -5.720074e+000
3004375000 -1.982749e+001 1.020564e+002 -3.317144e+001 -3.046347e+001 -8.320609e+001 -1.641112e+002 -1.798309e+001 -3.066731e+000
3005468750 -1.986972e+001 1.105074e+002 -3.569688e+001 -1.029228e+002 -1.003769e+002 -1.436334e+002 -1.861706e+001 -1.205916e+000
3006562500 -2.012318e+001 1.191228e+002 -4.029939e+001 -1.762590e+002 -8.197867e+001 -8.096493e+001 -1.933879e+001 -4.752776e-001
3007656250 -2.055238e+001 1.277071e+002 -4.825591e+001 9.096368e+001 -8.348626e+001 -5.124694e+001 -2.013818e+001 -1.424004e+000
3008750000 -2.122178e+001 1.363661e+002 -4.926678e+001 -5.626733e+001 -9.329481e+001 -1.437687e+002 -2.092470e+001 -4.094316e+000
3009843750 -2.220111e+001 1.450737e+002 -4.429706e+001 -1.410479e+002 -8.753033e+001 -1.190940e+002 -2.159899e+001 -8.925220e+000
3010937500 -2.354579e+001 1.540026e+002 -4.255054e+001 1.518915e+002 -9.168589e+001 1.323179e+002 -2.199427e+001 -1.538624e+001
3012031250 -2.545647e+001 1.640268e+002 -4.316850e+001 8.480093e+001 -8.516206e+001 1.299194e+001 -2.196908e+001 -2.233934e+001
3013125000 -2.806688e+001 1.754803e+002 -4.825257e+001 1.507739e+001 -9.212476e+001 3.120084e+001 -2.155920e+001 -2.849725e+001
3014218750 -3.207970e+001 -1.682896e+002 -5.855511e+001 1.708605e+002 -8.365884e+001 -1.063398e+002 -2.088930e+001 -3.269174e+001
3015312500 -3.868300e+001 -1.310700e+002 -4.349687e+001 7.864887e+001 -8.390139e+001 1.783005e+002 -2.011534e+001 -3.493521e+001
3016406250 -3.813113e+001 -3.880450e+001 -3.870499e+001 1.029519e+001 -8.177455e+001 -1.233063e+002 -1.936016e+001 -3.521969e+001
3017500000 -3.168657e+001 -4.209628e+000 -3.631229e+001 -5.526538e+001 -8.118736e+001 -7.273124e+001 -1.869202e+001 -3.418756e+001
3018593750 -2.766603e+001 1.139128e+001 -3.520118e+001 -1.226536e+002 -8.498959e+001 -1.934542e+001 -1.814854e+001 -3.207159e+001
3019687500 -2.500408e+001 2.251361e+001 -3.504325e+001 1.650941e+002 -8.746371e+001 2.563172e+001 -1.771162e+001 -2.909062e+001
3020781250 -2.307588e+001 3.211860e+001 -3.535035e+001 8.490422e+001 -8.411009e+001 -1.091805e+002 -1.743948e+001 -2.567607e+001
3021875000 -2.169020e+001 4.108134e+001 -3.518281e+001 -4.887864e+000 -8.147485e+001 5.642926e+001 -1.731077e+001 -2.189543e+001
3022968750 -2.065109e+001 4.976561e+001 -3.365913e+001 -9.797888e+001 -8.650802e+001 1.773370e+002 -1.731468e+001 -1.793261e+001
3024062500 -1.989080e+001 5.831441e+001 -3.152571e+001 1.749972e+002 -8.507751e+001 -1.773474e+002 -1.745245e+001 -1.386106e+001
3025156250 -1.936672e+001 6.691075e+001 -2.991986e+001 9.482002e+001 -8.847490e+001 7.685777e+001 -1.772889e+001 -9.896505e+000
3026250000 -1.902975e+001 7.512711e+001 -2.907299e+001 1.812499e+001 -9.321609e+001 -1.420714e+002 -1.816770e+001 -6.230238e+000
3027343750 -1.885595e+001 8.325232e+001 -2.904139e+001 -5.721308e+001 -8.152184e+001 4.263541e+001 -1.879393e+001 -3.012480e+000
3028437500 -1.889719e+001 9.131827e+001 -2.952544e+001 -1.344153e+002 -9.442165e+001 -1.040520e+002 -1.958483e+001 -6.756099e-001
3029531250 -1.913843e+001 9.909503e+001 -3.029735e+001 1.437546e+002 -8.881528e+001 -8.235508e+001 -2.058140e+001 3.259596e-001
3030625000 -1.955974e+001 1.068584e+002 -3.074105e+001 5.681311e+001 -8.908228e+001 1.617995e+002 -2.174884e+001 -1.681802e-001
3031718750 -2.022135e+001 1.144940e+002 -3.024662e+001 -3.134749e+001 -8.210550e+001 -1.597200e+002 -2.301353e+001 -3.510216e+000
3032812500 -2.110759e+001 1.217978e+002 -2.910203e+001 -1.147940e+002 -8.299270e+001 -1.421881e+002 -2.422167e+001 -1.058465e+001
3033906250 -2.229054e+001 1.289488e+002 -2.804130e+001 1.661274e+002 -8.468109e+001 1.385217e+002 -2.499708e+001 -2.140683e+001
3035000000 -2.384417e+001 1.353354e+002 -2.749919e+001 8.979240e+001 -8.676558e+001 -1.674161e+001 -2.490342e+001 -3.380088e+001
3036093750 -2.594708e+001 1.405056e+002 -2.757085e+001 1.413339e+001 -8.870011e+001 -1.092197e+002 -2.407752e+001 -4.421124e+001
3037187500 -2.897504e+001 1.429745e+002 -2.819468e+001 -6.330552e+001 -7.818826e+001 4.200845e+001 -2.288873e+001 -5.052860e+001
3038281250 -3.348985e+001 1.371142e+002 -2.918910e+001 -1.444350e+002 -8.471853e+001 1.364151e+002 -2.162421e+001 -5.330597e+001
3039375000 -3.893253e+001 9.582467e+001 -3.008340e+001 1.293253e+002 -8.756355e+001 -4.129103e+001 -2.051095e+001 -5.346691e+001
3040468750 -3.483730e+001 4.333667e+001 -3.034922e+001 4.041225e+001 -8.162054e+001 1.003884e+002 -1.956248e+001 -5.191564e+001
3041562500 -2.995326e+001 3.385236e+001 -2.989927e+001 -4.563025e+001 -8.397234e+001 -1.102261e+002 -1.883399e+001 -4.916021e+001
3042656250 -2.679494e+001 3.563456e+001 -2.940217e+001 -1.269004e+002 -8.744989e+001 -2.685693e+001 -1.828427e+001 -4.552342e+001
3043750000 -2.465058e+001 4.042741e+001 -2.940457e+001 1.555403e+002 -8.799322e+001 6.414963e+001 -1.789085e+001 -4.144168e+001
3044843750 -2.304604e+001 4.696182e+001 -2.998043e+001 7.995804e+001 -9.006207e+001 1.135150e+002 -1.767149e+001 -3.707701e+001
3045937500 -2.188046e+001 5.408969e+001 -3.105411e+001 4.268354e+000 -8.282178e+001 -1.652932e+002 -1.759724e+001 -3.252232e+001
3047031250 -2.100653e+001 6.170674e+001 -3.241950e+001 -7.487110e+001 -8.356578e+001 7.766968e+001 -1.770435e+001 -2.794297e+001
3048125000 -2.042254e+001 6.946152e+001 -3.358961e+001 -1.586030e+002 -8.318444e+001 -4.088472e+001 -1.794699e+001 -2.360284e+001
3049218750 -2.005163e+001 7.757751e+001 -3.400984e+001 1.142613e+002 -8.436723e+001 -5.935220e+000 -1.838951e+001 -1.935264e+001
3050312500 -1.991520e+001 8.576610e+001 -3.372241e+001 2.950362e+001 -9.029418e+001 1.532578e+002 -1.901506e+001 -1.575347e+001
3051406250 -1.996402e+001 9.443810e+001 -3.336383e+001 -5.156648e+001 -8.681297e+001 -4.505751e+001 -1.984391e+001 -1.297328e+001
3052500000 -2.020616e+001 1.033089e+002 -3.362399e+001 -1.306290e+002 -9.945993e+001 -7.456943e+001 -2.089700e+001 -1.130525e+001
3053593750 -2.065209e+001 1.125231e+002 -3.487031e+001 1.498174e+002 -8.654165e+001 1.071158e+002 -2.219703e+001 -1.143834e+001
3054687500 -2.130233e+001 1.221082e+002 -3.715191e+001 6.593316e+001 -8.129591e+001 -2.231784e+001 -2.363811e+001 -1.481978e+001
3055781250 -2.220098e+001 1.322977e+002 -4.011652e+001 -2.737303e+001 -1.014353e+002 -1.313393e+002 -2.507842e+001 -2.286990e+001
3056875000 -2.341059e+001 1.433252e+002 -4.185160e+001 -1.341505e+002 -8.278538e+001 -3.190287e+001 -2.596954e+001 -3.620259e+001
3057968750 -2.496456e+001 1.559551e+002 -4.159858e+001 1.256868e+002 -9.151894e+001 1.378003e+002 -2.577527e+001 -5.178688e+001
3059062500 -2.696254e+001 1.716545e+002 -4.208750e+001 3.555152e+001 -8.839906e+001 -5.779663e+001 -2.453639e+001 -6.376077e+001
3060156250 -2.928323e+001 -1.667509e+002 -4.517561e+001 -5.864050e+001 -7.942096e+001 8.077043e+001 -2.296874e+001 -7.073244e+001
3061250000 -3.143602e+001 -1.352791e+002 -4.924977e+001 1.648998e+002 -8.293628e+001 -1.627979e+002 -2.143861e+001 -7.304552e+001
3062343750 -3.170077e+001 -9.584853e+001 -4.303756e+001 3.716894e+001 -8.240104e+001 8.339806e+001 -2.011808e+001 -7.252046e+001
3063437500 -2.991983e+001 -6.222350e+001 -3.851670e+001 -5.043461e+001 -9.507237e+001 1.282020e+002 -1.903218e+001 -7.036862e+001
3064531250 -2.758539e+001 -3.903067e+001 -3.646557e+001 -1.300577e+002 -8.400072e+001 -3.950169e+001 -1.814385e+001 -6.708517e+001
3065625000 -2.562935e+001 -2.246801e+001 -3.605989e+001 1.493002e+002 -8.945055e+001 4.391714e+001 -1.742289e+001 -6.293856e+001
3066718750 -2.408819e+001 -9.141726e+000 -3.680228e+001 6.339901e+001 -8.669260e+001 1.444675e+002 -1.690039e+001 -5.844837e+001
3067812500 -2.290057e+001 2.160970e+000 -3.786443e+001 -3.361826e+001 -8.730520e+001 -2.102319e+001 -1.651265e+001 -5.361332e+001
3068906250 -2.202683e+001 1.221170e+001 -3.737624e+001 -1.360749e+002 -8.094395e+001 1.456844e+002 -1.626941e+001 -4.855099e+001
3070000000 -2.142982e+001 2.181298e+001 -3.565090e+001 1.313872e+002 -8.732986e+001 4.787091e+001 -1.615914e+001 -4.349191e+001
3071093750 -2.106100e+001 3.088788e+001 -3.446140e+001 4.931531e+001 -8.250835e+001 -9.600099e+001 -1.619771e+001 -3.839810e+001
3072187500 -2.088880e+001 3.958953e+001 -3.412600e+001 -2.735527e+001 -8.068970e+001 9.801945e+001 -1.636237e+001 -3.332309e+001
3073281250 -2.092919e+001 4.791791e+001 -3.455889e+001 -1.028515e+002 -9.036937e+001 -1.591234e+002 -1.667005e+001 -2.843067e+001
3074375000 -2.116974e+001 5.606401e+001 -3.574581e+001 1.787044e+002 -9.354292e+001 -7.496980e+001 -1.709742e+001 -2.372346e+001
3075468750 -2.162093e+001 6.368118e+001 -3.725616e+001 9.212512e+001 -9.895867e+001 -1.252360e+002 -1.767161e+001 -1.949446e+001
3076562500 -2.233870e+001 7.092229e+001 -3.783695e+001 -3.391724e+000 -8.207329e+001 1.286123e+002 -1.840203e+001 -1.587954e+001
3077656250 -2.332840e+001 7.755531e+001 -3.671888e+001 -9.853814e+001 -8.384235e+001 9.655295e+001 -1.931006e+001 -1.297855e+001
3078750000 -2.467578e+001 8.337901e+001 -3.536794e+001 1.751535e+002 -8.631550e+001 -3.925037e+001 -2.040839e+001 -1.128802e+001
3079843750 -2.651999e+001 8.797528e+001 -3.467463e+001 9.514050e+001 -8.812779e+001 1.699345e+002 -2.168071e+001 -1.129924e+001
3080937500 -2.904917e+001 8.944243e+001 -3.489452e+001 1.722445e+001 -8.315839e+001 4.225726e+001 -2.310596e+001 -1.387249e+001
3082031250 -3.244204e+001 8.342612e+001 -3.586676e+001 -6.071915e+001 -9.297823e+001 -2.271792e+000 -2.452741e+001 -2.009521e+001
3083125000 -3.609003e+001 5.790701e+001 -3.730878e+001 -1.431747e+002 -8.115001e+001 1.530934e+002 -2.563557e+001 -3.037820e+001
3084218750 -3.491978e+001 1.528873e+001 -3.805386e+001 1.312345e+002 -8.265876e+001 9.135778e+001 -2.597426e+001 -4.365127e+001
3085312500 -3.104179e+001 -1.381815e+000 -3.744810e+001 4.341857e+001 -8.917017e+001 9.373923e+001 -2.541566e+001 -5.581312e+001
3086406250 -2.788514e+001 -3.444571e+000 -3.615976e+001 -3.973016e+001 -9.528307e+001 -2.706736e+001 -2.434103e+001 -6.403745e+001
3087500000 -2.558842e+001 -1.254200e+000 -3.516204e+001 -1.181040e+002 -8.130667e+001 -9.042160e+001 -2.310396e+001 -6.860320e+001
3088593750 -2.389326e+001 3.655604e+000 -3.462333e+001 1.655315e+002 -8.129402e+001 -9.942272e+001 -2.195988e+001 -7.005894e+001
3089687500 -2.264293e+001 9.398048e+000 -3.450060e+001 8.778377e+001 -8.796327e+001 -5.142773e+001 -2.101623e+001 -6.976987e+001
3090781250 -2.170244e+001 1.602403e+001 -3.448528e+001 5.292610e+000 -8.900919e+001 2.238456e+001 -2.022131e+001 -6.837643e+001
3091875000 -2.100338e+001 2.310232e+001 -3.424382e+001 -8.184137e+001 -8.660902e+001 3.656483e+001 -1.960832e+001 -6.604033e+001
3092968750 -2.053217e+001 3.041827e+001 -3.332331e+001 -1.704551e+002 -8.287266e+001 -1.256549e+002 -1.916284e+001 -6.327080e+001
3094062500 -2.025961e+001 3.772708e+001 -3.205247e+001 1.041485e+002 -7.984988e+001 1.795953e+002 -1.884308e+001 -6.029099e+001
3095156250 -2.017329e+001 4.517138e+001 -3.106043e+001 2.241014e+001 -8.715176e+001 -1.208600e+002 -1.863129e+001 -5.715881e+001
3096250000 -2.026881e+001 5.275909e+001 -3.069796e+001 -5.711457e+001 -8.086411e+001 3.681636e+001 -1.855524e+001 -5.420201e+001
3097343750 -2.057838e+001 6.053589e+001 -3.093754e+001 -1.366917e+002 -8.447762e+001 -2.744507e+001 -1.855250e+001 -5.117810e+001
3098437500 -2.109004e+001 6.831651e+001 -3.157901e+001 1.409818e+002 -8.454659e+001 1.153490e+002 -1.864356e+001 -4.861195e+001
3099531250 -2.179787e+001 7.626422e+001 -3.201962e+001 5.364467e+001 -8.335363e+001 -1.633966e+002 -1.878972e+001 -4.626132e+001
3100625000 -2.277575e+001 8.412296e+001 -3.146799e+001 -3.656668e+001 -7.862190e+001 -1.023414e+002 -1.901227e+001 -4.435692e+001
3101718750 -2.404369e+001 9.186161e+001 -3.025671e+001 -1.243706e+002 -8.711664e+001 -1.116127e+002 -1.928259e+001 -4.283914e+001
3102812500 -2.577495e+001 9.975955e+001 -2.902094e+001 1.530763e+002 -8.938699e+001 2.907370e+001 -1.959377e+001 -4.175539e+001
3103906250 -2.813472e+001 1.079297e+002 -2.836671e+001 7.401683e+001 -8.344915e+001 1.334767e+002 -1.988543e+001 -4.114975e+001
3105000000 -3.161160e+001 1.165286e+002 -2.834475e+001 -3.806933e+000 -8.415700e+001 -1.445636e+002 -2.019433e+001 -4.094757e+001
3106093750 -3.771363e+001 1.269634e+002 -2.892660e+001 -8.267724e+001 -9.432556e+001 1.044088e+002 -2.048330e+001 -4.101564e+001
3107187500 -5.718038e+001 -1.335901e+002 -2.977944e+001 -1.662289e+002 -7.983810e+001 1.426478e+001 -2.072576e+001 -4.137519e+001
3108281250 -3.766903e+001 -4.793527e+001 -3.027782e+001 1.040105e+002 -8.383173e+001 -6.564687e+001 -2.093066e+001 -4.204318e+001
3109375000 -3.196812e+001 -3.758783e+001 -2.977476e+001 1.174412e+001 -8.622365e+001 3.251387e+001 -2.111531e+001 -4.267324e+001
3110468750 -2.872546e+001 -2.881605e+001 -2.855926e+001 -7.641373e+001 -9.155474e+001 9.775689e+001 -2.128095e+001 -4.334513e+001
3111562500 -2.656303e+001 -2.070158e+001 -2.748079e+001 -1.595950e+002 -8.516321e+001 -9.463827e+000 -2.142204e+001 -4.385512e+001
3112656250 -2.506989e+001 -1.273534e+001 -2.702690e+001 1.198821e+002 -7.672710e+001 -1.742814e+002 -2.159994e+001 -4.440775e+001
3113750000 -2.399798e+001 -4.912623e+000 -2.726715e+001 3.926838e+001 -8.562168e+001 8.955553e+001 -2.177895e+001 -4.486666e+001
3114843750 -2.328956e+001 2.882097e+000 -2.814180e+001 -4.368755e+001 -8.435363e+001 7.180152e+001 -2.198882e+001 -4.537862e+001
3115937500 -2.283506e+001 1.053681e+001 -2.914870e+001 -1.312336e+002 -9.103827e+001 -1.574853e+002 -2.222611e+001 -4.614700e+001
3117031250 -2.261739e+001 1.816760e+001 -2.950843e+001 1.375002e+002 -7.994686e+001 -4.309644e+001 -2.245942e+001 -4.727531e+001
3118125000 -2.263494e+001 2.573325e+001 -2.894007e+001 4.749563e+001 -8.361269e+001 -1.552338e+002 -2.268254e+001 -4.879111e+001
3119218750 -2.288428e+001 3.329586e+001 -2.810135e+001 -3.736178e+001 -8.647474e+001 -8.340023e+001 -2.289688e+001 -5.079045e+001
3120312500 -2.335779e+001 4.048366e+001 -2.765706e+001 -1.183977e+002 -8.253765e+001 -1.131716e+002 -2.306527e+001 -5.347885e+001
3121406250 -2.408656e+001 4.762524e+001 -2.781906e+001 1.619654e+002 -9.396362e+001 1.114056e+002 -2.313591e+001 -5.647682e+001
3122500000 -2.512160e+001 5.441217e+001 -2.860152e+001 8.204385e+001 -9.548663e+001 1.179100e+001 -2.307604e+001 -5.953683e+001
3123593750 -2.655673e+001 6.041219e+001 -2.963547e+001 -8.122416e-001 -7.941103e+001 -1.233643e+002 -2.289809e+001 -6.229250e+001
3124687500 -2.849645e+001 6.550304e+001 -3.036435e+001 -8.761786e+001 -8.837128e+001 -5.920869e+001 -2.261477e+001 -6.430049e+001
3125781250 -3.126716e+001 6.825951e+001 -3.020720e+001 -1.751482e+002 -8.301163e+001 -2.642471e+000 -2.220851e+001 -6.567289e+001
3126875000 -3.544915e+001 6.479334e+001 -2.942278e+001 1.010739e+002 -8.175202e+001 -2.474744e+001 -2.179089e+001 -6.620319e+001
3127968750 -4.114437e+001 3.438576e+001 -2.861664e+001 2.193326e+001 -8.289320e+001 -1.177566e+002 -2.135267e+001 -6.575098e+001
3129062500 -3.886972e+001 -2.640145e+001 -2.813874e+001 -5.527794e+001 -8.101865e+001 1.764430e+002 -2.098706e+001 -6.467436e+001
3130156250 -3.360234e+001 -4.065758e+001 -2.816161e+001 -1.331955e+002 -8.265580e+001 6.562347e+001 -2.065561e+001 -6.270684e+001
3131250000 -3.012172e+001 -4.065680e+001 -2.847790e+001 1.458379e+002 -8.881538e+001 1.241330e+001 -2.045187e+001 -6.027645e+001
3132343750 -2.779030e+001 -3.683778e+001 -2.887224e+001 5.978228e+001 -8.058578e+001 -7.173133e+001 -2.031788e+001 -5.731855e+001
3133437500 -2.608599e+001 -3.146807e+001 -2.882140e+001 -2.948310e+001 -8.611018e+001 -3.509368e+001 -2.031020e+001 -5.385093e+001
3134531250 -2.486518e+001 -2.520037e+001 -2.816611e+001 -1.173819e+002 -8.661039e+001 -2.726007e+001 -2.042357e+001 -5.016846e+001
3135625000 -2.399240e+001 -1.850899e+001 -2.740813e+001 1.590417e+002 -9.030386e+001 -1.698635e+001 -2.068110e+001 -4.632806e+001
3136718750 -2.343183e+001 -1.175444e+001 -2.695005e+001 7.965063e+001 -8.420040e+001 -3.813565e+001 -2.107386e+001 -4.237105e+001
3137812500 -2.307407e+001 -4.635329e+000 -2.700638e+001 1.829071e+000 -8.445569e+001 7.640330e+001 -2.162656e+001 -3.865595e+001
3138906250 -2.295111e+001 2.342242e+000 -2.744902e+001 -7.682035e+001 -8.772058e+001 -1.151482e+002 -2.241016e+001 -3.531330e+001
3140000000 -2.303721e+001 9.335217e+000 -2.825330e+001 -1.591481e+002 -8.012393e+001 1.073866e+002 -2.342352e+001 -3.251789e+001
3141093750 -2.334680e+001 1.620714e+001 -2.895351e+001 1.133915e+002 -1.039352e+002 -8.738466e+000 -2.473646e+001 -3.060595e+001
3142187500 -2.390965e+001 2.277615e+001 -2.905313e+001 2.335075e+001 -8.660812e+001 -2.832266e+001 -2.640686e+001 -3.068983e+001
3143281250 -2.476825e+001 2.914436e+001 -2.863447e+001 -6.453844e+001 -9.551331e+001 -3.080112e+001 -2.847373e+001 -3.441010e+001
3144375000 -2.594273e+001 3.526632e+001 -2.824374e+001 -1.473011e+002 -8.286647e+001 7.787273e+001 -3.078370e+001 -4.523211e+001
3145468750 -2.755487e+001 4.035519e+001 -2.826803e+001 1.339762e+002 -8.444723e+001 6.089302e+001 -3.229259e+001 -6.607143e+001
3146562500 -2.980051e+001 4.365985e+001 -2.885509e+001 5.677697e+001 -9.008358e+001 -8.844707e+001 -3.153898e+001 -9.095458e+001
3147656250 -3.292867e+001 4.259020e+001 -2.992057e+001 -2.173676e+001 -8.893649e+001 -6.466503e+001 -2.938548e+001 -1.058978e+002
3148750000 -3.726802e+001 2.793002e+001 -3.124982e+001 -1.045633e+002 -8.778156e+001 -9.990928e+000 -2.705321e+001 -1.116554e+002
3149843750 -3.919092e+001 -2.062682e+001 -3.225471e+001 1.675841e+002 -8.292142e+001 -1.566302e+002 -2.519253e+001 -1.126053e+002
3150937500 -3.491577e+001 -5.176060e+001 -3.222339e+001 7.825712e+001 -9.144870e+001 -7.816407e+001 -2.371778e+001 -1.109631e+002
3152031250 -3.105818e+001 -5.838561e+001 -3.160588e+001 -6.179646e+000 -7.912302e+001 -4.404691e+001 -2.255795e+001 -1.078149e+002
3153125000 -2.831985e+001 -5.654157e+001 -3.120300e+001 -8.552634e+001 -8.318298e+001 -5.244724e+001 -2.164707e+001 -1.040328e+002
3154218750 -2.636439e+001 -5.213211e+001 -3.150648e+001 -1.608817e+002 -8.578171e+001 1.743867e+002 -2.100558e+001 -9.946601e+001
3155312500 -2.485569e+001 -4.638837e+001 -3.252123e+001 1.248446e+002 -9.486261e+001 8.599230e+001 -2.054381e+001 -9.464875e+001
3156406250 -2.373287e+001 -3.999215e+001 -3.418322e+001 4.818011e+001 -8.372833e+001 5.205830e+001 -2.026814e+001 -8.969114e+001
3157500000 -2.291470e+001 -3.337133e+001 -3.613563e+001 -3.684536e+001 -8.456551e+001 2.211300e+000 -2.017583e+001 -8.475117e+001
3158593750 -2.234605e+001 -2.644781e+001 -3.720020e+001 -1.335360e+002 -8.060407e+001 6.832936e+001 -2.023128e+001 -8.002859e+001
3159687500 -2.198324e+001 -1.934236e+001 -3.623069e+001 1.300785e+002 -8.245776e+001 1.564982e+002 -2.045275e+001 -7.566113e+001
3160781250 -2.180709e+001 -1.212151e+001 -3.477709e+001 4.430894e+001 -8.637306e+001 1.285709e+002 -2.088596e+001 -7.169851e+001
3161875000 -2.181430e+001 -4.478088e+000 -3.412749e+001 -3.353699e+001 -8.200323e+001 1.516492e+002 -2.147810e+001 -6.849843e+001
3162968750 -2.199045e+001 2.988078e+000 -3.458427e+001 -1.084597e+002 -8.355118e+001 -1.290256e+002 -2.224516e+001 -6.643397e+001
3164062500 -2.236158e+001 1.024390e+001 -3.619832e+001 1.768242e+002 -8.279485e+001 -5.689619e+001 -2.318768e+001 -6.583915e+001
