!Agilent Technologies,E8363B,MY43030572,A.06.04.32
!Agilent E8363B: A.06.04.32
!Date: Tuesday, June 07, 2011 09:32:52
!Correction: S11(Full 2 Port(1,2)) S21(Full 2 Port(1,2)) S12(Full 2 Port(1,2)) S22(Full 2 Port(1,2)) 
!S2P File: Measurements: S11, S21, S12, S22:
# Hz S  dB   R 50
3000000000 -2.170760e+001 7.075964e+001 -3.076488e+001 -2.549060e+001 -8.773599e+001 5.369862e+000 -1.624084e+001 -1.612245e+001
3001093750 -2.086940e+001 7.841987e+001 -3.272638e+001 -1.160841e+002 -9.230527e+001 -1.105739e+002 -1.644297e+001 -1.318046e+001
3002187500 -2.029021e+001 8.651807e+001 -3.249350e+001 1.633969e+002 -9.018043e+001 -8.833385e+001 -1.669098e+001 -9.710689e+000
3003281250 -1.996675e+001 9.470613e+001 -3.220890e+001 8.970441e+001 -7.883846e+001 -1.717117e+002 -1.704958e+001 -6.615247e+000
3004375000 -1.984299e+001 1.030214e+002 -3.220256e+001 2.115981e+001 -8.783128e+001 -1.120068e+002 -1.754187e+001 -4.063729e+000
3005468750 -1.989718e+001 1.113770e+002 -3.245643e+001 -4.448511e+001 -9.398382e+001 -4.668235e+001 -1.812219e+001 -2.445518e+000
3006562500 -2.016707e+001 1.200179e+002 -3.286353e+001 -1.105718e+002 -9.138033e+001 -1.715793e+002 -1.878722e+001 -1.902703e+000
3007656250 -2.064223e+001 1.284197e+002 -3.335217e+001 1.785585e+002 -8.719294e+001 -1.145643e+002 -1.954662e+001 -2.973733e+000
3008750000 -2.134592e+001 1.370872e+002 -3.375018e+001 9.974265e+001 -7.698829e+001 -1.296143e+002 -2.028421e+001 -5.863064e+000
3009843750 -2.235089e+001 1.458010e+002 -3.352874e+001 1.276947e+001 -1.092889e+002 1.186564e+002 -2.088278e+001 -1.058023e+001
3010937500 -2.377225e+001 1.546748e+002 -3.237173e+001 -7.535947e+001 -8.901917e+001 -5.985989e+001 -2.123487e+001 -1.653137e+001
3012031250 -2.574265e+001 1.648284e+002 -3.093642e+001 -1.585364e+002 -8.192447e+001 -1.695405e+002 -2.121677e+001 -2.308275e+001
3013125000 -2.850797e+001 1.763709e+002 -2.991542e+001 1.224626e+002 -9.253401e+001 -6.811742e+001 -2.083530e+001 -2.855510e+001
3014218750 -3.278379e+001 -1.668087e+002 -2.973859e+001 4.527375e+001 -8.278779e+001 -3.303783e+001 -2.021873e+001 -3.239097e+001
3015312500 -3.987094e+001 -1.239911e+002 -3.038790e+001 -3.295955e+001 -9.101563e+001 1.194226e+002 -1.950131e+001 -3.446392e+001
3016406250 -3.747973e+001 -3.120634e+001 -3.196248e+001 -1.155932e+002 -7.919974e+001 5.095825e+001 -1.878075e+001 -3.482743e+001
3017500000 -3.121818e+001 -1.675818e+000 -3.405397e+001 1.539723e+002 -8.524040e+001 8.402736e+001 -1.813622e+001 -3.381539e+001
3018593750 -2.736489e+001 1.291857e+001 -3.509185e+001 5.486146e+001 -9.537865e+001 -1.798225e+002 -1.762464e+001 -3.192978e+001
3019687500 -2.480211e+001 2.376477e+001 -3.457377e+001 -4.066705e+001 -8.396415e+001 -4.250171e+001 -1.722057e+001 -2.920001e+001
3020781250 -2.296358e+001 3.325965e+001 -3.398011e+001 -1.266930e+002 -8.156343e+001 -6.485714e+001 -1.696568e+001 -2.613948e+001
3021875000 -2.159639e+001 4.211913e+001 -3.446414e+001 1.524015e+002 -8.518805e+001 -1.708692e+002 -1.685538e+001 -2.248954e+001
3022968750 -2.061033e+001 5.074410e+001 -3.656041e+001 7.090739e+001 -8.570666e+001 -5.593961e+001 -1.687996e+001 -1.863839e+001
3024062500 -1.987322e+001 5.915070e+001 -4.065147e+001 -1.983330e+001 -8.251555e+001 -2.968256e+001 -1.701005e+001 -1.468253e+001
3025156250 -1.936380e+001 6.762639e+001 -4.366290e+001 -1.438553e+002 -1.007240e+002 2.533291e+001 -1.728988e+001 -1.092812e+001
3026250000 -1.905335e+001 7.587229e+001 -4.009895e+001 1.040197e+002 -8.411709e+001 -4.033834e+001 -1.770403e+001 -7.485701e+000
3027343750 -1.891189e+001 8.397247e+001 -3.702779e+001 1.953973e+001 -8.402462e+001 9.242162e+001 -1.829631e+001 -4.626496e+000
3028437500 -1.898062e+001 9.194942e+001 -3.555087e+001 -5.980430e+001 -7.911391e+001 -2.615632e+001 -1.905404e+001 -2.753698e+000
3029531250 -1.922327e+001 9.964947e+001 -3.551767e+001 -1.414414e+002 -8.459393e+001 3.987032e+001 -1.999828e+001 -2.158143e+000
3030625000 -1.967895e+001 1.073633e+002 -3.614154e+001 1.294000e+002 -8.681308e+001 -9.893707e+000 -2.109905e+001 -2.998439e+000
3031718750 -2.035767e+001 1.148498e+002 -3.606950e+001 3.216705e+001 -9.202222e+001 -1.123359e+002 -2.227496e+001 -6.535035e+000
3032812500 -2.127309e+001 1.220669e+002 -3.440083e+001 -6.295537e+001 -8.217365e+001 -7.113675e+000 -2.332981e+001 -1.322025e+001
3033906250 -2.250369e+001 1.290059e+002 -3.252922e+001 -1.482219e+002 -8.098155e+001 -1.752634e+002 -2.395231e+001 -2.308271e+001
3035000000 -2.409034e+001 1.351929e+002 -3.139102e+001 1.325305e+002 -8.507048e+001 -7.288393e+001 -2.385536e+001 -3.407776e+001
3036093750 -2.629518e+001 1.397831e+002 -3.100751e+001 5.486545e+001 -9.800172e+001 9.916462e+001 -2.309846e+001 -4.318388e+001
3037187500 -2.939833e+001 1.415211e+002 -3.142058e+001 -2.414099e+001 -9.534022e+001 1.123063e+002 -2.201538e+001 -4.905308e+001
3038281250 -3.403019e+001 1.330384e+002 -3.238966e+001 -1.077285e+002 -8.766858e+001 -1.547755e+002 -2.086619e+001 -5.190095e+001
3039375000 -3.850863e+001 8.709959e+001 -3.332852e+001 1.609918e+002 -8.917989e+001 5.607103e+001 -1.983011e+001 -5.243559e+001
3040468750 -3.399846e+001 4.280923e+001 -3.353070e+001 6.652437e+001 -8.005763e+001 1.150911e+002 -1.896453e+001 -5.115699e+001
3041562500 -2.950468e+001 3.459662e+001 -3.301173e+001 -2.309584e+001 -8.070207e+001 1.398841e+002 -1.828213e+001 -4.863017e+001
3042656250 -2.653897e+001 3.652216e+001 -3.292476e+001 -1.056688e+002 -8.291387e+001 -1.746636e+002 -1.776329e+001 -4.522966e+001
3043750000 -2.443232e+001 4.155562e+001 -3.392475e+001 1.775428e+002 -8.632322e+001 -1.912861e+000 -1.739487e+001 -4.137152e+001
3044843750 -2.292921e+001 4.795921e+001 -3.619207e+001 1.058239e+002 -8.139450e+001 1.358032e+001 -1.718629e+001 -3.713291e+001
3045937500 -2.179120e+001 5.509498e+001 -3.967161e+001 3.774840e+001 -8.231966e+001 -1.577979e+002 -1.711109e+001 -3.278339e+001
3047031250 -2.096225e+001 6.260304e+001 -4.439376e+001 -3.306467e+001 -8.049770e+001 8.528915e+001 -1.720243e+001 -2.851564e+001
3048125000 -2.041846e+001 7.031412e+001 -4.991619e+001 -1.254254e+002 -8.117247e+001 -6.761476e+000 -1.744049e+001 -2.452030e+001
3049218750 -2.007993e+001 7.830286e+001 -4.999444e+001 1.209776e+002 -8.436548e+001 -1.437968e+002 -1.787590e+001 -2.063996e+001
3050312500 -1.995813e+001 8.657382e+001 -4.728952e+001 4.384479e+001 -8.567143e+001 6.776026e+001 -1.849698e+001 -1.735687e+001
3051406250 -2.003012e+001 9.513248e+001 -4.670863e+001 -1.032201e+001 -8.543859e+001 -1.572620e+002 -1.928466e+001 -1.499638e+001
3052500000 -2.027912e+001 1.039620e+002 -4.568750e+001 -4.435516e+001 -8.434246e+001 1.426429e+002 -2.030266e+001 -1.364697e+001
3053593750 -2.076340e+001 1.131703e+002 -4.265413e+001 -8.376193e+001 -8.591959e+001 1.165272e+002 -2.148031e+001 -1.408288e+001
3054687500 -2.143588e+001 1.227384e+002 -3.965316e+001 -1.364288e+002 -8.025045e+001 -1.291981e+002 -2.280356e+001 -1.753001e+001
3055781250 -2.237731e+001 1.327887e+002 -3.805253e+001 1.628895e+002 -8.882977e+001 -2.088209e+000 -2.398638e+001 -2.508028e+001
3056875000 -2.361385e+001 1.438488e+002 -3.777989e+001 9.668072e+001 -8.626568e+001 4.021148e+001 -2.470354e+001 -3.714394e+001
3057968750 -2.521805e+001 1.565337e+002 -3.886797e+001 2.511910e+001 -8.545949e+001 9.624640e+001 -2.451781e+001 -5.077598e+001
3059062500 -2.726771e+001 1.725655e+002 -4.100990e+001 -5.558223e+001 -8.120833e+001 -6.756915e+001 -2.346897e+001 -6.156816e+001
3060156250 -2.967635e+001 -1.655454e+002 -4.227477e+001 -1.512873e+002 -8.266054e+001 1.580227e+002 -2.210270e+001 -6.830894e+001
3061250000 -3.185000e+001 -1.327900e+002 -4.029681e+001 1.166264e+002 -8.693961e+001 1.160126e+002 -2.073800e+001 -7.098624e+001
3062343750 -3.191413e+001 -9.224866e+001 -3.725640e+001 3.872052e+001 -9.305021e+001 1.292251e+002 -1.952531e+001 -7.077790e+001
3063437500 -2.996940e+001 -5.895547e+001 -3.483655e+001 -3.331646e+001 -9.229778e+001 -9.538440e+001 -1.849652e+001 -6.891758e+001
3064531250 -2.755894e+001 -3.657645e+001 -3.355084e+001 -1.039418e+002 -8.478091e+001 -1.706122e+001 -1.764518e+001 -6.583669e+001
3065625000 -2.561727e+001 -2.065029e+001 -3.322157e+001 -1.750918e+002 -8.565513e+001 -1.086582e+002 -1.696072e+001 -6.209754e+001
3066718750 -2.408431e+001 -7.757025e+000 -3.397963e+001 1.104715e+002 -1.009565e+002 1.561471e+002 -1.644374e+001 -5.784823e+001
3067812500 -2.294807e+001 3.297703e+000 -3.576682e+001 3.148929e+001 -8.391963e+001 9.398019e+001 -1.606692e+001 -5.324107e+001
3068906250 -2.207987e+001 1.327522e+001 -3.791924e+001 -5.484587e+001 -8.320614e+001 -1.792778e+002 -1.582036e+001 -4.855127e+001
3070000000 -2.150311e+001 2.276561e+001 -3.846237e+001 -1.444638e+002 -9.006992e+001 1.532182e+002 -1.572482e+001 -4.376327e+001
3071093750 -2.114208e+001 3.160695e+001 -3.684129e+001 1.362169e+002 -8.164066e+001 -8.949400e+001 -1.577037e+001 -3.898322e+001
3072187500 -2.098963e+001 4.024578e+001 -3.457622e+001 6.482770e+001 -8.803555e+001 -1.085912e+002 -1.594804e+001 -3.411633e+001
3073281250 -2.104563e+001 4.846627e+001 -3.265223e+001 -5.315799e+000 -9.045957e+001 1.250152e+002 -1.624886e+001 -2.941334e+001
3074375000 -2.131925e+001 5.649706e+001 -3.159939e+001 -7.599715e+001 -8.053473e+001 -1.546724e+002 -1.667983e+001 -2.498731e+001
3075468750 -2.179843e+001 6.398835e+001 -3.142174e+001 -1.486967e+002 -8.892474e+001 1.099584e+002 -1.722716e+001 -2.095589e+001
3076562500 -2.254229e+001 7.102995e+001 -3.206651e+001 1.353605e+002 -8.439776e+001 -1.971664e+001 -1.792382e+001 -1.769349e+001
3077656250 -2.356014e+001 7.750157e+001 -3.323045e+001 5.424620e+001 -8.794224e+001 1.661841e+002 -1.879570e+001 -1.525917e+001
3078750000 -2.496289e+001 8.292514e+001 -3.399436e+001 -3.254187e+001 -9.147241e+001 -4.094691e+001 -1.982993e+001 -1.407856e+001
3079843750 -2.684502e+001 8.699313e+001 -3.353250e+001 -1.197284e+002 -8.542026e+001 -5.091344e+001 -2.102358e+001 -1.474692e+001
3080937500 -2.944183e+001 8.750418e+001 -3.235429e+001 1.579407e+002 -8.863441e+001 -1.653681e+002 -2.233224e+001 -1.768852e+001
3082031250 -3.280212e+001 7.940244e+001 -3.129080e+001 8.049219e+001 -8.037782e+001 5.303094e+001 -2.359218e+001 -2.401141e+001
3083125000 -3.589621e+001 5.084759e+001 -3.081115e+001 5.028374e+000 -8.641103e+001 -1.760627e+002 -2.450161e+001 -3.347038e+001
3084218750 -3.419417e+001 1.307425e+001 -3.105918e+001 -7.182594e+001 -8.473232e+001 -3.940749e+000 -2.474861e+001 -4.501693e+001
3085312500 -3.050601e+001 -1.054535e+000 -3.206823e+001 -1.519118e+002 -8.587288e+001 -1.002804e+002 -2.422882e+001 -5.536662e+001
3086406250 -2.752567e+001 -2.566455e+000 -3.326355e+001 1.222195e+002 -9.107824e+001 1.464341e+002 -2.327522e+001 -6.268873e+001
3087500000 -2.537414e+001 -2.254047e-001 -3.362045e+001 3.122292e+001 -8.676302e+001 1.532449e+002 -2.215491e+001 -6.688171e+001
3088593750 -2.375814e+001 4.644476e+000 -3.292999e+001 -5.831576e+001 -8.588942e+001 -8.167787e+001 -2.111154e+001 -6.853043e+001
3089687500 -2.255955e+001 1.039656e+001 -3.212910e+001 -1.415576e+002 -7.643201e+001 -1.100946e+002 -2.023820e+001 -6.862551e+001
3090781250 -2.165909e+001 1.704551e+001 -3.204351e+001 1.402538e+002 -9.250802e+001 -1.338487e+002 -1.952937e+001 -6.753565e+001
3091875000 -2.098819e+001 2.398923e+001 -3.309948e+001 6.371088e+001 -8.770789e+001 7.821473e+001 -1.896282e+001 -6.551764e+001
3092968750 -2.055161e+001 3.121130e+001 -3.548937e+001 -1.505563e+001 -7.938274e+001 1.255656e+002 -1.856042e+001 -6.300518e+001
3094062500 -2.029711e+001 3.851475e+001 -3.908970e+001 -1.038565e+002 -9.162397e+001 -1.433758e+002 -1.827106e+001 -6.007206e+001
3095156250 -2.024127e+001 4.585155e+001 -4.099767e+001 1.447896e+002 -8.950488e+001 -3.172355e+001 -1.806743e+001 -5.711729e+001
3096250000 -2.037059e+001 5.341872e+001 -3.845301e+001 4.584528e+001 -8.425529e+001 -1.244733e+002 -1.797177e+001 -5.424654e+001
3097343750 -2.068836e+001 6.105480e+001 -3.587341e+001 -3.261978e+001 -8.901554e+001 2.016631e+001 -1.796131e+001 -5.147443e+001
3098437500 -2.122336e+001 6.879414e+001 -3.456184e+001 -1.059603e+002 -8.756158e+001 -9.832604e+001 -1.804033e+001 -4.919592e+001
3099531250 -2.195992e+001 7.651123e+001 -3.477270e+001 1.785106e+002 -9.938832e+001 -8.855515e+001 -1.820091e+001 -4.710572e+001
3100625000 -2.299372e+001 8.430401e+001 -3.671567e+001 9.293623e+001 -8.326760e+001 3.527357e+001 -1.841011e+001 -4.543009e+001
3101718750 -2.428543e+001 9.181606e+001 -3.890807e+001 -1.903272e+001 -8.037158e+001 6.685677e+001 -1.868415e+001 -4.408351e+001
3102812500 -2.609246e+001 9.951245e+001 -3.575777e+001 -1.362175e+002 -8.664698e+001 1.034917e+002 -1.899182e+001 -4.307779e+001
3103906250 -2.854962e+001 1.071249e+002 -3.197281e+001 1.344204e+002 -8.656860e+001 -6.661134e+000 -1.926814e+001 -4.250241e+001
3105000000 -3.221474e+001 1.149636e+002 -2.987739e+001 5.590235e+001 -8.381877e+001 -1.832427e+000 -1.954669e+001 -4.226297e+001
3106093750 -3.892274e+001 1.234021e+002 -2.911726e+001 -2.014288e+001 -7.922887e+001 -7.154523e+001 -1.979926e+001 -4.242282e+001
3107187500 -5.565630e+001 -5.881366e+001 -2.953842e+001 -9.812478e+001 -8.533283e+001 -1.010204e+002 -1.999379e+001 -4.284149e+001
3108281250 -3.690997e+001 -4.211891e+001 -3.081122e+001 1.778025e+002 -9.520009e+001 1.635992e+002 -2.018925e+001 -4.357396e+001
3109375000 -3.162453e+001 -3.434781e+001 -3.192405e+001 8.278059e+001 -8.929446e+001 -5.928972e+001 -2.035295e+001 -4.427520e+001
3110468750 -2.855469e+001 -2.641678e+001 -3.104512e+001 -1.592827e+001 -8.568064e+001 8.916656e+001 -2.050753e+001 -4.507189e+001
3111562500 -2.646751e+001 -1.890372e+001 -2.893438e+001 -1.043537e+002 -8.846262e+001 1.278004e+002 -2.064698e+001 -4.567704e+001
3112656250 -2.504403e+001 -1.107342e+001 -2.723672e+001 1.761026e+002 -8.819141e+001 -1.274494e+002 -2.080916e+001 -4.627496e+001
3113750000 -2.401030e+001 -3.443582e+000 -2.644209e+001 1.006521e+002 -9.492297e+001 3.684563e+001 -2.099707e+001 -4.658768e+001
3114843750 -2.332912e+001 4.149239e+000 -2.649851e+001 2.587475e+001 -8.180105e+001 1.154317e+002 -2.117480e+001 -4.702814e+001
3115937500 -2.290836e+001 1.176706e+001 -2.729640e+001 -5.127012e+001 -9.092600e+001 -6.400719e+001 -2.136795e+001 -4.768029e+001
3117031250 -2.272082e+001 1.914434e+001 -2.864220e+001 -1.349975e+002 -8.834074e+001 -1.208337e+002 -2.157524e+001 -4.878703e+001
3118125000 -2.277728e+001 2.666522e+001 -2.965741e+001 1.330231e+002 -8.518392e+001 -2.732469e+001 -2.174998e+001 -5.042348e+001
3119218750 -2.306353e+001 3.395973e+001 -2.926661e+001 3.878608e+001 -8.462855e+001 9.578951e+001 -2.193284e+001 -5.250548e+001
3120312500 -2.355620e+001 4.102898e+001 -2.802480e+001 -4.800626e+001 -9.106013e+001 1.253754e+002 -2.208455e+001 -5.506100e+001
3121406250 -2.435024e+001 4.798150e+001 -2.706454e+001 -1.269165e+002 -8.659822e+001 -5.617594e+001 -2.214962e+001 -5.788106e+001
3122500000 -2.541973e+001 5.455843e+001 -2.677152e+001 1.579642e+002 -9.067908e+001 -1.190077e+002 -2.210256e+001 -6.050528e+001
3123593750 -2.689535e+001 6.011413e+001 -2.726746e+001 8.345490e+001 -8.197349e+001 -1.000449e+002 -2.194151e+001 -6.282224e+001
3124687500 -2.894389e+001 6.462600e+001 -2.854431e+001 6.107533e+000 -8.888806e+001 -1.415898e+002 -2.167469e+001 -6.462337e+001
3125781250 -3.184369e+001 6.609319e+001 -3.037086e+001 -7.753481e+001 -8.789211e+001 -1.405148e+002 -2.130801e+001 -6.578469e+001
3126875000 -3.603968e+001 5.970481e+001 -3.170781e+001 -1.692536e+002 -9.189960e+001 1.613150e+002 -2.092156e+001 -6.622546e+001
3127968750 -4.078661e+001 2.182068e+001 -3.147689e+001 9.777629e+001 -7.872319e+001 1.652443e+002 -2.051599e+001 -6.600273e+001
3129062500 -3.758987e+001 -2.755893e+001 -3.049044e+001 1.416781e+001 -8.804386e+001 -8.845013e+001 -2.016840e+001 -6.507006e+001
3130156250 -3.290316e+001 -3.897450e+001 -2.985400e+001 -6.196984e+001 -8.156458e+001 -1.223376e+002 -1.987271e+001 -6.338107e+001
3131250000 -2.971863e+001 -3.877225e+001 -2.996495e+001 -1.342251e+002 -8.993188e+001 1.741954e+002 -1.968536e+001 -6.123751e+001
3132343750 -2.755024e+001 -3.510019e+001 -3.097751e+001 1.544112e+002 -8.410655e+001 -8.483820e+001 -1.961573e+001 -5.846516e+001
3133437500 -2.594401e+001 -2.980593e+001 -3.285603e+001 8.112377e+001 -8.268196e+001 1.397005e+002 -1.962097e+001 -5.523951e+001
3134531250 -2.480359e+001 -2.360614e+001 -3.538286e+001 1.156138e-001 -8.263409e+001 7.422672e+001 -1.973367e+001 -5.174271e+001
3135625000 -2.397990e+001 -1.700251e+001 -3.693162e+001 -9.371093e+001 -8.416671e+001 -1.689486e+002 -1.997561e+001 -4.816636e+001
3136718750 -2.344362e+001 -1.035131e+001 -3.562234e+001 1.721655e+002 -8.343745e+001 1.758959e+002 -2.034336e+001 -4.476099e+001
3137812500 -2.314388e+001 -3.413018e+000 -3.341049e+001 9.078659e+001 -8.713459e+001 1.154580e+002 -2.086709e+001 -4.161314e+001
3138906250 -2.304288e+001 3.530119e+000 -3.196939e+001 1.694844e+001 -9.161026e+001 1.843518e+001 -2.160517e+001 -3.893568e+001
3140000000 -2.317170e+001 1.030969e+001 -3.164516e+001 -5.316883e+001 -8.331937e+001 1.159712e+001 -2.256301e+001 -3.696663e+001
3141093750 -2.353246e+001 1.705221e+001 -3.240448e+001 -1.225135e+002 -8.488857e+001 1.293674e+001 -2.378958e+001 -3.611797e+001
3142187500 -2.414282e+001 2.351789e+001 -3.424791e+001 1.663101e+002 -9.269135e+001 1.497004e+002 -2.530342e+001 -3.708282e+001
3143281250 -2.503422e+001 2.984324e+001 -3.735075e+001 8.702070e+001 -8.491037e+001 1.526018e+002 -2.703385e+001 -4.174553e+001
3144375000 -2.627614e+001 3.537101e+001 -4.016839e+001 -1.229054e+001 -9.924436e+001 -6.584265e+001 -2.874115e+001 -5.178238e+001
3145468750 -2.799378e+001 4.001574e+001 -3.863449e+001 -1.196079e+002 -9.406474e+001 -3.071640e+001 -2.970988e+001 -6.835621e+001
3146562500 -3.030784e+001 4.242136e+001 -3.571235e+001 1.574382e+002 -8.084254e+001 -2.678691e+001 -2.912495e+001 -8.667092e+001
3147656250 -3.356029e+001 3.911999e+001 -3.382329e+001 8.618980e+001 -8.109940e+001 1.754536e+001 -2.754987e+001 -9.970566e+001
3148750000 -3.768172e+001 1.927793e+001 -3.300690e+001 1.850655e+001 -9.963831e+001 -1.035832e+002 -2.567076e+001 -1.058833e+002
3149843750 -3.817317e+001 -2.759937e+001 -3.312427e+001 -4.985560e+001 -8.647989e+001 9.213725e+001 -2.405778e+001 -1.078828e+002
3150937500 -3.397685e+001 -5.242529e+001 -3.430118e+001 -1.223334e+002 -8.604248e+001 8.126575e+001 -2.273590e+001 -1.071698e+002
3152031250 -3.051064e+001 -5.701329e+001 -3.659200e+001 1.575976e+002 -1.021944e+002 7.150863e+001 -2.167552e+001 -1.049708e+002
3153125000 -2.793903e+001 -5.507244e+001 -3.865557e+001 6.305872e+001 -8.335503e+001 -7.278197e+001 -2.085339e+001 -1.017726e+002
3154218750 -2.612884e+001 -5.049825e+001 -3.756265e+001 -3.626016e+001 -8.400591e+001 -1.519079e+002 -2.023960e+001 -9.774588e+001
3155312500 -2.474928e+001 -4.482787e+001 -3.493995e+001 -1.213667e+002 -8.274178e+001 4.791497e-001 -1.981539e+001 -9.340150e+001
3156406250 -2.365064e+001 -3.852240e+001 -3.304203e+001 1.621032e+002 -8.773039e+001 -7.280373e+001 -1.953447e+001 -8.878987e+001
3157500000 -2.287631e+001 -3.193334e+001 -3.222230e+001 8.925063e+001 -8.209056e+001 1.543534e+001 -1.942687e+001 -8.427375e+001
3158593750 -2.234799e+001 -2.516099e+001 -3.241834e+001 1.638946e+001 -8.577793e+001 1.666472e+002 -1.945682e+001 -7.996474e+001
3159687500 -2.203550e+001 -1.811301e+001 -3.357347e+001 -5.796487e+001 -7.968983e+001 7.235763e+001 -1.966413e+001 -7.605946e+001
3160781250 -2.187557e+001 -1.097250e+001 -3.524274e+001 -1.366741e+002 -9.560315e+001 -5.304548e+001 -2.007714e+001 -7.268617e+001
3161875000 -2.194194e+001 -3.447632e+000 -3.635105e+001 1.387259e+002 -8.674913e+001 -8.240285e+001 -2.063540e+001 -6.988029e+001
3162968750 -2.214368e+001 3.950150e+000 -3.564666e+001 5.150008e+001 -8.351925e+001 1.195901e+002 -2.134791e+001 -6.808946e+001
3164062500 -2.256237e+001 1.117663e+001 -3.380867e+001 -3.083573e+001 -1.002823e+002 -1.144238e+002 -2.221690e+001 -6.778079e+001
