!Agilent Technologies,E8363B,MY43030572,A.06.04.32
!Agilent E8363B: A.06.04.32
!Date: Tuesday, June 07, 2011 09:28:28
!Correction: S11(Full 2 Port(1,2)) S21(Full 2 Port(1,2)) S12(Full 2 Port(1,2)) S22(Full 2 Port(1,2)) 
!S2P File: Measurements: S11, S21, S12, S22:
# Hz S  dB   R 50
3000000000 -2.178808e+001 6.960933e+001 -2.568789e+001 -1.320038e+002 -8.951511e+001 -1.043206e+002 -1.666253e+001 -1.586247e+001
3001093750 -2.092226e+001 7.730318e+001 -2.627689e+001 1.404192e+002 -8.143597e+001 1.461176e+002 -1.684573e+001 -1.264340e+001
3002187500 -2.034278e+001 8.550112e+001 -2.608013e+001 6.151420e+001 -9.014738e+001 1.233942e+002 -1.708661e+001 -8.983556e+000
3003281250 -1.997994e+001 9.371716e+001 -2.652498e+001 -1.666122e+001 -8.511170e+001 1.014742e+002 -1.746595e+001 -5.744602e+000
3004375000 -1.982866e+001 1.020645e+002 -2.766323e+001 -9.725193e+001 -8.466339e+001 -4.404802e+001 -1.798159e+001 -3.068171e+000
3005468750 -1.985359e+001 1.106048e+002 -2.921297e+001 1.767194e+002 -8.726698e+001 -1.235724e+002 -1.859604e+001 -1.239735e+000
3006562500 -2.008782e+001 1.190794e+002 -3.025720e+001 8.463540e+001 -8.540600e+001 -1.041608e+002 -1.932094e+001 -5.623675e-001
3007656250 -2.054043e+001 1.275448e+002 -3.010074e+001 -7.282703e+000 -9.116370e+001 -9.283422e+001 -2.011745e+001 -1.339031e+000
3008750000 -2.122698e+001 1.361821e+002 -2.937517e+001 -9.277002e+001 -8.531828e+001 -7.335682e+001 -2.090578e+001 -4.159754e+000
3009843750 -2.220984e+001 1.449373e+002 -2.895411e+001 -1.723008e+002 -1.039021e+002 1.020053e+001 -2.158576e+001 -8.996582e+000
3010937500 -2.358477e+001 1.541186e+002 -2.925457e+001 1.102825e+002 -8.201080e+001 -2.340354e+001 -2.194562e+001 -1.537379e+001
3012031250 -2.544050e+001 1.643158e+002 -3.035427e+001 3.091556e+001 -7.586779e+001 2.617168e+001 -2.196342e+001 -2.247656e+001
3013125000 -2.808059e+001 1.757304e+002 -3.212868e+001 -5.514018e+001 -8.402342e+001 5.379705e+001 -2.154369e+001 -2.844912e+001
3014218750 -3.207143e+001 -1.682364e+002 -3.353908e+001 -1.504184e+002 -8.042052e+001 1.454751e+002 -2.087384e+001 -3.270166e+001
3015312500 -3.875399e+001 -1.308248e+002 -3.308174e+001 1.131342e+002 -7.855706e+001 -9.946568e+001 -2.010278e+001 -3.497116e+001
3016406250 -3.814696e+001 -3.824208e+001 -3.178529e+001 2.747964e+001 -9.495705e+001 1.287573e+002 -1.934183e+001 -3.524343e+001
3017500000 -3.162534e+001 -4.085968e+000 -3.081953e+001 -5.000505e+001 -8.690803e+001 1.233212e+002 -1.868483e+001 -3.418891e+001
3018593750 -2.759705e+001 1.105996e+001 -3.066662e+001 -1.240601e+002 -8.905356e+001 -4.659727e+001 -1.813814e+001 -3.210051e+001
3019687500 -2.494322e+001 2.232869e+001 -3.120856e+001 1.609704e+002 -8.435004e+001 1.300121e+002 -1.770404e+001 -2.916460e+001
3020781250 -2.306050e+001 3.191528e+001 -3.231910e+001 8.131554e+001 -8.825115e+001 -1.322061e+002 -1.742838e+001 -2.576087e+001
3021875000 -2.168437e+001 4.098221e+001 -3.326538e+001 -6.233134e+000 -9.420413e+001 1.070478e+002 -1.728885e+001 -2.189405e+001
3022968750 -2.065422e+001 4.972567e+001 -3.286968e+001 -9.908557e+001 -8.230635e+001 -3.724553e+001 -1.730071e+001 -1.801857e+001
3024062500 -1.988388e+001 5.822513e+001 -3.127078e+001 1.722867e+002 -8.368047e+001 -1.076374e+001 -1.743987e+001 -1.387868e+001
3025156250 -1.934718e+001 6.686327e+001 -2.985247e+001 9.134368e+001 -8.568153e+001 5.649495e+001 -1.773059e+001 -9.879807e+000
3026250000 -1.901215e+001 7.512733e+001 -2.909951e+001 1.446757e+001 -8.434384e+001 -1.297839e+002 -1.816548e+001 -6.325748e+000
3027343750 -1.885768e+001 8.316032e+001 -2.921190e+001 -6.141964e+001 -9.602338e+001 8.222670e+001 -1.878236e+001 -3.045652e+000
3028437500 -1.890360e+001 9.124406e+001 -3.012359e+001 -1.392241e+002 -8.007391e+001 -4.367127e+001 -1.957604e+001 -7.468522e-001
3029531250 -1.915151e+001 9.904796e+001 -3.145378e+001 1.375608e+002 -8.365636e+001 -1.147025e+001 -2.056280e+001 3.413888e-001
3030625000 -1.957527e+001 1.069225e+002 -3.233304e+001 4.661053e+001 -8.747093e+001 -1.653099e+002 -2.172090e+001 -2.767722e-001
3031718750 -2.023755e+001 1.144969e+002 -3.159646e+001 -4.419643e+001 -8.953445e+001 -2.628559e+001 -2.300576e+001 -3.549316e+000
3032812500 -2.112004e+001 1.219661e+002 -3.001493e+001 -1.278340e+002 -1.013969e+002 -1.128484e+002 -2.420360e+001 -1.058842e+001
3033906250 -2.228948e+001 1.288855e+002 -2.866383e+001 1.543829e+002 -8.062179e+001 9.324220e+001 -2.495623e+001 -2.146476e+001
3035000000 -2.386035e+001 1.352069e+002 -2.798752e+001 7.920966e+001 -9.126711e+001 -1.493616e+002 -2.488447e+001 -3.403697e+001
3036093750 -2.600024e+001 1.404490e+002 -2.805206e+001 3.991015e+000 -8.225359e+001 3.738824e+001 -2.406122e+001 -4.417279e+001
3037187500 -2.905622e+001 1.428663e+002 -2.874479e+001 -7.433811e+001 -8.333598e+001 6.794133e+001 -2.286213e+001 -5.048544e+001
3038281250 -3.363500e+001 1.369236e+002 -2.982142e+001 -1.579593e+002 -9.252615e+001 1.720441e+002 -2.160055e+001 -5.329953e+001
3039375000 -3.916494e+001 9.461558e+001 -3.055666e+001 1.112049e+002 -1.083725e+002 -1.421297e+002 -2.049509e+001 -5.350078e+001
3040468750 -3.481426e+001 4.234307e+001 -3.012078e+001 1.936169e+001 -7.959404e+001 9.871784e+001 -1.955956e+001 -5.194543e+001
3041562500 -2.993512e+001 3.345146e+001 -2.916636e+001 -6.739881e+001 -9.402256e+001 3.958318e+001 -1.881227e+001 -4.911871e+001
3042656250 -2.677983e+001 3.547681e+001 -2.843999e+001 -1.480623e+002 -9.394634e+001 -1.559033e+002 -1.826452e+001 -4.555425e+001
3043750000 -2.461032e+001 4.037653e+001 -2.839685e+001 1.339331e+002 -8.463976e+001 7.046562e+000 -1.786827e+001 -4.147211e+001
3044843750 -2.301757e+001 4.701848e+001 -2.904106e+001 5.559872e+001 -7.648721e+001 -4.606446e+001 -1.764938e+001 -3.703610e+001
3045937500 -2.184216e+001 5.404520e+001 -3.029775e+001 -2.545800e+001 -8.128568e+001 3.009805e+001 -1.758884e+001 -3.256287e+001
3047031250 -2.098131e+001 6.161350e+001 -3.160798e+001 -1.123618e+002 -8.503626e+001 -1.468228e+002 -1.768726e+001 -2.799755e+001
3048125000 -2.041699e+001 6.934378e+001 -3.216164e+001 1.564610e+002 -8.447983e+001 1.063051e+002 -1.794424e+001 -2.359392e+001
3049218750 -2.005947e+001 7.742294e+001 -3.165572e+001 6.752349e+001 -9.087199e+001 1.510170e+002 -1.838978e+001 -1.936945e+001
3050312500 -1.992265e+001 8.575095e+001 -3.091708e+001 -1.538051e+001 -8.493996e+001 -1.314372e+002 -1.900765e+001 -1.576483e+001
3051406250 -1.997298e+001 9.441507e+001 -3.055574e+001 -9.542485e+001 -8.410410e+001 -1.132961e+002 -1.982113e+001 -1.295437e+001
3052500000 -2.020803e+001 1.032995e+002 -3.103330e+001 -1.760006e+002 -8.477275e+001 -7.257218e+001 -2.088693e+001 -1.133356e+001
3053593750 -2.065300e+001 1.125309e+002 -3.230134e+001 9.925931e+001 -8.862469e+001 1.723817e+002 -2.215877e+001 -1.166466e+001
3054687500 -2.130254e+001 1.221466e+002 -3.393222e+001 6.882723e+000 -8.689294e+001 3.466927e+001 -2.363152e+001 -1.488072e+001
3055781250 -2.222837e+001 1.322219e+002 -3.466557e+001 -9.035369e+001 -8.315475e+001 3.957348e+001 -2.505996e+001 -2.295009e+001
3056875000 -2.342870e+001 1.433160e+002 -3.419419e+001 1.772482e+002 -8.746796e+001 1.346271e+002 -2.595457e+001 -3.631021e+001
3057968750 -2.499583e+001 1.561208e+002 -3.395215e+001 9.315188e+001 -9.298211e+001 -4.782092e+001 -2.575056e+001 -5.184921e+001
3059062500 -2.696772e+001 1.719614e+002 -3.454600e+001 1.432386e+001 -9.386386e+001 -6.076671e+001 -2.450008e+001 -6.380472e+001
3060156250 -2.928471e+001 -1.667413e+002 -3.650790e+001 -6.456706e+001 -8.876005e+001 1.034280e+002 -2.294854e+001 -7.059335e+001
3061250000 -3.141798e+001 -1.352602e+002 -4.012351e+001 -1.487141e+002 -8.267393e+001 5.269064e+001 -2.142600e+001 -7.305289e+001
3062343750 -3.168413e+001 -9.580459e+001 -4.405310e+001 1.059135e+002 -8.569700e+001 -9.476781e+001 -2.010563e+001 -7.248053e+001
3063437500 -2.993510e+001 -6.192511e+001 -4.330392e+001 -8.938888e+000 -8.060146e+001 1.521487e+002 -1.900464e+001 -7.030597e+001
3064531250 -2.756358e+001 -3.873933e+001 -4.116923e+001 -9.384019e+001 -7.983857e+001 9.540528e+001 -1.812901e+001 -6.706159e+001
3065625000 -2.559808e+001 -2.223988e+001 -4.060565e+001 -1.634734e+002 -8.427307e+001 -1.474973e+002 -1.741953e+001 -6.300251e+001
3066718750 -2.406684e+001 -9.155353e+000 -4.214458e+001 1.357542e+002 -8.259747e+001 1.718515e+002 -1.687618e+001 -5.841388e+001
3067812500 -2.288857e+001 2.047195e+000 -4.478524e+001 9.377673e+001 -8.699139e+001 1.626630e+002 -1.650455e+001 -5.360526e+001
3068906250 -2.203321e+001 1.217636e+001 -4.533174e+001 6.780440e+001 -7.993042e+001 1.426681e+002 -1.625731e+001 -4.856271e+001
3070000000 -2.144524e+001 2.178805e+001 -4.378531e+001 2.587111e+001 -8.148869e+001 -1.977427e+001 -1.614820e+001 -4.352423e+001
3071093750 -2.106254e+001 3.087132e+001 -4.376888e+001 -3.006694e+001 -8.531402e+001 1.422393e+002 -1.618979e+001 -3.846445e+001
3072187500 -2.089407e+001 3.964255e+001 -4.652209e+001 -9.309193e+001 -8.415395e+001 8.100772e+001 -1.634580e+001 -3.337197e+001
3073281250 -2.092856e+001 4.802579e+001 -5.624176e+001 1.779988e+002 -9.001606e+001 -1.645963e+002 -1.666002e+001 -2.846697e+001
3074375000 -2.117679e+001 5.592509e+001 -4.963919e+001 -1.061278e+001 -8.536485e+001 1.286395e+002 -1.709129e+001 -2.379517e+001
3075468750 -2.163918e+001 6.356594e+001 -4.273156e+001 -8.604216e+001 -8.410080e+001 -1.190245e+002 -1.766302e+001 -1.956260e+001
3076562500 -2.236189e+001 7.086877e+001 -3.991029e+001 -1.524636e+002 -9.149195e+001 1.078581e+002 -1.839749e+001 -1.591430e+001
3077656250 -2.336818e+001 7.742513e+001 -3.884101e+001 1.442267e+002 -9.607887e+001 -9.313179e+001 -1.929400e+001 -1.297174e+001
3078750000 -2.474202e+001 8.337309e+001 -3.907148e+001 8.034657e+001 -8.207996e+001 -4.411018e+001 -2.039644e+001 -1.125471e+001
3079843750 -2.658035e+001 8.800319e+001 -4.074022e+001 1.381358e+001 -7.790582e+001 -2.640435e+001 -2.166470e+001 -1.136565e+001
3080937500 -2.907776e+001 8.957675e+001 -4.425689e+001 -5.613475e+001 -7.929398e+001 1.954616e+000 -2.308658e+001 -1.396236e+001
3082031250 -3.245700e+001 8.338278e+001 -4.958629e+001 -1.452789e+002 -8.820033e+001 -1.712896e+002 -2.450655e+001 -2.023519e+001
3083125000 -3.601879e+001 5.673363e+001 -5.010056e+001 9.478101e+001 -9.233669e+001 -1.109681e+002 -2.559826e+001 -3.042880e+001
3084218750 -3.476279e+001 1.472827e+001 -4.611097e+001 1.409916e+001 -8.200946e+001 -1.468552e+002 -2.595150e+001 -4.387906e+001
3085312500 -3.095422e+001 -1.796213e+000 -4.290511e+001 -4.976321e+001 -8.509902e+001 3.149176e+001 -2.539572e+001 -5.577971e+001
3086406250 -2.784323e+001 -3.942364e+000 -4.091935e+001 -1.102378e+002 -8.205643e+001 1.325945e+002 -2.428821e+001 -6.413190e+001
3087500000 -2.557099e+001 -1.400684e+000 -4.014794e+001 -1.733889e+002 -7.946866e+001 4.625676e+001 -2.307895e+001 -6.853419e+001
3088593750 -2.391167e+001 3.624372e+000 -4.056480e+001 1.251566e+002 -8.395162e+001 9.286243e+001 -2.194916e+001 -7.002471e+001
3089687500 -2.263884e+001 9.432408e+000 -4.142062e+001 6.158319e+001 -7.864763e+001 1.074599e+002 -2.099445e+001 -6.977677e+001
3090781250 -2.169922e+001 1.611335e+001 -4.191367e+001 -9.471846e+000 -8.446469e+001 4.934708e+001 -2.020605e+001 -6.842406e+001
3091875000 -2.099427e+001 2.309710e+001 -4.166228e+001 -9.386378e+001 -8.770828e+001 7.762777e+000 -1.959101e+001 -6.602480e+001
3092968750 -2.051976e+001 3.034056e+001 -3.931354e+001 1.780379e+002 -8.920084e+001 -8.496384e+001 -1.913561e+001 -6.323404e+001
3094062500 -2.024886e+001 3.765223e+001 -3.622653e+001 9.584428e+001 -8.740018e+001 1.098603e+001 -1.883430e+001 -6.030417e+001
3095156250 -2.018865e+001 4.504152e+001 -3.380901e+001 1.730555e+001 -9.362402e+001 -9.501756e+000 -1.862319e+001 -5.718655e+001
3096250000 -2.029968e+001 5.268913e+001 -3.239611e+001 -5.886707e+001 -8.477186e+001 -9.126703e+001 -1.853367e+001 -5.420157e+001
3097343750 -2.060218e+001 6.056193e+001 -3.188241e+001 -1.350334e+002 -9.376086e+001 -1.031296e+002 -1.853763e+001 -5.114408e+001
3098437500 -2.110361e+001 6.838326e+001 -3.198693e+001 1.456050e+002 -8.930771e+001 5.342149e+001 -1.862556e+001 -4.860753e+001
3099531250 -2.179631e+001 7.624909e+001 -3.210084e+001 5.983773e+001 -8.134520e+001 1.420417e+002 -1.879140e+001 -4.630587e+001
3100625000 -2.278304e+001 8.399969e+001 -3.146668e+001 -3.041015e+001 -8.953410e+001 2.593377e+001 -1.899876e+001 -4.440296e+001
3101718750 -2.405358e+001 9.161969e+001 -2.994824e+001 -1.195960e+002 -8.158102e+001 -1.535952e+001 -1.927390e+001 -4.284121e+001
3102812500 -2.581128e+001 9.954256e+001 -2.839558e+001 1.565549e+002 -8.180998e+001 -4.515459e+001 -1.958061e+001 -4.184190e+001
3103906250 -2.818867e+001 1.076385e+002 -2.737243e+001 7.720158e+001 -9.610857e+001 6.507145e+001 -1.987440e+001 -4.127296e+001
3105000000 -3.173468e+001 1.169025e+002 -2.699774e+001 -1.493361e-001 -8.916142e+001 -9.777988e+001 -2.017222e+001 -4.094652e+001
3106093750 -3.776192e+001 1.277223e+002 -2.731334e+001 -7.796643e+001 -9.271058e+001 1.832141e+001 -2.047846e+001 -4.114301e+001
3107187500 -5.736974e+001 -1.374348e+002 -2.810880e+001 -1.592618e+002 -8.663129e+001 -1.589692e+002 -2.069792e+001 -4.139444e+001
3108281250 -3.770003e+001 -4.741441e+001 -2.895098e+001 1.137064e+002 -8.584881e+001 1.021915e+002 -2.091262e+001 -4.211752e+001
3109375000 -3.196821e+001 -3.708104e+001 -2.892730e+001 2.243332e+001 -8.444316e+001 -1.487414e+002 -2.110781e+001 -4.267661e+001
3110468750 -2.868170e+001 -2.868687e+001 -2.789223e+001 -6.683582e+001 -8.715896e+001 -2.161579e+001 -2.126649e+001 -4.328312e+001
3111562500 -2.654185e+001 -2.064713e+001 -2.667539e+001 -1.503726e+002 -8.657010e+001 -5.900179e+001 -2.141098e+001 -4.391666e+001
3112656250 -2.504503e+001 -1.295711e+001 -2.587794e+001 1.295266e+002 -8.520470e+001 5.995332e+001 -2.158108e+001 -4.456387e+001
3113750000 -2.400766e+001 -5.078898e+000 -2.583355e+001 5.052245e+001 -8.949954e+001 4.819926e+001 -2.176398e+001 -4.493280e+001
3114843750 -2.331047e+001 2.727391e+000 -2.644872e+001 -2.946811e+001 -8.624394e+001 -1.291793e+002 -2.197155e+001 -4.546313e+001
3115937500 -2.285628e+001 1.055906e+001 -2.745002e+001 -1.133979e+002 -8.259080e+001 2.373737e+001 -2.220406e+001 -4.613885e+001
3117031250 -2.263122e+001 1.825983e+001 -2.825977e+001 1.567507e+002 -8.606065e+001 1.629207e+002 -2.243818e+001 -4.731787e+001
3118125000 -2.263129e+001 2.576791e+001 -2.820989e+001 6.461646e+001 -8.979507e+001 1.426833e+002 -2.266494e+001 -4.889397e+001
3119218750 -2.288104e+001 3.312306e+001 -2.752184e+001 -2.345731e+001 -8.496080e+001 1.657805e+002 -2.287902e+001 -5.086562e+001
3120312500 -2.336433e+001 4.029803e+001 -2.695215e+001 -1.056927e+002 -7.628230e+001 -4.863933e+001 -2.304167e+001 -5.350699e+001
3121406250 -2.411240e+001 4.734025e+001 -2.687772e+001 1.757589e+002 -8.720419e+001 1.752630e+002 -2.312017e+001 -5.650901e+001
3122500000 -2.517710e+001 5.420505e+001 -2.739658e+001 9.822736e+001 -8.622031e+001 -6.168232e+001 -2.303897e+001 -5.952143e+001
3123593750 -2.658006e+001 6.027657e+001 -2.832564e+001 1.838461e+001 -8.302625e+001 3.749655e+001 -2.286556e+001 -6.232482e+001
3124687500 -2.854678e+001 6.553598e+001 -2.929905e+001 -6.671927e+001 -1.100640e+002 -1.203436e+002 -2.258293e+001 -6.433143e+001
3125781250 -3.130058e+001 6.845814e+001 -2.966214e+001 -1.565745e+002 -9.607597e+001 -1.624167e+001 -2.218407e+001 -6.573089e+001
3126875000 -3.536994e+001 6.477097e+001 -2.907264e+001 1.146147e+002 -8.683172e+001 -2.647215e+001 -2.178443e+001 -6.625071e+001
3127968750 -4.104619e+001 3.389939e+001 -2.819012e+001 3.115147e+001 -9.044748e+001 9.539237e+001 -2.135010e+001 -6.589677e+001
3129062500 -3.872208e+001 -2.553730e+001 -2.763093e+001 -4.861783e+001 -1.045980e+002 1.151212e+002 -2.095936e+001 -6.477031e+001
3130156250 -3.350148e+001 -4.065522e+001 -2.762939e+001 -1.269952e+002 -7.865480e+001 -4.348420e+001 -2.064296e+001 -6.270383e+001
3131250000 -3.007617e+001 -4.101333e+001 -2.821644e+001 1.527416e+002 -8.691344e+001 1.538849e+002 -2.042503e+001 -6.037104e+001
3132343750 -2.779283e+001 -3.721445e+001 -2.909754e+001 6.778844e+001 -9.577417e+001 1.459425e+002 -2.031194e+001 -5.738954e+001
3133437500 -2.612210e+001 -3.169906e+001 -2.964342e+001 -2.239486e+001 -8.829943e+001 1.693556e+001 -2.029585e+001 -5.391781e+001
3134531250 -2.489191e+001 -2.521088e+001 -2.927978e+001 -1.126643e+002 -8.894018e+001 2.574379e+001 -2.041414e+001 -5.024001e+001
3135625000 -2.400121e+001 -1.847453e+001 -2.834123e+001 1.622742e+002 -8.605173e+001 2.483557e+001 -2.065924e+001 -4.637834e+001
3136718750 -2.342583e+001 -1.157242e+001 -2.761254e+001 8.269561e+001 -7.935391e+001 1.628080e+002 -2.105195e+001 -4.251295e+001
3137812500 -2.305524e+001 -4.758101e+000 -2.743251e+001 5.650065e+000 -7.649986e+001 1.186210e+002 -2.161720e+001 -3.869433e+001
3138906250 -2.293669e+001 2.116830e+000 -2.786867e+001 -7.167506e+001 -8.833702e+001 1.588734e+002 -2.238874e+001 -3.538361e+001
3140000000 -2.303938e+001 9.063299e+000 -2.894497e+001 -1.525288e+002 -8.753726e+001 -1.585451e+002 -2.340379e+001 -3.266710e+001
3141093750 -2.338103e+001 1.595664e+001 -3.025090e+001 1.207842e+002 -1.024849e+002 -1.134373e+001 -2.471786e+001 -3.074913e+001
3142187500 -2.394256e+001 2.278988e+001 -3.097985e+001 2.832466e+001 -8.310691e+001 1.558806e+002 -2.638034e+001 -3.082869e+001
3143281250 -2.479446e+001 2.922474e+001 -3.064987e+001 -6.275898e+001 -8.632086e+001 -9.358384e+001 -2.846152e+001 -3.470779e+001
3144375000 -2.593853e+001 3.531793e+001 -3.003091e+001 -1.467612e+002 -8.243388e+001 -7.786394e+000 -3.075105e+001 -4.536749e+001
3145468750 -2.754503e+001 4.033825e+001 -2.996845e+001 1.354734e+002 -8.183522e+001 1.231742e+002 -3.221448e+001 -6.638627e+001
3146562500 -2.975907e+001 4.330847e+001 -3.074173e+001 6.132929e+001 -8.553920e+001 -7.686482e-003 -3.150867e+001 -9.078568e+001
3147656250 -3.294100e+001 4.148729e+001 -3.230959e+001 -1.122971e+001 -9.551353e+001 8.491748e+001 -2.933804e+001 -1.057730e+002
3148750000 -3.730437e+001 2.655923e+001 -3.474648e+001 -8.439362e+001 -9.508501e+001 -4.634120e+001 -2.702476e+001 -1.116235e+002
3149843750 -3.928679e+001 -2.198892e+001 -3.726154e+001 -1.640904e+002 -8.395016e+001 5.082181e+001 -2.516471e+001 -1.124475e+002
3150937500 -3.495832e+001 -5.253582e+001 -3.845146e+001 1.078890e+002 -7.823450e+001 -1.047804e+002 -2.369457e+001 -1.108510e+002
3152031250 -3.112010e+001 -5.864619e+001 -3.729618e+001 2.237808e+001 -8.669693e+001 1.778946e+002 -2.252454e+001 -1.079244e+002
3153125000 -2.835117e+001 -5.650401e+001 -3.542200e+001 -5.267497e+001 -8.640781e+001 -7.467345e+001 -2.162948e+001 -1.039891e+002
3154218750 -2.634671e+001 -5.187861e+001 -3.377015e+001 -1.210803e+002 -8.541429e+001 -5.301044e+000 -2.098221e+001 -9.944687e+001
3155312500 -2.485175e+001 -4.637181e+001 -3.272106e+001 1.711660e+002 -8.830024e+001 -3.192743e+001 -2.054154e+001 -9.466200e+001
3156406250 -2.371083e+001 -4.015582e+001 -3.257424e+001 1.018213e+002 -8.425761e+001 -1.413743e+002 -2.026031e+001 -8.967590e+001
3157500000 -2.289408e+001 -3.359336e+001 -3.347076e+001 2.991990e+001 -8.491208e+001 -1.425249e+002 -2.015455e+001 -8.482051e+001
3158593750 -2.235266e+001 -2.664812e+001 -3.539011e+001 -4.657428e+001 -8.976176e+001 2.215642e+001 -2.021603e+001 -8.008089e+001
3159687500 -2.201484e+001 -1.944979e+001 -3.745689e+001 -1.314826e+002 -9.218605e+001 -1.845916e+000 -2.044371e+001 -7.570209e+001
3160781250 -2.182134e+001 -1.214155e+001 -3.762854e+001 1.352727e+002 -8.659138e+001 1.087516e+002 -2.087540e+001 -7.172041e+001
3161875000 -2.182285e+001 -4.578174e+000 -3.539548e+001 4.883009e+001 -7.895018e+001 1.766534e+002 -2.146017e+001 -6.857344e+001
3162968750 -2.197734e+001 3.022548e+000 -3.296885e+001 -2.841850e+001 -8.449583e+001 4.927047e+001 -2.222696e+001 -6.652025e+001
3164062500 -2.236790e+001 1.017677e+001 -3.130445e+001 -1.019954e+002 -8.924605e+001 -8.051662e+001 -2.315519e+001 -6.588111e+001
