!Agilent Technologies,E8363B,MY43030572,A.06.04.32
!Agilent E8363B: A.06.04.32
!Date: Tuesday, June 07, 2011 09:29:30
!Correction: S11(Full 2 Port(1,2)) S21(Full 2 Port(1,2)) S12(Full 2 Port(1,2)) S22(Full 2 Port(1,2)) 
!S2P File: Measurements: S11, S21, S12, S22:
# Hz S  dB   R 50
3000000000 -2.175002e+001 7.047910e+001 -3.524799e+001 -4.274856e+001 -7.985529e+001 -2.142675e+001 -1.647548e+001 -1.616563e+001
3001093750 -2.090154e+001 7.810219e+001 -3.570832e+001 -1.330470e+002 -8.537003e+001 -1.596256e+002 -1.666765e+001 -1.300369e+001
3002187500 -2.033836e+001 8.625785e+001 -3.423628e+001 1.505208e+002 -8.764511e+001 1.029883e+002 -1.690936e+001 -9.442102e+000
3003281250 -2.000275e+001 9.440643e+001 -3.308861e+001 8.017892e+001 -9.752264e+001 -5.177747e+001 -1.727365e+001 -6.285718e+000
3004375000 -1.985611e+001 1.027091e+002 -3.254773e+001 1.288656e+001 -8.188847e+001 -1.648314e+002 -1.777371e+001 -3.654864e+000
3005468750 -1.990259e+001 1.111698e+002 -3.240114e+001 -5.414094e+001 -8.849460e+001 3.734493e+001 -1.837641e+001 -1.928809e+000
3006562500 -2.015087e+001 1.196847e+002 -3.250697e+001 -1.243797e+002 -8.489107e+001 -1.041772e+001 -1.908651e+001 -1.431352e+000
3007656250 -2.062707e+001 1.280586e+002 -3.286634e+001 1.579749e+002 -8.846271e+001 -3.476504e+001 -1.985068e+001 -2.377216e+000
3008750000 -2.132649e+001 1.366193e+002 -3.297450e+001 7.264427e+001 -8.539507e+001 -1.325972e+002 -2.063132e+001 -5.189935e+000
3009843750 -2.233056e+001 1.453244e+002 -3.213830e+001 -1.652435e+001 -7.982869e+001 7.427331e+000 -2.127784e+001 -9.884887e+000
3010937500 -2.374540e+001 1.544938e+002 -3.065483e+001 -1.024659e+002 -7.875987e+001 7.044968e+001 -2.162298e+001 -1.622922e+001
3012031250 -2.565200e+001 1.645003e+002 -2.937140e+001 1.772857e+002 -7.760127e+001 1.459512e+002 -2.162097e+001 -2.293156e+001
3013125000 -2.836211e+001 1.761465e+002 -2.869526e+001 9.990655e+001 -9.620017e+001 -2.672081e+001 -2.120436e+001 -2.870269e+001
3014218750 -3.250109e+001 -1.676023e+002 -2.875940e+001 2.289066e+001 -8.486512e+001 -1.683587e+002 -2.056650e+001 -3.273150e+001
3015312500 -3.958962e+001 -1.277364e+002 -2.961714e+001 -5.661411e+001 -8.302440e+001 5.867490e+001 -1.980926e+001 -3.481217e+001
3016406250 -3.781944e+001 -3.283850e+001 -3.087248e+001 -1.409217e+002 -8.277396e+001 5.904362e+001 -1.907079e+001 -3.518243e+001
3017500000 -3.136204e+001 -1.981278e+000 -3.188833e+001 1.290514e+002 -8.299651e+001 8.069586e+001 -1.842441e+001 -3.424156e+001
3018593750 -2.746341e+001 1.240912e+001 -3.175866e+001 3.864016e+001 -8.304677e+001 6.167043e+001 -1.788989e+001 -3.215207e+001
3019687500 -2.486394e+001 2.327012e+001 -3.104624e+001 -4.529670e+001 -8.226421e+001 -8.286015e+001 -1.746624e+001 -2.934398e+001
3020781250 -2.300195e+001 3.283319e+001 -3.045975e+001 -1.232519e+002 -9.048889e+001 -1.450955e+002 -1.721459e+001 -2.607541e+001
3021875000 -2.163981e+001 4.171053e+001 -3.050978e+001 1.625020e+002 -9.469806e+001 1.360338e+002 -1.709565e+001 -2.228573e+001
3022968750 -2.063772e+001 5.041776e+001 -3.133170e+001 8.874616e+001 -8.071555e+001 -1.866385e+001 -1.709645e+001 -1.846884e+001
3024062500 -1.988298e+001 5.881128e+001 -3.295364e+001 1.286794e+001 -8.408560e+001 -1.189749e+002 -1.723944e+001 -1.436446e+001
3025156250 -1.936356e+001 6.741599e+001 -3.509721e+001 -6.996992e+001 -8.388180e+001 -1.258506e+002 -1.752769e+001 -1.058121e+001
3026250000 -1.903529e+001 7.559354e+001 -3.668984e+001 -1.636527e+002 -8.047842e+001 -8.755630e+001 -1.795467e+001 -7.078443e+000
3027343750 -1.889467e+001 8.367268e+001 -3.643561e+001 9.958582e+001 -8.279253e+001 -1.649969e+002 -1.856539e+001 -4.059444e+000
3028437500 -1.895711e+001 9.166138e+001 -3.517658e+001 1.272647e+001 -8.305689e+001 1.377508e+002 -1.934616e+001 -1.880775e+000
3029531250 -1.920765e+001 9.937013e+001 -3.469647e+001 -6.618250e+001 -8.445618e+001 1.368940e+002 -2.031950e+001 -1.052315e+000
3030625000 -1.965013e+001 1.071480e+002 -3.551521e+001 -1.430425e+002 -9.053861e+001 1.212695e+002 -2.144235e+001 -1.824587e+000
3031718750 -2.032109e+001 1.147403e+002 -3.827000e+001 1.372336e+002 -8.924085e+001 -1.277611e+002 -2.268771e+001 -5.260620e+000
3032812500 -2.121869e+001 1.220173e+002 -4.354992e+001 4.045741e+001 -9.988290e+001 -1.555378e+002 -2.380074e+001 -1.213380e+001
3033906250 -2.241115e+001 1.289982e+002 -4.513349e+001 -1.031966e+002 -8.716025e+001 8.244852e+001 -2.449545e+001 -2.251990e+001
3035000000 -2.398884e+001 1.352092e+002 -4.046499e+001 1.541225e+002 -9.299950e+001 -3.256299e+001 -2.438452e+001 -3.424074e+001
3036093750 -2.616420e+001 1.400544e+002 -3.821994e+001 7.237504e+001 -7.601481e+001 1.314292e+002 -2.356614e+001 -4.397318e+001
3037187500 -2.925593e+001 1.419188e+002 -3.816271e+001 -8.478413e+000 -7.870949e+001 -1.736273e+002 -2.244243e+001 -5.012567e+001
3038281250 -3.391121e+001 1.345049e+002 -3.959026e+001 -1.003642e+002 -7.944347e+001 -2.072910e+001 -2.124544e+001 -5.289396e+001
3039375000 -3.887631e+001 8.972079e+001 -4.021564e+001 1.475529e+002 -8.159165e+001 1.711507e+002 -2.016454e+001 -5.319502e+001
3040468750 -3.432845e+001 4.233782e+001 -3.755876e+001 4.104237e+001 -8.885535e+001 1.712869e+002 -1.927344e+001 -5.173457e+001
3041562500 -2.968789e+001 3.406303e+001 -3.498871e+001 -4.848858e+001 -9.179039e+001 1.698303e+001 -1.856098e+001 -4.903667e+001
3042656250 -2.664055e+001 3.625632e+001 -3.394806e+001 -1.292823e+002 -8.716848e+001 1.535116e+002 -1.802749e+001 -4.556976e+001
3043750000 -2.450818e+001 4.114264e+001 -3.417743e+001 1.527122e+002 -8.497843e+001 1.195756e+002 -1.765635e+001 -4.147009e+001
3044843750 -2.295355e+001 4.765904e+001 -3.553856e+001 7.219583e+001 -8.325404e+001 -1.255873e+002 -1.743063e+001 -3.723695e+001
3045937500 -2.179260e+001 5.469644e+001 -3.728532e+001 -1.472737e+001 -7.882446e+001 1.555279e+002 -1.736104e+001 -3.282369e+001
3047031250 -2.097107e+001 6.211693e+001 -3.770532e+001 -1.104627e+002 -8.233223e+001 1.493274e+002 -1.745535e+001 -2.835440e+001
3048125000 -2.041305e+001 6.985580e+001 -3.612278e+001 1.572915e+002 -7.846968e+001 -1.178991e+002 -1.770565e+001 -2.428169e+001
3049218750 -2.006059e+001 7.796889e+001 -3.427371e+001 7.495260e+001 -8.837171e+001 -1.371534e+002 -1.814728e+001 -2.018703e+001
3050312500 -1.994963e+001 8.627427e+001 -3.319144e+001 -2.621141e+000 -8.512270e+001 -1.011595e+002 -1.877133e+001 -1.673166e+001
3051406250 -2.000515e+001 9.489648e+001 -3.311378e+001 -8.044769e+001 -8.304353e+001 1.527947e+002 -1.958713e+001 -1.408015e+001
3052500000 -2.024324e+001 1.038321e+002 -3.427611e+001 -1.620658e+002 -8.931271e+001 1.362433e+002 -2.062843e+001 -1.259278e+001
3053593750 -2.069334e+001 1.129139e+002 -3.612691e+001 1.066567e+002 -8.302615e+001 1.524099e+002 -2.185992e+001 -1.301508e+001
3054687500 -2.137086e+001 1.225034e+002 -3.687227e+001 2.192387e+000 -8.392441e+001 -1.474613e+002 -2.324632e+001 -1.647129e+001
3055781250 -2.230775e+001 1.325479e+002 -3.537126e+001 -9.565081e+001 -8.667455e+001 6.040006e+001 -2.455581e+001 -2.441150e+001
3056875000 -2.353124e+001 1.437350e+002 -3.384312e+001 1.786468e+002 -7.919638e+001 -6.081419e+001 -2.536318e+001 -3.706699e+001
3057968750 -2.512816e+001 1.565685e+002 -3.344739e+001 9.941022e+001 -9.306963e+001 7.395308e+001 -2.515289e+001 -5.170432e+001
3059062500 -2.714264e+001 1.726192e+002 -3.439819e+001 2.158999e+001 -8.290985e+001 5.701242e+001 -2.399819e+001 -6.307019e+001
3060156250 -2.946447e+001 -1.658160e+002 -3.694453e+001 -5.914910e+001 -8.788737e+001 -1.307151e+001 -2.254549e+001 -6.980805e+001
3061250000 -3.159511e+001 -1.336441e+002 -4.055065e+001 -1.528562e+002 -8.079654e+001 1.355338e+002 -2.108724e+001 -7.220444e+001
3062343750 -3.183758e+001 -9.362392e+001 -4.158836e+001 9.405685e+001 -8.380082e+001 1.407847e+002 -1.982353e+001 -7.186992e+001
3063437500 -2.989568e+001 -5.997213e+001 -3.906853e+001 -3.645526e-001 -9.085016e+001 1.424977e+002 -1.875591e+001 -6.981384e+001
3064531250 -2.752893e+001 -3.731189e+001 -3.734884e+001 -7.556494e+001 -1.034362e+002 1.444725e+001 -1.789404e+001 -6.663973e+001
3065625000 -2.557496e+001 -2.136445e+001 -3.657847e+001 -1.433780e+002 -9.380036e+001 -1.727534e+002 -1.720552e+001 -6.268546e+001
3066718750 -2.405614e+001 -8.310036e+000 -3.703781e+001 1.513469e+002 -8.544818e+001 -7.968850e+001 -1.666878e+001 -5.830775e+001
3067812500 -2.289711e+001 2.762648e+000 -3.857847e+001 8.820029e+001 -8.127403e+001 -1.193801e+002 -1.629310e+001 -5.357796e+001
3068906250 -2.205352e+001 1.281834e+001 -4.087334e+001 2.120730e+001 -8.292162e+001 9.083916e+001 -1.606338e+001 -4.865023e+001
3070000000 -2.147615e+001 2.236983e+001 -4.362139e+001 -6.131906e+001 -8.046314e+001 -6.965233e+001 -1.594920e+001 -4.380702e+001
3071093750 -2.110756e+001 3.138168e+001 -4.316851e+001 -1.689609e+002 -8.750621e+001 1.199484e+002 -1.599885e+001 -3.880125e+001
3072187500 -2.094857e+001 4.011042e+001 -3.894223e+001 9.717433e+001 -7.901394e+001 1.697824e+002 -1.615963e+001 -3.383287e+001
3073281250 -2.098063e+001 4.837244e+001 -3.560243e+001 1.894980e+001 -9.661477e+001 1.530165e+002 -1.648242e+001 -2.902249e+001
3074375000 -2.124583e+001 5.633047e+001 -3.382675e+001 -5.475638e+001 -8.893614e+001 7.792883e+001 -1.690800e+001 -2.445379e+001
3075468750 -2.172773e+001 6.386381e+001 -3.330466e+001 -1.282163e+002 -8.806990e+001 -1.372699e+002 -1.747047e+001 -2.033399e+001
3076562500 -2.247418e+001 7.097607e+001 -3.387726e+001 1.558990e+002 -8.587528e+001 8.834919e+001 -1.819562e+001 -1.689284e+001
3077656250 -2.349062e+001 7.753542e+001 -3.536106e+001 7.376543e+001 -8.618784e+001 2.777930e+001 -1.908066e+001 -1.428800e+001
3078750000 -2.489019e+001 8.329205e+001 -3.654395e+001 -1.841770e+001 -8.016470e+001 1.004881e+002 -2.016162e+001 -1.286511e+001
3079843750 -2.674892e+001 8.756996e+001 -3.588031e+001 -1.144381e+002 -8.265432e+001 7.777538e+001 -2.139230e+001 -1.323031e+001
3080937500 -2.928858e+001 8.861414e+001 -3.402376e+001 1.578242e+002 -8.291208e+001 -1.193858e+002 -2.277232e+001 -1.605639e+001
3082031250 -3.268329e+001 8.114336e+001 -3.267944e+001 7.886243e+001 -8.911649e+001 -1.745780e+002 -2.410504e+001 -2.227001e+001
3083125000 -3.595197e+001 5.280804e+001 -3.226881e+001 2.939190e+000 -8.075563e+001 -9.472344e+001 -2.508462e+001 -3.232037e+001
3084218750 -3.434663e+001 1.339686e+001 -3.303358e+001 -7.306067e+001 -8.500438e+001 -1.604765e+002 -2.537306e+001 -4.471255e+001
3085312500 -3.063789e+001 -1.458963e+000 -3.491124e+001 -1.524184e+002 -8.643041e+001 4.413947e+000 -2.481573e+001 -5.583705e+001
3086406250 -2.766095e+001 -3.384278e+000 -3.711729e+001 1.191421e+002 -8.350256e+001 -1.131952e+002 -2.379154e+001 -6.374041e+001
3087500000 -2.544864e+001 -7.987252e-001 -3.768277e+001 1.986102e+001 -8.165981e+001 1.416975e+002 -2.264417e+001 -6.802136e+001
3088593750 -2.382949e+001 4.307473e+000 -3.599981e+001 -7.351550e+001 -8.714453e+001 -1.099441e+002 -2.154515e+001 -6.949950e+001
3089687500 -2.259240e+001 1.015178e+001 -3.451738e+001 -1.559107e+002 -8.923669e+001 -1.092323e+002 -2.062620e+001 -6.947202e+001
3090781250 -2.166724e+001 1.674568e+001 -3.427089e+001 1.271485e+002 -8.296712e+001 1.255030e+002 -1.988222e+001 -6.816966e+001
3091875000 -2.097751e+001 2.372749e+001 -3.554718e+001 5.163561e+001 -8.604369e+001 1.470041e+002 -1.929579e+001 -6.598758e+001
3092968750 -2.052662e+001 3.082770e+001 -3.863085e+001 -2.993085e+001 -8.344215e+001 6.567163e+001 -1.887733e+001 -6.331800e+001
3094062500 -2.028651e+001 3.814947e+001 -4.298162e+001 -1.343481e+002 -8.180643e+001 -1.388816e+002 -1.856953e+001 -6.033727e+001
3095156250 -2.022843e+001 4.551147e+001 -4.142517e+001 1.042477e+002 -8.751556e+001 -5.657301e+001 -1.836551e+001 -5.733870e+001
3096250000 -2.035223e+001 5.320235e+001 -3.763850e+001 1.789377e+001 -8.300054e+001 8.190587e+000 -1.827300e+001 -5.436263e+001
3097343750 -2.066501e+001 6.091320e+001 -3.541499e+001 -5.479658e+001 -8.848026e+001 1.657956e+001 -1.826742e+001 -5.149753e+001
3098437500 -2.118651e+001 6.871409e+001 -3.469473e+001 -1.255213e+002 -1.003635e+002 -3.914063e+001 -1.835741e+001 -4.908319e+001
3099531250 -2.190140e+001 7.651866e+001 -3.553918e+001 1.596008e+002 -8.190742e+001 -1.519075e+002 -1.852660e+001 -4.681421e+001
3100625000 -2.291532e+001 8.420532e+001 -3.799516e+001 7.054054e+001 -8.545921e+001 -9.653057e+001 -1.872888e+001 -4.507120e+001
3101718750 -2.422475e+001 9.166377e+001 -3.904920e+001 -4.812550e+001 -1.009214e+002 -3.120119e+001 -1.900591e+001 -4.357843e+001
3102812500 -2.600928e+001 9.947353e+001 -3.503750e+001 -1.561333e+002 -8.192686e+001 1.571017e+002 -1.931648e+001 -4.262540e+001
3103906250 -2.847340e+001 1.074048e+002 -3.175118e+001 1.203806e+002 -8.056558e+001 -8.008328e+001 -1.960443e+001 -4.199690e+001
3105000000 -3.207612e+001 1.157854e+002 -3.011756e+001 4.446097e+001 -7.951943e+001 -3.558019e+001 -1.988738e+001 -4.170590e+001
3106093750 -3.842835e+001 1.250692e+002 -2.991042e+001 -2.957655e+001 -7.873901e+001 1.524924e+002 -2.017118e+001 -4.196357e+001
3107187500 -5.871124e+001 -8.875949e+001 -3.095854e+001 -1.054133e+002 -8.141522e+001 -1.334289e+002 -2.038481e+001 -4.229801e+001
3108281250 -3.722311e+001 -4.384898e+001 -3.314126e+001 1.719460e+002 -8.318430e+001 1.356377e+001 -2.057954e+001 -4.301141e+001
3109375000 -3.174462e+001 -3.493336e+001 -3.527123e+001 7.468694e+001 -8.232772e+001 5.486385e+001 -2.075999e+001 -4.371517e+001
3110468750 -2.857345e+001 -2.724462e+001 -3.429492e+001 -2.818027e+001 -8.557903e+001 -1.226997e+002 -2.092098e+001 -4.447161e+001
3111562500 -2.648370e+001 -1.944785e+001 -3.172239e+001 -1.140633e+002 -8.208918e+001 1.162242e+002 -2.107405e+001 -4.505554e+001
3112656250 -2.505107e+001 -1.182310e+001 -2.992853e+001 1.711671e+002 -8.612879e+001 -6.424044e-001 -2.124728e+001 -4.551736e+001
3113750000 -2.402770e+001 -4.066039e+000 -2.919142e+001 1.009770e+002 -8.188668e+001 1.444330e+002 -2.143050e+001 -4.586951e+001
3114843750 -2.335590e+001 3.697969e+000 -2.941085e+001 3.216241e+001 -8.504472e+001 1.549486e+002 -2.161398e+001 -4.637890e+001
3115937500 -2.290693e+001 1.129019e+001 -3.062842e+001 -3.817921e+001 -8.901340e+001 7.863734e+001 -2.181528e+001 -4.707014e+001
3117031250 -2.270756e+001 1.887222e+001 -3.305521e+001 -1.143268e+002 -8.461975e+001 1.655502e+002 -2.203394e+001 -4.833021e+001
3118125000 -2.273412e+001 2.624692e+001 -3.622649e+001 1.561214e+002 -8.389204e+001 -2.703291e+001 -2.223759e+001 -4.991466e+001
3119218750 -2.299776e+001 3.357385e+001 -3.709081e+001 5.234755e+001 -7.865382e+001 -1.219479e+002 -2.244990e+001 -5.196959e+001
3120312500 -2.349311e+001 4.064709e+001 -3.483147e+001 -3.711845e+001 -9.330735e+001 -1.264303e+002 -2.261319e+001 -5.454911e+001
3121406250 -2.427656e+001 4.742661e+001 -3.251382e+001 -1.094441e+002 -7.947921e+001 1.050795e+002 -2.267457e+001 -5.736805e+001
3122500000 -2.535177e+001 5.419382e+001 -3.089703e+001 -1.758058e+002 -9.188169e+001 3.533685e+001 -2.262230e+001 -6.027990e+001
3123593750 -2.680734e+001 5.983028e+001 -3.009786e+001 1.181813e+002 -8.332681e+001 -7.013109e+001 -2.245288e+001 -6.279700e+001
3124687500 -2.881951e+001 6.457632e+001 -3.032771e+001 5.059107e+001 -9.687234e+001 -9.828548e+001 -2.217153e+001 -6.469203e+001
3125781250 -3.160647e+001 6.663898e+001 -3.155261e+001 -1.875813e+001 -8.462496e+001 -2.336220e+001 -2.177401e+001 -6.599543e+001
3126875000 -3.568849e+001 6.090122e+001 -3.345078e+001 -9.263724e+001 -9.334714e+001 -1.432820e+002 -2.137471e+001 -6.650630e+001
3127968750 -4.058185e+001 2.645198e+001 -3.511387e+001 -1.764666e+002 -9.279425e+001 5.908264e+001 -2.095684e+001 -6.625059e+001
3129062500 -3.780445e+001 -2.550608e+001 -3.464674e+001 9.160603e+001 -7.993465e+001 -8.646032e+001 -2.060028e+001 -6.516965e+001
3130156250 -3.307137e+001 -3.879208e+001 -3.233989e+001 6.266153e+000 -9.402563e+001 9.488885e+001 -2.029754e+001 -6.327484e+001
3131250000 -2.986603e+001 -3.920366e+001 -3.010253e+001 -7.030106e+001 -9.843694e+001 -3.497683e+001 -2.009552e+001 -6.106150e+001
3132343750 -2.768081e+001 -3.573739e+001 -2.859998e+001 -1.429644e+002 -8.387780e+001 1.744038e+001 -1.999508e+001 -5.816641e+001
3133437500 -2.606650e+001 -3.024787e+001 -2.793901e+001 1.442767e+002 -8.047607e+001 -8.692979e+001 -1.999918e+001 -5.472671e+001
3134531250 -2.490127e+001 -2.400620e+001 -2.811937e+001 6.949260e+001 -1.014959e+002 1.413149e+002 -2.010836e+001 -5.122935e+001
3135625000 -2.403361e+001 -1.732004e+001 -2.903934e+001 -1.014583e+001 -8.779021e+001 5.168859e+001 -2.036830e+001 -4.741131e+001
3136718750 -2.349234e+001 -1.067800e+001 -3.013160e+001 -9.647898e+001 -8.770728e+001 -1.332158e+002 -2.072893e+001 -4.385076e+001
3137812500 -2.315404e+001 -3.863521e+000 -3.027249e+001 1.725968e+002 -8.451446e+001 1.065726e+002 -2.129264e+001 -4.035143e+001
3138906250 -2.305142e+001 2.832168e+000 -2.924161e+001 8.520657e+001 -1.112410e+002 1.284639e+001 -2.205121e+001 -3.734865e+001
3140000000 -2.318002e+001 9.683837e+000 -2.793287e+001 5.235454e+000 -8.897612e+001 7.904591e+001 -2.305700e+001 -3.502273e+001
3141093750 -2.353159e+001 1.636862e+001 -2.704452e+001 -7.028532e+001 -9.775408e+001 3.265475e+000 -2.433915e+001 -3.368027e+001
3142187500 -2.412638e+001 2.309160e+001 -2.679955e+001 -1.449180e+002 -9.414979e+001 -2.406845e+000 -2.593623e+001 -3.421679e+001
3143281250 -2.499788e+001 2.941240e+001 -2.729267e+001 1.394426e+002 -8.039776e+001 -2.000740e+001 -2.786008e+001 -3.864117e+001
3144375000 -2.616256e+001 3.494994e+001 -2.835221e+001 5.978172e+001 -8.184571e+001 -8.283730e+001 -2.980910e+001 -4.918087e+001
3145468750 -2.780623e+001 3.945683e+001 -2.946348e+001 -2.617637e+001 -8.786778e+001 2.941132e+001 -3.100651e+001 -6.823909e+001
3146562500 -3.007100e+001 4.180084e+001 -2.970951e+001 -1.166393e+002 -8.496439e+001 1.304417e+002 -3.032224e+001 -8.936675e+001
3147656250 -3.325723e+001 3.842250e+001 -2.887256e+001 1.554175e+002 -7.943324e+001 -9.775752e+001 -2.843544e+001 -1.032930e+002
3148750000 -3.736207e+001 2.030908e+001 -2.781204e+001 7.317586e+001 -8.086871e+001 4.898622e+001 -2.634960e+001 -1.091851e+002
3149843750 -3.832313e+001 -2.506975e+001 -2.727674e+001 -4.690989e+000 -8.288976e+001 -1.311500e+002 -2.460254e+001 -1.105723e+002
3150937500 -3.433732e+001 -5.128998e+001 -2.748606e+001 -8.034319e+001 -9.589140e+001 -3.749520e+001 -2.320590e+001 -1.094079e+002
3152031250 -3.076553e+001 -5.670761e+001 -2.840073e+001 -1.569436e+002 -8.659258e+001 -3.183751e+001 -2.212693e+001 -1.067832e+002
3153125000 -2.815900e+001 -5.481523e+001 -2.978255e+001 1.227377e+002 -9.532895e+001 2.746341e+001 -2.125196e+001 -1.031749e+002
3154218750 -2.627447e+001 -5.054263e+001 -3.110419e+001 3.527607e+001 -7.790308e+001 1.618720e+002 -2.062541e+001 -9.883999e+001
3155312500 -2.481559e+001 -4.504264e+001 -3.138908e+001 -5.674635e+001 -9.255664e+001 1.713407e+002 -2.019913e+001 -9.425578e+001
3156406250 -2.372961e+001 -3.896864e+001 -3.064394e+001 -1.448841e+002 -8.794020e+001 -8.003908e+000 -1.991255e+001 -8.943602e+001
3157500000 -2.293080e+001 -3.250897e+001 -2.982607e+001 1.340712e+002 -9.096119e+001 2.630450e+001 -1.980647e+001 -8.477084e+001
3158593750 -2.242074e+001 -2.574055e+001 -2.956201e+001 5.722729e+001 -7.971100e+001 6.896880e+001 -1.984590e+001 -8.022873e+001
3159687500 -2.209142e+001 -1.872506e+001 -2.993530e+001 -1.755504e+001 -1.065686e+002 1.284181e+002 -2.008059e+001 -7.621401e+001
3160781250 -2.191730e+001 -1.147304e+001 -3.092289e+001 -9.342489e+001 -8.134895e+001 2.059548e+001 -2.050743e+001 -7.239258e+001
3161875000 -2.195001e+001 -3.935870e+000 -3.211213e+001 -1.744513e+002 -8.323425e+001 -1.087409e+002 -2.108077e+001 -6.943221e+001
3162968750 -2.211972e+001 3.398081e+000 -3.294165e+001 9.721847e+001 -8.606291e+001 -1.486431e+002 -2.183336e+001 -6.752248e+001
3164062500 -2.252460e+001 1.035654e+001 -3.264160e+001 5.356793e+000 -8.102488e+001 -1.357891e+002 -2.273887e+001 -6.710912e+001
