!Agilent Technologies,E8363B,MY43030572,A.06.04.32
!Agilent E8363B: A.06.04.32
!Date: Tuesday, June 07, 2011 09:34:12
!Correction: S11(Full 2 Port(1,2)) S21(Full 2 Port(1,2)) S12(Full 2 Port(1,2)) S22(Full 2 Port(1,2)) 
!S2P File: Measurements: S11, S21, S12, S22:
# Hz S  dB   R 50
3000000000 -2.173323e+001 7.005929e+001 -3.864135e+001 1.927901e+000 -1.063276e+002 -6.037040e+001 -1.624483e+001 -1.587403e+001
3001093750 -2.090544e+001 7.788439e+001 -4.386148e+001 -1.211907e+002 -8.735239e+001 -2.415865e+001 -1.642275e+001 -1.286372e+001
3002187500 -2.035037e+001 8.610889e+001 -4.023585e+001 1.158762e+002 -9.567001e+001 7.725582e+001 -1.666169e+001 -9.537749e+000
3003281250 -2.002875e+001 9.442309e+001 -3.688929e+001 2.580466e+001 -8.500679e+001 3.322237e+001 -1.701888e+001 -6.448825e+000
3004375000 -1.989941e+001 1.027792e+002 -3.544681e+001 -5.717982e+001 -8.403139e+001 -1.749612e+002 -1.751011e+001 -4.001338e+000
3005468750 -1.997266e+001 1.113701e+002 -3.522576e+001 -1.413596e+002 -8.229875e+001 -5.405338e+001 -1.811778e+001 -2.330605e+000
3006562500 -2.024453e+001 1.199707e+002 -3.561610e+001 1.300737e+002 -8.652579e+001 1.089541e+002 -1.879878e+001 -1.710246e+000
3007656250 -2.073289e+001 1.285211e+002 -3.567019e+001 3.525366e+001 -8.701226e+001 1.470569e+001 -1.954012e+001 -2.741743e+000
3008750000 -2.144131e+001 1.372866e+002 -3.470036e+001 -5.949934e+001 -8.667893e+001 -1.638311e+002 -2.027213e+001 -5.349647e+000
3009843750 -2.247458e+001 1.461614e+002 -3.308744e+001 -1.492414e+002 -1.070159e+002 1.796962e+002 -2.086705e+001 -1.002444e+001
3010937500 -2.388938e+001 1.553702e+002 -3.163619e+001 1.258645e+002 -8.848891e+001 -7.571936e+001 -2.121927e+001 -1.599535e+001
3012031250 -2.585281e+001 1.657108e+002 -3.070630e+001 4.167131e+001 -8.883121e+001 2.263966e+001 -2.118522e+001 -2.246426e+001
3013125000 -2.863689e+001 1.778272e+002 -3.039306e+001 -4.338063e+001 -8.679148e+001 1.791477e+001 -2.080565e+001 -2.818192e+001
3014218750 -3.287573e+001 -1.641380e+002 -3.043404e+001 -1.298782e+002 -8.620713e+001 -1.746498e+002 -2.020845e+001 -3.217717e+001
3015312500 -3.949385e+001 -1.183120e+002 -3.049399e+001 1.419523e+002 -8.773735e+001 -4.791836e+001 -1.947593e+001 -3.424688e+001
3016406250 -3.686799e+001 -3.283376e+001 -3.035872e+001 5.364897e+001 -8.343262e+001 -5.178959e+001 -1.878533e+001 -3.470392e+001
3017500000 -3.099471e+001 -3.205716e+000 -3.019657e+001 -3.328164e+001 -8.821358e+001 1.705743e+002 -1.816199e+001 -3.370194e+001
3018593750 -2.727071e+001 1.177314e+001 -3.021575e+001 -1.188534e+002 -8.822093e+001 1.385035e+002 -1.764271e+001 -3.170815e+001
3019687500 -2.477535e+001 2.284061e+001 -3.052571e+001 1.561136e+002 -1.142998e+002 8.463915e+001 -1.723316e+001 -2.891353e+001
3020781250 -2.295197e+001 3.242546e+001 -3.101709e+001 7.113458e+001 -8.847945e+001 -5.277150e+001 -1.696651e+001 -2.571332e+001
3021875000 -2.163130e+001 4.154525e+001 -3.137164e+001 -1.443595e+001 -8.370875e+001 -1.325784e+002 -1.683921e+001 -2.216352e+001
3022968750 -2.062946e+001 5.034359e+001 -3.140085e+001 -9.985131e+001 -8.562063e+001 1.580469e+002 -1.684157e+001 -1.838925e+001
3024062500 -1.991271e+001 5.882016e+001 -3.126251e+001 1.749580e+002 -9.161920e+001 -5.930382e+001 -1.698329e+001 -1.456645e+001
3025156250 -1.940660e+001 6.743862e+001 -3.119318e+001 9.179131e+001 -8.027266e+001 -1.440527e+002 -1.727900e+001 -1.079252e+001
3026250000 -1.909991e+001 7.564796e+001 -3.145536e+001 1.052483e+001 -8.913026e+001 6.758578e+001 -1.769177e+001 -7.502799e+000
3027343750 -1.898094e+001 8.376642e+001 -3.205143e+001 -7.006966e+001 -9.141807e+001 -1.739970e+001 -1.830184e+001 -4.476250e+000
3028437500 -1.904480e+001 9.188822e+001 -3.291013e+001 -1.520355e+002 -8.363945e+001 -7.402946e+001 -1.905587e+001 -2.437894e+000
3029531250 -1.931071e+001 9.967518e+001 -3.380254e+001 1.214034e+002 -9.254624e+001 -5.762010e+001 -1.997749e+001 -1.709552e+000
3030625000 -1.976151e+001 1.074480e+002 -3.410244e+001 3.244044e+001 -8.027284e+001 -3.804328e+001 -2.106559e+001 -2.577787e+000
3031718750 -2.043806e+001 1.150511e+002 -3.360277e+001 -5.574747e+001 -8.765823e+001 1.731811e+002 -2.221505e+001 -6.007868e+000
3032812500 -2.137208e+001 1.223258e+002 -3.291996e+001 -1.395089e+002 -8.103545e+001 -1.018785e+002 -2.325621e+001 -1.284396e+001
3033906250 -2.260416e+001 1.293701e+002 -3.249506e+001 1.403351e+002 -8.836031e+001 -1.359264e+002 -2.389135e+001 -2.265473e+001
3035000000 -2.423923e+001 1.356227e+002 -3.292221e+001 6.147538e+001 -8.849799e+001 -9.319147e+001 -2.378590e+001 -3.390187e+001
3036093750 -2.645923e+001 1.407141e+002 -3.410058e+001 -1.777702e+001 -8.278457e+001 -3.744382e+001 -2.310057e+001 -4.300138e+001
3037187500 -2.962790e+001 1.427117e+002 -3.608077e+001 -1.011651e+002 -9.324115e+001 2.257619e+001 -2.202127e+001 -4.889935e+001
3038281250 -3.447903e+001 1.351600e+002 -3.815915e+001 1.656984e+002 -8.380852e+001 6.531905e+001 -2.088993e+001 -5.171507e+001
3039375000 -3.937046e+001 8.542770e+001 -3.875012e+001 6.646749e+001 -9.593869e+001 -1.374211e+002 -1.986155e+001 -5.201261e+001
3040468750 -3.420137e+001 3.987973e+001 -3.765174e+001 -2.360845e+001 -1.034187e+002 -1.460618e+002 -1.897412e+001 -5.074021e+001
3041562500 -2.956427e+001 3.311459e+001 -3.659624e+001 -1.019128e+002 -8.197649e+001 -7.074527e+001 -1.828694e+001 -4.823925e+001
3042656250 -2.658160e+001 3.549231e+001 -3.616288e+001 -1.727461e+002 -8.451762e+001 5.838488e+001 -1.774802e+001 -4.488785e+001
3043750000 -2.450018e+001 4.059451e+001 -3.655677e+001 1.190824e+002 -8.079981e+001 1.444061e+002 -1.737239e+001 -4.108463e+001
3044843750 -2.298199e+001 4.728913e+001 -3.779189e+001 5.218002e+001 -8.898106e+001 5.165086e+001 -1.717345e+001 -3.693612e+001
3045937500 -2.186205e+001 5.463570e+001 -3.986713e+001 -1.706302e+001 -8.505883e+001 -1.072438e+002 -1.710629e+001 -3.270979e+001
3047031250 -2.103072e+001 6.224001e+001 -4.293019e+001 -9.708393e+001 -8.422363e+001 -6.888259e+001 -1.720295e+001 -2.835997e+001
3048125000 -2.048643e+001 7.008369e+001 -4.469450e+001 1.581204e+002 -8.959547e+001 -1.666711e+002 -1.745102e+001 -2.428765e+001
3049218750 -2.013144e+001 7.819740e+001 -4.193277e+001 5.529208e+001 -8.359574e+001 -1.644445e+002 -1.787713e+001 -2.034644e+001
3050312500 -2.002712e+001 8.652733e+001 -3.847589e+001 -2.711187e+001 -8.635674e+001 -1.510482e+002 -1.847216e+001 -1.695047e+001
3051406250 -2.009561e+001 9.515726e+001 -3.626300e+001 -1.011587e+002 -8.838084e+001 -1.663037e+002 -1.925118e+001 -1.454873e+001
3052500000 -2.035711e+001 1.040777e+002 -3.526060e+001 -1.736116e+002 -9.021207e+001 1.541857e+002 -2.025504e+001 -1.336947e+001
3053593750 -2.083041e+001 1.132813e+002 -3.546230e+001 1.118078e+002 -8.947597e+001 -1.990221e+001 -2.141585e+001 -1.388307e+001
3054687500 -2.150483e+001 1.231106e+002 -3.676105e+001 3.209925e+001 -8.281053e+001 3.986594e+001 -2.275361e+001 -1.756116e+001
3055781250 -2.243658e+001 1.333168e+002 -3.857383e+001 -5.886250e+001 -8.367125e+001 -1.409297e+002 -2.397754e+001 -2.501249e+001
3056875000 -2.364309e+001 1.446077e+002 -3.887160e+001 -1.638377e+002 -8.592895e+001 2.460582e+001 -2.471012e+001 -3.686860e+001
3057968750 -2.522912e+001 1.575898e+002 -3.710427e+001 9.846570e+001 -8.115510e+001 -1.159380e+002 -2.455060e+001 -5.053135e+001
3059062500 -2.722740e+001 1.737105e+002 -3.532046e+001 1.457493e+001 -9.102383e+001 6.915490e+001 -2.351515e+001 -6.118727e+001
3060156250 -2.955510e+001 -1.640841e+002 -3.457580e+001 -6.358731e+001 -9.419852e+001 7.050527e+001 -2.213466e+001 -6.790539e+001
3061250000 -3.154550e+001 -1.317857e+002 -3.492358e+001 -1.405743e+002 -8.954261e+001 1.717328e+002 -2.075770e+001 -7.053445e+001
3062343750 -3.158421e+001 -9.275716e+001 -3.634703e+001 1.395409e+002 -8.300313e+001 1.490768e+002 -1.951934e+001 -7.036129e+001
3063437500 -2.975859e+001 -6.050395e+001 -3.841092e+001 5.023376e+001 -9.095766e+001 1.371486e+002 -1.846990e+001 -6.868134e+001
3064531250 -2.747944e+001 -3.809883e+001 -3.923208e+001 -5.317715e+001 -9.018352e+001 1.161512e+002 -1.764909e+001 -6.573843e+001
3065625000 -2.559041e+001 -2.190764e+001 -3.753938e+001 -1.530739e+002 -8.217875e+001 -2.208047e+001 -1.695280e+001 -6.199479e+001
3066718750 -2.411739e+001 -8.717339e+000 -3.564680e+001 1.219457e+002 -8.864128e+001 -9.656782e+001 -1.644518e+001 -5.771729e+001
3067812500 -2.297728e+001 2.474247e+000 -3.476398e+001 4.385986e+001 -8.921125e+001 4.630799e+001 -1.606511e+001 -5.307520e+001
3068906250 -2.212632e+001 1.256863e+001 -3.516478e+001 -3.212893e+001 -8.480443e+001 7.498437e+001 -1.582984e+001 -4.832696e+001
3070000000 -2.156139e+001 2.209063e+001 -3.657508e+001 -1.096438e+002 -9.192977e+001 -4.912017e+001 -1.572497e+001 -4.352243e+001
3071093750 -2.120354e+001 3.105177e+001 -3.888319e+001 1.642010e+002 -8.188622e+001 -1.558937e+002 -1.575338e+001 -3.876554e+001
3072187500 -2.108202e+001 3.979999e+001 -4.047696e+001 6.197130e+001 -9.859251e+001 1.551238e+002 -1.592891e+001 -3.391645e+001
3073281250 -2.113311e+001 4.824255e+001 -3.897970e+001 -3.815558e+001 -9.930958e+001 -1.237232e+002 -1.622927e+001 -2.927864e+001
3074375000 -2.141346e+001 5.629100e+001 -3.679728e+001 -1.216516e+002 -7.985282e+001 -3.356864e+001 -1.664775e+001 -2.484719e+001
3075468750 -2.189739e+001 6.391783e+001 -3.536287e+001 1.635280e+002 -8.517910e+001 1.771609e+002 -1.720867e+001 -2.088277e+001
3076562500 -2.265495e+001 7.105769e+001 -3.477415e+001 9.068034e+001 -8.467938e+001 -1.548938e+002 -1.791287e+001 -1.765853e+001
3077656250 -2.368179e+001 7.762814e+001 -3.525813e+001 1.673763e+001 -8.314778e+001 8.367103e+001 -1.877735e+001 -1.511445e+001
3078750000 -2.512295e+001 8.327113e+001 -3.689147e+001 -6.294253e+001 -8.779057e+001 7.802152e+001 -1.981055e+001 -1.385995e+001
3079843750 -2.705752e+001 8.744773e+001 -3.920977e+001 -1.551284e+002 -8.647634e+001 -1.374854e+002 -2.100316e+001 -1.445208e+001
3080937500 -2.970107e+001 8.838978e+001 -3.961877e+001 1.004228e+002 -8.598236e+001 5.251374e+001 -2.229270e+001 -1.727340e+001
3082031250 -3.327422e+001 8.058716e+001 -3.756097e+001 7.014264e+000 -8.556505e+001 1.263810e+001 -2.351629e+001 -2.339673e+001
3083125000 -3.666018e+001 4.992025e+001 -3.565365e+001 -7.147701e+001 -8.147488e+001 -7.436568e+001 -2.444165e+001 -3.286050e+001
3084218750 -3.452817e+001 1.024602e+001 -3.465602e+001 -1.429669e+002 -8.027445e+001 -1.555336e+002 -2.468908e+001 -4.447718e+001
3085312500 -3.065814e+001 -3.358709e+000 -3.451102e+001 1.482674e+002 -8.663284e+001 8.681036e+001 -2.419375e+001 -5.495507e+001
3086406250 -2.765785e+001 -4.384662e+000 -3.507804e+001 7.913096e+001 -8.756560e+001 8.274513e+001 -2.326586e+001 -6.241716e+001
3087500000 -2.545806e+001 -1.566072e+000 -3.641066e+001 5.100743e+000 -8.121721e+001 7.912830e+001 -2.216171e+001 -6.667532e+001
3088593750 -2.383677e+001 3.487164e+000 -3.830982e+001 -7.910375e+001 -9.283401e+001 1.619084e+002 -2.113939e+001 -6.842944e+001
3089687500 -2.262017e+001 9.453910e+000 -3.890553e+001 -1.765321e+002 -8.336319e+001 1.621970e+002 -2.026972e+001 -6.834016e+001
3090781250 -2.172515e+001 1.612018e+001 -3.708138e+001 8.793316e+001 -9.522409e+001 1.294597e+002 -1.953382e+001 -6.724093e+001
3091875000 -2.106603e+001 2.327923e+001 -3.481633e+001 6.056926e+000 -8.463184e+001 1.568556e+002 -1.897776e+001 -6.519136e+001
3092968750 -2.062394e+001 3.060853e+001 -3.341961e+001 -6.851496e+001 -8.758105e+001 1.663158e+002 -1.854903e+001 -6.256598e+001
3094062500 -2.037891e+001 3.800764e+001 -3.298714e+001 -1.389360e+002 -8.462478e+001 -1.750618e+000 -1.825595e+001 -5.982401e+001
3095156250 -2.031982e+001 4.549243e+001 -3.341364e+001 1.518650e+002 -8.422009e+001 3.124824e+000 -1.805231e+001 -5.691349e+001
3096250000 -2.043804e+001 5.301184e+001 -3.440958e+001 8.139220e+001 -7.821323e+001 -8.744241e+001 -1.795260e+001 -5.412584e+001
3097343750 -2.077783e+001 6.079845e+001 -3.575989e+001 4.850716e+000 -7.933979e+001 1.409354e+002 -1.796145e+001 -5.132589e+001
3098437500 -2.131285e+001 6.864916e+001 -3.669521e+001 -8.213528e+001 -8.436720e+001 -6.784219e+001 -1.803121e+001 -4.902121e+001
3099531250 -2.206001e+001 7.656898e+001 -3.567402e+001 -1.746997e+002 -8.073037e+001 -1.247253e+002 -1.819871e+001 -4.691044e+001
3100625000 -2.308188e+001 8.455441e+001 -3.323220e+001 9.843813e+001 -8.473167e+001 -4.634181e+001 -1.841368e+001 -4.512806e+001
3101718750 -2.440108e+001 9.224915e+001 -3.101708e+001 1.816848e+001 -8.301738e+001 -1.340688e+002 -1.867339e+001 -4.368939e+001
3102812500 -2.619065e+001 1.003451e+002 -2.966272e+001 -5.820469e+001 -8.593108e+001 -1.431867e+002 -1.897312e+001 -4.268125e+001
3103906250 -2.863770e+001 1.084075e+002 -2.929166e+001 -1.343519e+002 -8.984763e+001 -1.861676e+001 -1.923665e+001 -4.213599e+001
3105000000 -3.234675e+001 1.171744e+002 -2.982939e+001 1.488753e+002 -8.882417e+001 -4.046779e+001 -1.950919e+001 -4.200922e+001
3106093750 -3.907430e+001 1.280221e+002 -3.112926e+001 6.882658e+001 -8.060051e+001 2.516271e+000 -1.976290e+001 -4.228060e+001
3107187500 -5.282971e+001 -8.514724e+001 -3.252115e+001 -1.684702e+001 -9.229230e+001 7.738956e+001 -1.998307e+001 -4.266003e+001
3108281250 -3.675711e+001 -4.674123e+001 -3.293645e+001 -1.078117e+002 -8.351790e+001 4.131782e+000 -2.018824e+001 -4.347717e+001
3109375000 -3.164001e+001 -3.703421e+001 -3.198233e+001 1.645957e+002 -8.391121e+001 -5.218317e+001 -2.036674e+001 -4.406140e+001
3110468750 -2.856371e+001 -2.842868e+001 -3.071133e+001 8.370542e+001 -8.488570e+001 -8.102777e+001 -2.052444e+001 -4.480061e+001
3111562500 -2.651946e+001 -2.030033e+001 -2.980963e+001 8.548720e+000 -8.044292e+001 1.361759e+002 -2.065936e+001 -4.522422e+001
3112656250 -2.509014e+001 -1.223533e+001 -2.945979e+001 -6.396214e+001 -8.002036e+001 -8.160190e+001 -2.080041e+001 -4.579128e+001
3113750000 -2.406248e+001 -4.381182e+000 -2.962998e+001 -1.369525e+002 -8.832787e+001 -1.352963e+002 -2.098485e+001 -4.615744e+001
3114843750 -2.339188e+001 3.359736e+000 -3.035324e+001 1.475573e+002 -8.372647e+001 3.699130e+001 -2.112822e+001 -4.667296e+001
3115937500 -2.295711e+001 1.093880e+001 -3.142282e+001 6.709223e+001 -8.105820e+001 1.102176e+002 -2.132908e+001 -4.758607e+001
3117031250 -2.279435e+001 1.855498e+001 -3.210912e+001 -1.938883e+001 -8.687572e+001 1.154725e+002 -2.155479e+001 -4.885020e+001
3118125000 -2.284951e+001 2.621926e+001 -3.162933e+001 -1.083581e+002 -8.796201e+001 -4.258893e+001 -2.174406e+001 -5.034954e+001
3119218750 -2.313936e+001 3.370837e+001 -3.023418e+001 1.668365e+002 -8.659801e+001 1.042679e+002 -2.195567e+001 -5.227351e+001
3120312500 -2.364797e+001 4.090186e+001 -2.893779e+001 8.734472e+001 -8.810785e+001 -1.794269e+002 -2.211482e+001 -5.464010e+001
3121406250 -2.443803e+001 4.798111e+001 -2.820662e+001 1.084528e+001 -8.140305e+001 -1.630114e+002 -2.215657e+001 -5.729329e+001
3122500000 -2.553084e+001 5.468013e+001 -2.807309e+001 -6.443131e+001 -8.169823e+001 -7.857216e+001 -2.209613e+001 -5.992859e+001
3123593750 -2.700830e+001 6.047585e+001 -2.846239e+001 -1.408782e+002 -9.016048e+001 -1.748447e+002 -2.191973e+001 -6.232473e+001
3124687500 -2.908428e+001 6.539023e+001 -2.921916e+001 1.394043e+002 -9.063682e+001 -4.489145e+001 -2.164290e+001 -6.427954e+001
3125781250 -3.205149e+001 6.750156e+001 -2.994396e+001 5.509493e+001 -7.935153e+001 -4.447937e+001 -2.128581e+001 -6.560513e+001
3126875000 -3.652514e+001 6.193675e+001 -3.020189e+001 -3.264411e+001 -8.115409e+001 -7.010792e+001 -2.089345e+001 -6.610686e+001
3127968750 -4.204544e+001 2.215761e+001 -2.961830e+001 -1.191593e+002 -8.642608e+001 -1.719894e+001 -2.052073e+001 -6.593906e+001
3129062500 -3.802321e+001 -3.163940e+001 -2.880737e+001 1.578571e+002 -8.708723e+001 3.895776e+001 -2.018973e+001 -6.493879e+001
3130156250 -3.306889e+001 -4.180231e+001 -2.822998e+001 7.782991e+001 -7.893622e+001 -1.436014e+002 -1.990195e+001 -6.314903e+001
3131250000 -2.985125e+001 -4.079258e+001 -2.817097e+001 -1.056718e+000 -7.912827e+001 -1.079929e+001 -1.970693e+001 -6.092245e+001
3132343750 -2.763451e+001 -3.675869e+001 -2.868236e+001 -8.108092e+001 -8.393732e+001 5.279840e+000 -1.960041e+001 -5.807467e+001
3133437500 -2.604091e+001 -3.108187e+001 -2.964811e+001 -1.637381e+002 -8.333707e+001 -1.576468e+002 -1.959797e+001 -5.488148e+001
3134531250 -2.488692e+001 -2.479186e+001 -3.063814e+001 1.097433e+002 -1.000269e+002 -1.356162e+002 -1.969524e+001 -5.150622e+001
3135625000 -2.406908e+001 -1.799819e+001 -3.116230e+001 2.157832e+001 -8.752062e+001 -7.216716e+001 -1.994012e+001 -4.809379e+001
3136718750 -2.355407e+001 -1.112895e+001 -3.104928e+001 -6.364270e+001 -8.946320e+001 1.578178e+002 -2.031005e+001 -4.470700e+001
3137812500 -2.323880e+001 -4.025681e+000 -3.058245e+001 -1.440971e+002 -8.398045e+001 -4.986855e+001 -2.085772e+001 -4.156591e+001
3138906250 -2.314948e+001 2.905696e+000 -3.033074e+001 1.382390e+002 -8.181487e+001 4.537353e+001 -2.162017e+001 -3.881960e+001
3140000000 -2.329016e+001 1.003368e+001 -3.058389e+001 6.065436e+001 -8.185193e+001 1.055536e+002 -2.257149e+001 -3.669384e+001
3141093750 -2.365602e+001 1.685220e+001 -3.143913e+001 -1.857398e+001 -1.031891e+002 1.099334e+002 -2.377954e+001 -3.564874e+001
3142187500 -2.427090e+001 2.348359e+001 -3.283541e+001 -1.029061e+002 -8.262625e+001 -1.305548e+002 -2.525744e+001 -3.636842e+001
3143281250 -2.517899e+001 2.988982e+001 -3.441185e+001 1.667092e+002 -8.542607e+001 -1.785001e+002 -2.693344e+001 -4.097123e+001
3144375000 -2.643815e+001 3.566427e+001 -3.513128e+001 7.339494e+001 -8.472826e+001 -1.345578e+002 -2.860910e+001 -5.114687e+001
3145468750 -2.818009e+001 4.071670e+001 -3.487718e+001 -1.444413e+001 -8.767348e+001 8.955390e+001 -2.956927e+001 -6.769348e+001
3146562500 -3.057989e+001 4.363215e+001 -3.459659e+001 -9.431971e+001 -1.198820e+002 1.391546e+002 -2.905974e+001 -8.650727e+001
3147656250 -3.402067e+001 4.064523e+001 -3.468697e+001 -1.695391e+002 -9.282070e+001 -7.602360e+001 -2.753209e+001 -9.959144e+001
3148750000 -3.856456e+001 2.050438e+001 -3.527467e+001 1.151464e+002 -8.077282e+001 -1.154238e+002 -2.568793e+001 -1.059192e+002
3149843750 -3.889969e+001 -3.200256e+001 -3.641065e+001 3.564972e+001 -8.105821e+001 8.143072e+000 -2.411907e+001 -1.079082e+002
3150937500 -3.422933e+001 -5.578037e+001 -3.798249e+001 -5.325498e+001 -8.574423e+001 8.316879e+001 -2.279817e+001 -1.070339e+002
3152031250 -3.057889e+001 -5.973212e+001 -3.833099e+001 -1.548023e+002 -9.584533e+001 8.926440e+001 -2.173147e+001 -1.046389e+002
3153125000 -2.803658e+001 -5.713144e+001 -3.694808e+001 1.057149e+002 -8.600429e+001 -1.420816e+001 -2.087204e+001 -1.012838e+002
3154218750 -2.621257e+001 -5.216973e+001 -3.545574e+001 1.713949e+001 -8.540980e+001 6.594424e+001 -2.023692e+001 -9.720114e+001
3155312500 -2.481497e+001 -4.625009e+001 -3.480911e+001 -6.456665e+001 -8.892001e+001 -8.467784e+001 -1.978188e+001 -9.298399e+001
3156406250 -2.374553e+001 -3.972498e+001 -3.514034e+001 -1.462633e+002 -8.156203e+001 8.875123e+001 -1.950624e+001 -8.859466e+001
3157500000 -2.296070e+001 -3.295667e+001 -3.638518e+001 1.284506e+002 -8.022575e+001 -1.381589e+002 -1.940199e+001 -8.422795e+001
3158593750 -2.244331e+001 -2.593406e+001 -3.784943e+001 3.613914e+001 -8.357420e+001 -1.719062e+002 -1.946894e+001 -7.997759e+001
3159687500 -2.213421e+001 -1.880608e+001 -3.791719e+001 -6.082993e+001 -8.365520e+001 -1.770005e+001 -1.969073e+001 -7.594664e+001
3160781250 -2.198693e+001 -1.170383e+001 -3.670173e+001 -1.533689e+002 -8.583466e+001 -1.503646e+002 -2.009464e+001 -7.229095e+001
3161875000 -2.205494e+001 -3.986413e+000 -3.535564e+001 1.240549e+002 -9.787226e+001 1.856318e+001 -2.064056e+001 -6.933983e+001
3162968750 -2.228198e+001 3.523290e+000 -3.431848e+001 4.523007e+001 -8.114967e+001 8.160133e+001 -2.130781e+001 -6.754483e+001
3164062500 -2.269289e+001 1.083412e+001 -3.378140e+001 -3.237852e+001 -8.153407e+001 -1.260121e+002 -2.215303e+001 -6.724288e+001
