!Agilent Technologies,E8363B,MY43030572,A.06.04.32
!Agilent E8363B: A.06.04.32
!Date: Tuesday, June 07, 2011 09:41:52
!Correction: S11(Full 2 Port(1,2)) S21(Full 2 Port(1,2)) S12(Full 2 Port(1,2)) S22(Full 2 Port(1,2)) 
!S2P File: Measurements: S11, S21, S12, S22:
# Hz S  dB   R 50
3000000000 -2.172139e+001 6.970670e+001 -3.328698e+001 1.038740e+002 -8.837878e+001 1.294485e+002 -1.623129e+001 -1.586476e+001
3001093750 -2.090435e+001 7.755905e+001 -3.413286e+001 2.313127e+001 -8.310660e+001 -1.499239e+002 -1.640878e+001 -1.289754e+001
3002187500 -2.035246e+001 8.578655e+001 -3.496281e+001 -5.588735e+001 -9.330906e+001 1.785083e+002 -1.663888e+001 -9.550773e+000
3003281250 -2.003145e+001 9.411285e+001 -3.674835e+001 -1.408758e+002 -9.088216e+001 -1.777125e-001 -1.699470e+001 -6.511437e+000
3004375000 -1.992095e+001 1.023897e+002 -3.897967e+001 1.266194e+002 -1.022319e+002 1.320575e+002 -1.749985e+001 -4.027917e+000
3005468750 -2.000374e+001 1.110314e+002 -4.022835e+001 2.965574e+001 -9.385735e+001 8.462646e+001 -1.809774e+001 -2.383492e+000
3006562500 -2.027926e+001 1.196787e+002 -4.003144e+001 -6.026466e+001 -8.260896e+001 3.034193e+001 -1.879184e+001 -1.830371e+000
3007656250 -2.076520e+001 1.282424e+002 -3.957758e+001 -1.366511e+002 -8.494810e+001 -1.509775e+002 -1.952219e+001 -2.733019e+000
3008750000 -2.147946e+001 1.369113e+002 -3.930547e+001 1.548338e+002 -8.239509e+001 1.797657e+002 -2.025041e+001 -5.381365e+000
3009843750 -2.250685e+001 1.457345e+002 -3.901583e+001 9.107141e+001 -8.745939e+001 -6.220959e+001 -2.084540e+001 -9.996712e+000
3010937500 -2.395779e+001 1.548930e+002 -3.852373e+001 2.642849e+001 -8.273891e+001 1.601279e+002 -2.118269e+001 -1.601038e+001
3012031250 -2.596659e+001 1.654819e+002 -3.789432e+001 -4.645970e+001 -9.327670e+001 -1.523264e+002 -2.116115e+001 -2.254082e+001
3013125000 -2.877650e+001 1.778185e+002 -3.767239e+001 -1.287985e+002 -8.921171e+001 -8.513074e+001 -2.078179e+001 -2.824508e+001
3014218750 -3.308746e+001 -1.636623e+002 -3.753514e+001 1.414523e+002 -8.446381e+001 -1.537875e+001 -2.018134e+001 -3.215207e+001
3015312500 -3.966987e+001 -1.161716e+002 -3.689282e+001 4.944921e+001 -8.149329e+001 3.354095e+001 -1.948327e+001 -3.420212e+001
3016406250 -3.660365e+001 -3.169352e+001 -3.604488e+001 -3.899541e+001 -9.438494e+001 6.747968e+001 -1.877237e+001 -3.463090e+001
3017500000 -3.086674e+001 -2.928376e+000 -3.533383e+001 -1.238532e+002 -8.079822e+001 1.998881e+001 -1.815373e+001 -3.366877e+001
3018593750 -2.715125e+001 1.166652e+001 -3.507576e+001 1.521406e+002 -8.663378e+001 2.056919e+000 -1.762843e+001 -3.166182e+001
3019687500 -2.470003e+001 2.266072e+001 -3.541396e+001 6.698192e+001 -8.301416e+001 1.761681e+002 -1.720939e+001 -2.892092e+001
3020781250 -2.289014e+001 3.215416e+001 -3.635819e+001 -1.962699e+001 -8.186452e+001 -3.049518e+001 -1.695431e+001 -2.572853e+001
3021875000 -2.158685e+001 4.122839e+001 -3.752214e+001 -1.062958e+002 -9.077706e+001 3.111496e+001 -1.682497e+001 -2.217462e+001
3022968750 -2.061624e+001 5.000705e+001 -3.851538e+001 1.671818e+002 -8.409224e+001 -1.599925e+002 -1.683397e+001 -1.844766e+001
3024062500 -1.989470e+001 5.853273e+001 -3.895869e+001 8.288007e+001 -8.093581e+001 6.181739e+001 -1.697310e+001 -1.462218e+001
3025156250 -1.940905e+001 6.711149e+001 -3.959007e+001 3.073910e+000 -9.121778e+001 -2.433002e+001 -1.726717e+001 -1.089650e+001
3026250000 -1.909343e+001 7.535007e+001 -4.077095e+001 -7.224747e+001 -8.630807e+001 -7.865917e+000 -1.769435e+001 -7.476298e+000
3027343750 -1.897045e+001 8.352092e+001 -4.223090e+001 -1.407756e+002 -9.024200e+001 1.071169e+002 -1.827343e+001 -4.474805e+000
3028437500 -1.903866e+001 9.160979e+001 -4.295548e+001 1.542515e+002 -8.145567e+001 -1.318902e+002 -1.902747e+001 -2.507992e+000
3029531250 -1.931602e+001 9.931744e+001 -4.237802e+001 8.565115e+001 -9.099693e+001 -8.162206e+001 -1.995876e+001 -1.898199e+000
3030625000 -1.977878e+001 1.071866e+002 -4.076207e+001 7.720982e+000 -9.255280e+001 -1.292640e+002 -2.103141e+001 -2.709606e+000
3031718750 -2.048046e+001 1.147262e+002 -3.874609e+001 -7.548173e+001 -8.487798e+001 -9.919769e+001 -2.218104e+001 -6.244642e+000
3032812500 -2.141554e+001 1.220274e+002 -3.686517e+001 -1.595040e+002 -9.426680e+001 8.312393e+001 -2.322791e+001 -1.291440e+001
3033906250 -2.264746e+001 1.290763e+002 -3.550406e+001 1.175564e+002 -8.718159e+001 -4.151052e+001 -2.388254e+001 -2.272236e+001
3035000000 -2.427707e+001 1.352416e+002 -3.483789e+001 3.478467e+001 -9.289511e+001 5.382365e+001 -2.377557e+001 -3.372962e+001
3036093750 -2.653345e+001 1.402200e+002 -3.468924e+001 -4.855271e+001 -8.886116e+001 7.785146e+001 -2.306303e+001 -4.295896e+001
3037187500 -2.976383e+001 1.419722e+002 -3.493272e+001 -1.334877e+002 -8.307832e+001 8.593019e+001 -2.199425e+001 -4.879889e+001
3038281250 -3.464143e+001 1.331281e+002 -3.525863e+001 1.381280e+002 -8.939483e+001 1.583232e+002 -2.085435e+001 -5.159261e+001
3039375000 -3.934364e+001 8.208515e+001 -3.532116e+001 4.711619e+001 -8.739023e+001 1.708448e+002 -1.983695e+001 -5.202390e+001
3040468750 -3.404966e+001 3.888259e+001 -3.513125e+001 -4.189822e+001 -9.326940e+001 9.481380e+000 -1.896462e+001 -5.079876e+001
3041562500 -2.948833e+001 3.268922e+001 -3.478997e+001 -1.273125e+002 -7.885698e+001 -1.743570e+002 -1.826679e+001 -4.819854e+001
3042656250 -2.653136e+001 3.529797e+001 -3.469632e+001 1.517023e+002 -8.481776e+001 -9.101697e+001 -1.772984e+001 -4.490909e+001
3043750000 -2.444649e+001 4.045496e+001 -3.507425e+001 7.278207e+001 -8.870110e+001 1.486483e+002 -1.736131e+001 -4.108471e+001
3044843750 -2.293839e+001 4.716854e+001 -3.563326e+001 -6.324318e+000 -7.962434e+001 9.072514e+001 -1.716400e+001 -3.699385e+001
3045937500 -2.182023e+001 5.437606e+001 -3.646164e+001 -8.687001e+001 -8.662606e+001 4.627092e+001 -1.709197e+001 -3.267533e+001
3047031250 -2.101959e+001 6.208059e+001 -3.712236e+001 -1.718408e+002 -7.799369e+001 8.421364e+001 -1.718461e+001 -2.836859e+001
3048125000 -2.047434e+001 6.981622e+001 -3.740472e+001 1.014953e+002 -8.484062e+001 1.445190e+002 -1.742677e+001 -2.434154e+001
3049218750 -2.014540e+001 7.796494e+001 -3.738024e+001 1.577017e+001 -9.219255e+001 5.977757e+001 -1.785574e+001 -2.040866e+001
3050312500 -2.003237e+001 8.631047e+001 -3.752311e+001 -6.694747e+001 -8.249123e+001 5.872848e+001 -1.846175e+001 -1.716191e+001
3051406250 -2.010451e+001 9.501704e+001 -3.811999e+001 -1.458635e+002 -9.408582e+001 -6.167496e+001 -1.923075e+001 -1.473138e+001
3052500000 -2.037511e+001 1.039506e+002 -3.933918e+001 1.402971e+002 -9.291080e+001 1.148384e+002 -2.023663e+001 -1.343312e+001
3053593750 -2.084803e+001 1.131929e+002 -4.037373e+001 6.806001e+001 -8.448466e+001 3.164535e+001 -2.141570e+001 -1.398714e+001
3054687500 -2.152198e+001 1.229925e+002 -4.065419e+001 -6.810294e+000 -8.005951e+001 -7.353904e+001 -2.272066e+001 -1.745977e+001
3055781250 -2.248562e+001 1.331803e+002 -3.984444e+001 -9.025758e+001 -9.174517e+001 1.018916e+002 -2.393801e+001 -2.500282e+001
3056875000 -2.370004e+001 1.443892e+002 -3.829030e+001 -1.791044e+002 -8.052371e+001 -5.862838e+001 -2.465605e+001 -3.676673e+001
3057968750 -2.530824e+001 1.576201e+002 -3.677961e+001 9.353929e+001 -8.722153e+001 1.291448e+002 -2.451001e+001 -5.033910e+001
3059062500 -2.730193e+001 1.739802e+002 -3.554554e+001 9.307842e+000 -8.850189e+001 1.527952e+002 -2.347455e+001 -6.124933e+001
3060156250 -2.961284e+001 -1.636728e+002 -3.508262e+001 -7.442076e+001 -8.415704e+001 -1.564633e+002 -2.211170e+001 -6.779659e+001
3061250000 -3.156426e+001 -1.311080e+002 -3.545388e+001 -1.596406e+002 -8.842348e+001 -1.655472e+002 -2.073261e+001 -7.057394e+001
3062343750 -3.155283e+001 -9.200253e+001 -3.630265e+001 1.103155e+002 -8.165086e+001 1.339155e+001 -1.952138e+001 -7.038662e+001
3063437500 -2.968309e+001 -5.991346e+001 -3.702826e+001 1.377988e+001 -8.818447e+001 -1.155100e+001 -1.846540e+001 -6.855622e+001
3064531250 -2.740814e+001 -3.794638e+001 -3.651773e+001 -8.425544e+001 -9.514486e+001 -1.723930e+002 -1.762980e+001 -6.562759e+001
3065625000 -2.553691e+001 -2.186271e+001 -3.534315e+001 -1.769830e+002 -8.744440e+001 -1.409761e+002 -1.695250e+001 -6.185548e+001
3066718750 -2.408276e+001 -8.821292e+000 -3.451175e+001 9.683102e+001 -8.187281e+001 1.534974e+002 -1.642153e+001 -5.769626e+001
3067812500 -2.295136e+001 2.299603e+000 -3.414146e+001 1.276898e+001 -8.514966e+001 -2.752913e+001 -1.605286e+001 -5.308097e+001
3068906250 -2.213099e+001 1.243716e+001 -3.445155e+001 -7.346130e+001 -8.596131e+001 8.541791e+001 -1.582489e+001 -4.829789e+001
3070000000 -2.156461e+001 2.194863e+001 -3.504865e+001 -1.634805e+002 -8.078646e+001 -5.037703e+001 -1.571046e+001 -4.357787e+001
3071093750 -2.121577e+001 3.097209e+001 -3.509875e+001 1.016688e+002 -8.851697e+001 -9.760274e+000 -1.575516e+001 -3.869959e+001
3072187500 -2.108170e+001 3.959739e+001 -3.429562e+001 7.795327e+000 -8.112738e+001 -2.355142e+001 -1.592145e+001 -3.393224e+001
3073281250 -2.115353e+001 4.796816e+001 -3.329181e+001 -8.123444e+001 -8.886131e+001 1.005568e+002 -1.621411e+001 -2.926395e+001
3074375000 -2.144510e+001 5.604671e+001 -3.269117e+001 -1.658158e+002 -8.349382e+001 -5.048820e+001 -1.663717e+001 -2.484883e+001
3075468750 -2.193306e+001 6.365742e+001 -3.264445e+001 1.117182e+002 -7.949574e+001 2.974812e+001 -1.718528e+001 -2.097348e+001
3076562500 -2.269651e+001 7.083468e+001 -3.300832e+001 2.809252e+001 -1.036194e+002 -1.475054e+002 -1.789431e+001 -1.768299e+001
3077656250 -2.374113e+001 7.727663e+001 -3.356335e+001 -5.759930e+001 -8.177386e+001 -1.062948e+002 -1.875633e+001 -1.523064e+001
3078750000 -2.519151e+001 8.298862e+001 -3.379252e+001 -1.466651e+002 -8.262756e+001 8.325836e+001 -1.980279e+001 -1.401967e+001
3079843750 -2.714243e+001 8.705183e+001 -3.350743e+001 1.246426e+002 -8.540765e+001 1.417274e+001 -2.098280e+001 -1.451667e+001
3080937500 -2.982962e+001 8.779337e+001 -3.299810e+001 4.088707e+001 -8.602911e+001 4.181831e+001 -2.228650e+001 -1.737043e+001
3082031250 -3.341459e+001 7.938653e+001 -3.265984e+001 -3.821172e+001 -7.639823e+001 1.264127e+002 -2.350518e+001 -2.333954e+001
3083125000 -3.663301e+001 4.732041e+001 -3.257425e+001 -1.144969e+002 -8.826336e+001 -5.953231e+001 -2.439955e+001 -3.284867e+001
3084218750 -3.433015e+001 8.554430e+000 -3.288943e+001 1.692644e+002 -8.409306e+001 -1.712716e+002 -2.463978e+001 -4.435146e+001
3085312500 -3.051621e+001 -3.859116e+000 -3.344995e+001 8.996958e+001 -8.198524e+001 9.355751e+001 -2.414478e+001 -5.489442e+001
3086406250 -2.756213e+001 -4.790816e+000 -3.379697e+001 7.719380e+000 -1.049892e+002 1.591249e+002 -2.320462e+001 -6.238281e+001
3087500000 -2.538386e+001 -1.953347e+000 -3.342324e+001 -7.851110e+001 -8.868271e+001 1.547888e+002 -2.214197e+001 -6.666259e+001
3088593750 -2.378570e+001 3.245814e+000 -3.225578e+001 -1.639500e+002 -9.400295e+001 -1.149716e+002 -2.111807e+001 -6.835773e+001
3089687500 -2.259608e+001 9.186555e+000 -3.091655e+001 1.136220e+002 -8.384084e+001 -1.037423e+002 -2.024657e+001 -6.835017e+001
3090781250 -2.170771e+001 1.598065e+001 -2.995099e+001 3.428834e+001 -9.011530e+001 -5.297821e+001 -1.953114e+001 -6.717401e+001
3091875000 -2.104890e+001 2.305519e+001 -2.963841e+001 -4.394601e+001 -8.363750e+001 3.639452e+001 -1.895653e+001 -6.511491e+001
3092968750 -2.061493e+001 3.039995e+001 -3.022824e+001 -1.225961e+002 -9.149108e+001 -1.362353e+002 -1.854342e+001 -6.249573e+001
3094062500 -2.038744e+001 3.777489e+001 -3.161732e+001 1.568015e+002 -8.127525e+001 -1.417317e+002 -1.823753e+001 -5.969191e+001
3095156250 -2.033249e+001 4.527501e+001 -3.348297e+001 7.179978e+001 -9.243547e+001 -8.625191e+001 -1.802421e+001 -5.686221e+001
3096250000 -2.046574e+001 5.285587e+001 -3.472527e+001 -1.804554e+001 -7.969958e+001 4.624114e+001 -1.793168e+001 -5.412105e+001
3097343750 -2.080530e+001 6.059398e+001 -3.431749e+001 -1.056965e+002 -8.477618e+001 -1.049876e+002 -1.793828e+001 -5.138068e+001
3098437500 -2.134088e+001 6.842955e+001 -3.304483e+001 1.725067e+002 -8.646678e+001 5.762910e+001 -1.802880e+001 -4.909322e+001
3099531250 -2.210594e+001 7.626952e+001 -3.199856e+001 9.804435e+001 -8.222609e+001 -1.350279e+002 -1.819991e+001 -4.687886e+001
3100625000 -2.314477e+001 8.424010e+001 -3.148878e+001 2.737894e+001 -8.413878e+001 3.114505e+001 -1.840758e+001 -4.504549e+001
3101718750 -2.447856e+001 9.189105e+001 -3.163444e+001 -4.121839e+001 -8.601364e+001 -1.791658e+002 -1.865941e+001 -4.365024e+001
3102812500 -2.629546e+001 9.988538e+001 -3.221748e+001 -1.089409e+002 -8.774348e+001 -1.449268e+002 -1.893813e+001 -4.265097e+001
3103906250 -2.881235e+001 1.078331e+002 -3.319982e+001 -1.796428e+002 -8.241393e+001 9.243072e+001 -1.921737e+001 -4.220735e+001
3105000000 -3.261415e+001 1.165732e+002 -3.450476e+001 1.025318e+002 -8.958278e+001 1.127451e+002 -1.947673e+001 -4.211929e+001
3106093750 -3.957744e+001 1.279955e+002 -3.539743e+001 1.445763e+001 -9.320039e+001 8.259201e+001 -1.975566e+001 -4.232470e+001
3107187500 -5.146030e+001 -7.462101e+001 -3.465087e+001 -7.650318e+001 -8.792069e+001 1.791993e+002 -1.997261e+001 -4.279239e+001
3108281250 -3.648570e+001 -4.647028e+001 -3.273158e+001 -1.608046e+002 -1.031900e+002 -1.325406e+002 -2.017816e+001 -4.345720e+001
3109375000 -3.144065e+001 -3.678780e+001 -3.097029e+001 1.230488e+002 -8.460936e+001 -1.648807e+002 -2.035459e+001 -4.411820e+001
3110468750 -2.846578e+001 -2.824609e+001 -2.973408e+001 5.058717e+001 -8.303844e+001 3.050898e+001 -2.048853e+001 -4.466207e+001
3111562500 -2.644512e+001 -2.023335e+001 -2.910401e+001 -2.131116e+001 -8.386850e+001 -9.442691e+001 -2.063559e+001 -4.528874e+001
3112656250 -2.503485e+001 -1.226571e+001 -2.906099e+001 -9.534877e+001 -8.474915e+001 3.999183e+001 -2.077121e+001 -4.569208e+001
3113750000 -2.403364e+001 -4.463866e+000 -2.957818e+001 -1.739413e+002 -8.876931e+001 -1.452648e+002 -2.093705e+001 -4.622112e+001
3114843750 -2.336756e+001 3.286942e+000 -3.038057e+001 1.008870e+002 -8.696669e+001 -8.415108e+001 -2.110925e+001 -4.684689e+001
3115937500 -2.296128e+001 1.090447e+001 -3.068551e+001 8.739928e+000 -8.720969e+001 1.522344e+002 -2.131396e+001 -4.766000e+001
3117031250 -2.280718e+001 1.843640e+001 -2.983245e+001 -8.256098e+001 -8.542054e+001 2.096008e+001 -2.152986e+001 -4.884129e+001
3118125000 -2.285700e+001 2.603339e+001 -2.851476e+001 -1.670254e+002 -8.640894e+001 1.562341e+002 -2.174930e+001 -5.033618e+001
3119218750 -2.314816e+001 3.357113e+001 -2.744968e+001 1.140793e+002 -8.328546e+001 6.883788e+001 -2.194282e+001 -5.228061e+001
3120312500 -2.366899e+001 4.078978e+001 -2.699307e+001 3.735300e+001 -8.835252e+001 1.636548e+002 -2.208796e+001 -5.465940e+001
3121406250 -2.446388e+001 4.781593e+001 -2.718193e+001 -3.949778e+001 -8.121066e+001 4.132983e+001 -2.213788e+001 -5.727220e+001
3122500000 -2.557058e+001 5.446570e+001 -2.798289e+001 -1.186151e+002 -8.812769e+001 1.474315e+002 -2.205593e+001 -5.998026e+001
3123593750 -2.709470e+001 6.032183e+001 -2.898414e+001 1.573886e+002 -9.607853e+001 1.739296e+002 -2.190159e+001 -6.239529e+001
3124687500 -2.921018e+001 6.498532e+001 -2.954940e+001 6.741689e+001 -1.011393e+002 1.751370e+002 -2.161742e+001 -6.435492e+001
3125781250 -3.219442e+001 6.698279e+001 -2.908799e+001 -2.456264e+001 -1.040871e+002 2.566707e+001 -2.126246e+001 -6.571202e+001
3126875000 -3.671582e+001 6.056033e+001 -2.806027e+001 -1.126640e+002 -8.160832e+001 -1.325006e+002 -2.089535e+001 -6.620432e+001
3127968750 -4.214195e+001 1.862945e+001 -2.722655e+001 1.637359e+002 -8.461485e+001 2.849136e+001 -2.050650e+001 -6.601962e+001
3129062500 -3.781589e+001 -3.275414e+001 -2.709889e+001 8.215956e+001 -9.084550e+001 1.533404e+002 -2.016821e+001 -6.493935e+001
3130156250 -3.288793e+001 -4.222950e+001 -2.778640e+001 -8.789430e-002 -8.502200e+001 5.189806e+001 -1.987648e+001 -6.318658e+001
3131250000 -2.970930e+001 -4.109668e+001 -2.916373e+001 -8.556335e+001 -8.524215e+001 -1.270436e+002 -1.969650e+001 -6.097394e+001
3132343750 -2.757281e+001 -3.701649e+001 -3.073178e+001 -1.781546e+002 -8.389381e+001 7.179549e+001 -1.958756e+001 -5.816240e+001
3133437500 -2.598195e+001 -3.138631e+001 -3.130795e+001 8.323220e+001 -8.467888e+001 1.742367e+001 -1.957307e+001 -5.491730e+001
3134531250 -2.485956e+001 -2.487880e+001 -3.085121e+001 -1.218449e+001 -8.303614e+001 2.761555e+001 -1.968389e+001 -5.155761e+001
3135625000 -2.405484e+001 -1.808060e+001 -3.034534e+001 -1.008456e+002 -9.264008e+001 -1.203531e+002 -1.992715e+001 -4.822733e+001
3136718750 -2.354074e+001 -1.119034e+001 -3.064633e+001 1.750995e+002 -8.611160e+001 1.740885e+002 -2.029702e+001 -4.483836e+001
3137812500 -2.323416e+001 -4.150481e+000 -3.190765e+001 9.269202e+001 -7.816403e+001 -7.788300e+001 -2.084767e+001 -4.164671e+001
3138906250 -2.315466e+001 2.812913e+000 -3.381697e+001 8.272769e+000 -8.449090e+001 5.996627e+001 -2.159937e+001 -3.885535e+001
3140000000 -2.330183e+001 9.825172e+000 -3.538800e+001 -8.271244e+001 -9.067549e+001 4.219600e+001 -2.255389e+001 -3.677734e+001
3141093750 -2.369406e+001 1.666389e+001 -3.520299e+001 -1.771619e+002 -8.593900e+001 -7.436584e+001 -2.375907e+001 -3.567915e+001
3142187500 -2.432354e+001 2.337589e+001 -3.339129e+001 9.343490e+001 -8.547231e+001 1.622985e+002 -2.522084e+001 -3.658132e+001
3143281250 -2.524092e+001 2.982877e+001 -3.160356e+001 9.535663e+000 -8.468999e+001 -1.397214e+002 -2.689592e+001 -4.096314e+001
3144375000 -2.652481e+001 3.553622e+001 -3.055327e+001 -7.324557e+001 -8.324422e+001 -6.931316e+001 -2.858070e+001 -5.131648e+001
3145468750 -2.828470e+001 4.061052e+001 -3.024183e+001 -1.572433e+002 -8.738208e+001 1.746996e+002 -2.953411e+001 -6.807441e+001
3146562500 -3.071642e+001 4.338446e+001 -3.039704e+001 1.145778e+002 -8.847277e+001 -2.786331e+001 -2.901707e+001 -8.643201e+001
3147656250 -3.427076e+001 3.984274e+001 -3.041460e+001 2.324585e+001 -8.540836e+001 1.401729e+001 -2.750281e+001 -9.961751e+001
3148750000 -3.893602e+001 1.757492e+001 -2.981796e+001 -6.801533e+001 -8.607873e+001 2.780873e+001 -2.568482e+001 -1.059277e+002
3149843750 -3.880362e+001 -3.545780e+001 -2.884779e+001 -1.549039e+002 -8.550840e+001 3.898921e+001 -2.409778e+001 -1.076734e+002
3150937500 -3.406549e+001 -5.780952e+001 -2.796060e+001 1.227707e+002 -7.711806e+001 -9.694588e+001 -2.277286e+001 -1.069839e+002
3152031250 -3.045408e+001 -6.064946e+001 -2.739935e+001 4.308692e+001 -8.143498e+001 1.484496e+002 -2.172425e+001 -1.046075e+002
3153125000 -2.793672e+001 -5.770866e+001 -2.722566e+001 -3.680138e+001 -8.165097e+001 1.528521e+002 -2.084855e+001 -1.012833e+002
3154218750 -2.612468e+001 -5.272115e+001 -2.742200e+001 -1.190028e+002 -8.626540e+001 1.106031e+002 -2.021312e+001 -9.726118e+001
3155312500 -2.472861e+001 -4.667990e+001 -2.767809e+001 1.554747e+002 -8.342338e+001 1.347065e+002 -1.977253e+001 -9.302531e+001
3156406250 -2.368392e+001 -4.008415e+001 -2.763921e+001 6.761488e+001 -9.982336e+001 1.578163e+002 -1.948355e+001 -8.864027e+001
3157500000 -2.291605e+001 -3.334090e+001 -2.707844e+001 -1.965841e+001 -8.461559e+001 1.514423e+002 -1.939090e+001 -8.426170e+001
3158593750 -2.240551e+001 -2.630319e+001 -2.628786e+001 -1.042958e+002 -9.178245e+001 2.248896e+001 -1.945277e+001 -7.998505e+001
3159687500 -2.211498e+001 -1.918954e+001 -2.564121e+001 1.736066e+002 -8.627716e+001 2.515331e+001 -1.967591e+001 -7.597050e+001
3160781250 -2.197487e+001 -1.189794e+001 -2.538657e+001 9.230003e+001 -7.909387e+001 -1.459907e+002 -2.007867e+001 -7.226485e+001
3161875000 -2.203496e+001 -4.250994e+000 -2.553714e+001 1.050969e+001 -8.270932e+001 -7.644510e+001 -2.061343e+001 -6.943782e+001
3162968750 -2.225632e+001 3.282499e+000 -2.599834e+001 -7.305667e+001 -8.411119e+001 2.882806e+000 -2.130163e+001 -6.754218e+001
3164062500 -2.272044e+001 1.056010e+001 -2.652078e+001 -1.584143e+002 -8.750911e+001 1.596425e+002 -2.213296e+001 -6.734110e+001
