!Agilent Technologies,E8363B,MY43030572,A.06.04.32
!Agilent E8363B: A.06.04.32
!Date: Tuesday, June 07, 2011 09:39:17
!Correction: S11(Full 2 Port(1,2)) S21(Full 2 Port(1,2)) S12(Full 2 Port(1,2)) S22(Full 2 Port(1,2)) 
!S2P File: Measurements: S11, S21, S12, S22:
# Hz S  dB   R 50
3000000000 -2.174457e+001 6.950252e+001 -3.086412e+001 1.264183e+002 -9.328439e+001 -1.615433e+002 -1.623870e+001 -1.587784e+001
3001093750 -2.092393e+001 7.738613e+001 -3.144246e+001 4.194371e+001 -8.627448e+001 5.625372e+001 -1.641365e+001 -1.287639e+001
3002187500 -2.036675e+001 8.558399e+001 -3.167013e+001 -3.814634e+001 -8.570892e+001 1.636236e+002 -1.663717e+001 -9.521138e+000
3003281250 -2.004748e+001 9.391158e+001 -3.255595e+001 -1.196594e+002 -8.835065e+001 4.780237e+001 -1.701986e+001 -6.453221e+000
3004375000 -1.992775e+001 1.023970e+002 -3.373714e+001 1.553853e+002 -8.739217e+001 1.489096e+002 -1.749836e+001 -3.954595e+000
3005468750 -1.997686e+001 1.109526e+002 -3.469152e+001 6.657083e+001 -8.419917e+001 6.892472e+001 -1.810510e+001 -2.380164e+000
3006562500 -2.024574e+001 1.195217e+002 -3.490918e+001 -2.273659e+001 -1.021326e+002 -1.763960e+002 -1.879872e+001 -1.801093e+000
3007656250 -2.073026e+001 1.280549e+002 -3.449877e+001 -1.084363e+002 -8.381319e+001 1.240416e+002 -1.952112e+001 -2.684987e+000
3008750000 -2.144019e+001 1.366764e+002 -3.394784e+001 1.711572e+002 -8.638506e+001 -3.004042e+001 -2.026129e+001 -5.387376e+000
3009843750 -2.249384e+001 1.456279e+002 -3.352178e+001 9.381171e+001 -8.276198e+001 1.227607e+002 -2.084331e+001 -9.977206e+000
3010937500 -2.391608e+001 1.549819e+002 -3.318259e+001 1.697504e+001 -7.927937e+001 9.476480e+001 -2.118100e+001 -1.593968e+001
3012031250 -2.588503e+001 1.654141e+002 -3.297843e+001 -6.360342e+001 -8.994241e+001 -1.435104e+000 -2.117404e+001 -2.248012e+001
3013125000 -2.865453e+001 1.775950e+002 -3.287508e+001 -1.493889e+002 -9.677595e+001 -1.028427e+002 -2.079018e+001 -2.816549e+001
3014218750 -3.286415e+001 -1.645094e+002 -3.275085e+001 1.216913e+002 -8.848199e+001 1.583617e+002 -2.018879e+001 -3.215776e+001
3015312500 -3.947657e+001 -1.189187e+002 -3.238449e+001 3.235480e+001 -8.332129e+001 -8.277429e+001 -1.948907e+001 -3.417820e+001
3016406250 -3.680732e+001 -3.251005e+001 -3.201462e+001 -5.550341e+001 -8.628886e+001 6.373143e-001 -1.878279e+001 -3.458864e+001
3017500000 -3.091615e+001 -3.298053e+000 -3.173398e+001 -1.407997e+002 -8.537581e+001 1.660349e+002 -1.815043e+001 -3.363506e+001
3018593750 -2.721705e+001 1.126057e+001 -3.170156e+001 1.334052e+002 -9.609117e+001 1.458935e+001 -1.763063e+001 -3.164441e+001
3019687500 -2.472421e+001 2.236376e+001 -3.190579e+001 4.698241e+001 -1.023080e+002 9.663195e+001 -1.722174e+001 -2.884397e+001
3020781250 -2.293050e+001 3.198898e+001 -3.227814e+001 -4.096172e+001 -8.650486e+001 1.447066e+002 -1.696169e+001 -2.571731e+001
3021875000 -2.160335e+001 4.116560e+001 -3.258857e+001 -1.294127e+002 -9.753896e+001 1.292390e+002 -1.682125e+001 -2.213353e+001
3022968750 -2.062133e+001 4.994638e+001 -3.274875e+001 1.436541e+002 -8.897665e+001 -6.039762e+001 -1.683361e+001 -1.844595e+001
3024062500 -1.989289e+001 5.844501e+001 -3.280577e+001 5.779522e+001 -8.984499e+001 -1.571844e+002 -1.698163e+001 -1.461017e+001
3025156250 -1.938623e+001 6.708714e+001 -3.308370e+001 -2.658093e+001 -8.437397e+001 8.971488e+001 -1.727092e+001 -1.086580e+001
3026250000 -1.907714e+001 7.535404e+001 -3.360653e+001 -1.091959e+002 -9.554726e+001 -1.719518e+002 -1.768206e+001 -7.401413e+000
3027343750 -1.894866e+001 8.342004e+001 -3.429028e+001 1.684292e+002 -8.362217e+001 -1.696696e+002 -1.828316e+001 -4.520109e+000
3028437500 -1.902261e+001 9.146373e+001 -3.480416e+001 8.596709e+001 -9.227270e+001 -1.130967e+002 -1.903841e+001 -2.481866e+000
3029531250 -1.929295e+001 9.924394e+001 -3.476600e+001 3.747700e+000 -9.039802e+001 -3.807970e+001 -1.995775e+001 -1.785916e+000
3030625000 -1.974782e+001 1.071163e+002 -3.439308e+001 -7.844795e+001 -9.466291e+001 1.155000e+002 -2.102716e+001 -2.718668e+000
3031718750 -2.043839e+001 1.147142e+002 -3.374082e+001 -1.586061e+002 -1.034414e+002 -1.062633e+002 -2.218852e+001 -6.183352e+000
3032812500 -2.135677e+001 1.221119e+002 -3.315255e+001 1.209296e+002 -8.417346e+001 1.689116e+002 -2.325520e+001 -1.284151e+001
3033906250 -2.257801e+001 1.290699e+002 -3.286058e+001 4.020460e+001 -9.958598e+001 6.549324e+001 -2.388600e+001 -2.263329e+001
3035000000 -2.419729e+001 1.354784e+002 -3.279541e+001 -4.279234e+001 -8.522231e+001 1.386308e+002 -2.378577e+001 -3.365654e+001
3036093750 -2.642909e+001 1.404103e+002 -3.299131e+001 -1.281481e+002 -8.665060e+001 4.148862e-001 -2.306246e+001 -4.291605e+001
3037187500 -2.964651e+001 1.422931e+002 -3.305485e+001 1.445447e+002 -8.904791e+001 9.125572e+001 -2.201773e+001 -4.878657e+001
3038281250 -3.452298e+001 1.345921e+002 -3.278642e+001 5.635066e+001 -8.930744e+001 3.210264e+001 -2.086756e+001 -5.163243e+001
3039375000 -3.950550e+001 8.477915e+001 -3.225652e+001 -3.103250e+001 -8.998350e+001 1.247142e+002 -1.984105e+001 -5.204054e+001
3040468750 -3.428614e+001 3.900801e+001 -3.185163e+001 -1.159691e+002 -9.488844e+001 -3.209985e+001 -1.896723e+001 -5.071777e+001
3041562500 -2.958954e+001 3.266440e+001 -3.175998e+001 1.608756e+002 -8.342303e+001 -9.825829e+001 -1.827700e+001 -4.824168e+001
3042656250 -2.660451e+001 3.513633e+001 -3.208737e+001 7.821928e+001 -8.089442e+001 -1.674130e+002 -1.773363e+001 -4.492000e+001
3043750000 -2.450441e+001 4.028142e+001 -3.274359e+001 -4.791250e+000 -8.610515e+001 -1.508904e+002 -1.736453e+001 -4.108261e+001
3044843750 -2.296696e+001 4.698235e+001 -3.347980e+001 -8.842953e+001 -8.176099e+001 7.674802e+001 -1.716645e+001 -3.698763e+001
3045937500 -2.184417e+001 5.419515e+001 -3.406321e+001 -1.726445e+002 -8.619807e+001 -1.087238e+002 -1.710290e+001 -3.268370e+001
3047031250 -2.101414e+001 6.185835e+001 -3.418993e+001 1.041756e+002 -8.795739e+001 -1.638880e+002 -1.718461e+001 -2.837578e+001
3048125000 -2.047557e+001 6.971744e+001 -3.397744e+001 2.122226e+001 -8.042692e+001 -1.104792e+002 -1.742954e+001 -2.426947e+001
3049218750 -2.014757e+001 7.788271e+001 -3.375137e+001 -6.077389e+001 -9.348229e+001 -1.101126e+001 -1.785884e+001 -2.041369e+001
3050312500 -2.003199e+001 8.625157e+001 -3.372132e+001 -1.438020e+002 -8.496336e+001 -1.527421e+002 -1.846440e+001 -1.711792e+001
3051406250 -2.009826e+001 9.488419e+001 -3.408850e+001 1.307962e+002 -9.412139e+001 4.950003e+001 -1.923508e+001 -1.463445e+001
3052500000 -2.035664e+001 1.038926e+002 -3.494994e+001 4.381487e+001 -8.863189e+001 -1.544089e+001 -2.023901e+001 -1.339882e+001
3053593750 -2.081436e+001 1.130715e+002 -3.593658e+001 -4.383011e+001 -8.209772e+001 -1.905673e+001 -2.141032e+001 -1.393878e+001
3054687500 -2.148798e+001 1.228354e+002 -3.684603e+001 -1.293789e+002 -9.121840e+001 1.657358e+001 -2.272413e+001 -1.739642e+001
3055781250 -2.243043e+001 1.329565e+002 -3.777642e+001 1.509727e+002 -8.484135e+001 2.227276e+001 -2.394227e+001 -2.493383e+001
3056875000 -2.365216e+001 1.443279e+002 -3.840374e+001 7.843312e+001 -8.271632e+001 -1.297298e+002 -2.468026e+001 -3.678770e+001
3057968750 -2.525435e+001 1.575139e+002 -3.857971e+001 6.789154e+000 -7.891151e+001 8.567685e+001 -2.450389e+001 -5.028840e+001
3059062500 -2.722817e+001 1.739213e+002 -3.866277e+001 -6.596046e+001 -1.014965e+002 1.419568e+002 -2.347607e+001 -6.119345e+001
3060156250 -2.950824e+001 -1.640329e+002 -3.862222e+001 -1.447459e+002 -8.237518e+001 -2.613557e+001 -2.213074e+001 -6.785798e+001
3061250000 -3.148072e+001 -1.320134e+002 -3.843258e+001 1.297194e+002 -9.247693e+001 -1.358728e+002 -2.074418e+001 -7.058344e+001
3062343750 -3.153407e+001 -9.292842e+001 -3.785617e+001 3.929636e+001 -8.567046e+001 -3.231683e+001 -1.952808e+001 -7.036952e+001
3063437500 -2.970664e+001 -6.052058e+001 -3.678820e+001 -4.974768e+001 -9.267123e+001 -8.903008e+001 -1.848266e+001 -6.858796e+001
3064531250 -2.743040e+001 -3.827312e+001 -3.559178e+001 -1.337580e+002 -9.321788e+001 1.383539e+002 -1.764024e+001 -6.560101e+001
3065625000 -2.555583e+001 -2.222327e+001 -3.481018e+001 1.453695e+002 -8.296011e+001 8.291188e+001 -1.695344e+001 -6.194012e+001
3066718750 -2.406627e+001 -9.137766e+000 -3.460300e+001 6.586398e+001 -7.825559e+001 -2.238032e+001 -1.643142e+001 -5.764972e+001
3067812500 -2.294561e+001 2.079891e+000 -3.491330e+001 -1.519451e+001 -9.546413e+001 -1.349252e+002 -1.607229e+001 -5.312035e+001
3068906250 -2.211077e+001 1.221958e+001 -3.543289e+001 -9.990650e+001 -8.137254e+001 3.121919e+001 -1.581765e+001 -4.830242e+001
3070000000 -2.155799e+001 2.173653e+001 -3.570704e+001 1.689471e+002 -8.703452e+001 9.167358e+001 -1.572102e+001 -4.357502e+001
3071093750 -2.119603e+001 3.086492e+001 -3.505048e+001 7.575449e+001 -9.187186e+001 6.964828e+001 -1.575371e+001 -3.872525e+001
3072187500 -2.105802e+001 3.953116e+001 -3.381821e+001 -1.433628e+001 -8.610113e+001 -1.624175e+002 -1.592167e+001 -3.392483e+001
3073281250 -2.111951e+001 4.795569e+001 -3.277470e+001 -1.003900e+002 -7.991382e+001 1.232743e+002 -1.622293e+001 -2.924286e+001
3074375000 -2.140307e+001 5.596942e+001 -3.234800e+001 1.759418e+002 -1.075085e+002 -1.206983e+002 -1.663557e+001 -2.482517e+001
3075468750 -2.188375e+001 6.350135e+001 -3.243410e+001 9.169437e+001 -8.296559e+001 5.542839e+001 -1.718839e+001 -2.090280e+001
3076562500 -2.265439e+001 7.073538e+001 -3.297113e+001 3.875556e+000 -8.827296e+001 3.714921e+001 -1.789692e+001 -1.771575e+001
3077656250 -2.370065e+001 7.736681e+001 -3.363085e+001 -8.871249e+001 -9.998757e+001 8.302203e+000 -1.876530e+001 -1.516806e+001
3078750000 -2.513540e+001 8.309824e+001 -3.379271e+001 1.761241e+002 -8.421459e+001 -8.756386e+001 -1.980289e+001 -1.394513e+001
3079843750 -2.705054e+001 8.748746e+001 -3.351760e+001 8.424992e+001 -8.748478e+001 1.937160e+001 -2.099071e+001 -1.447557e+001
3080937500 -2.967769e+001 8.860191e+001 -3.354248e+001 -2.627529e+000 -9.267647e+001 -1.774754e+002 -2.228275e+001 -1.730220e+001
3082031250 -3.322519e+001 8.041634e+001 -3.431582e+001 -8.609532e+001 -8.232509e+001 9.249631e+001 -2.351834e+001 -2.313333e+001
3083125000 -3.657477e+001 4.964430e+001 -3.606764e+001 -1.686288e+002 -8.062179e+001 -1.650037e+002 -2.442287e+001 -3.279523e+001
3084218750 -3.449754e+001 9.493374e+000 -3.877081e+001 1.045628e+002 -9.065303e+001 -1.248798e+002 -2.465738e+001 -4.433097e+001
3085312500 -3.062366e+001 -3.953873e+000 -4.133768e+001 8.184612e+000 -8.514990e+001 1.325645e+002 -2.415376e+001 -5.487670e+001
3086406250 -2.764651e+001 -5.155370e+000 -4.220058e+001 -9.214968e+001 -8.733521e+001 -5.445979e+001 -2.323066e+001 -6.228648e+001
3087500000 -2.545558e+001 -2.256306e+000 -4.188631e+001 -1.773359e+002 -9.136950e+001 -1.548676e+001 -2.213687e+001 -6.671025e+001
3088593750 -2.385660e+001 3.062609e+000 -4.213019e+001 1.131577e+002 -8.326860e+001 -1.798855e+002 -2.112577e+001 -6.833836e+001
3089687500 -2.262430e+001 9.061447e+000 -4.285778e+001 5.827446e+001 -8.482771e+001 3.049170e+001 -2.026204e+001 -6.833693e+001
3090781250 -2.172178e+001 1.591205e+001 -4.252926e+001 1.394146e+001 -8.364936e+001 7.109890e+001 -1.954253e+001 -6.718159e+001
3091875000 -2.105777e+001 2.290023e+001 -4.141777e+001 -3.543008e+001 -8.487424e+001 6.526065e+001 -1.897607e+001 -6.513803e+001
3092968750 -2.061094e+001 3.012308e+001 -4.127708e+001 -9.271529e+001 -9.703857e+001 8.576634e+001 -1.855830e+001 -6.251395e+001
3094062500 -2.037783e+001 3.756209e+001 -4.261732e+001 -1.464328e+002 -7.992555e+001 6.650113e+001 -1.823888e+001 -5.970736e+001
3095156250 -2.032404e+001 4.505898e+001 -4.437132e+001 1.618946e+002 -9.555059e+001 -1.601402e+002 -1.803176e+001 -5.687119e+001
3096250000 -2.045488e+001 5.272570e+001 -4.692663e+001 1.046230e+002 -8.540532e+001 1.318701e+002 -1.794316e+001 -5.411032e+001
3097343750 -2.078378e+001 6.058204e+001 -5.436638e+001 -2.098139e+000 -8.671250e+001 1.436396e+002 -1.794832e+001 -5.139394e+001
3098437500 -2.130675e+001 6.837785e+001 -4.712139e+001 -1.588195e+002 -9.188773e+001 -1.748826e+002 -1.804302e+001 -4.904459e+001
3099531250 -2.204939e+001 7.624874e+001 -4.053131e+001 1.218227e+002 -8.309301e+001 -1.151251e+002 -1.819790e+001 -4.683173e+001
3100625000 -2.307408e+001 8.408192e+001 -3.736403e+001 5.368132e+001 -8.029475e+001 -3.664511e+001 -1.841303e+001 -4.511235e+001
3101718750 -2.439555e+001 9.182635e+001 -3.572093e+001 -1.032719e+001 -8.578242e+001 1.153872e+002 -1.866211e+001 -4.364161e+001
3102812500 -2.620886e+001 9.976886e+001 -3.483815e+001 -7.445094e+001 -8.746004e+001 7.842879e+001 -1.895197e+001 -4.271667e+001
3103906250 -2.871471e+001 1.081027e+002 -3.468773e+001 -1.413352e+002 -8.778182e+001 -5.848029e+001 -1.923273e+001 -4.215316e+001
3105000000 -3.244185e+001 1.170800e+002 -3.529004e+001 1.473294e+002 -8.333619e+001 -2.908518e+001 -1.948820e+001 -4.204387e+001
3106093750 -3.912379e+001 1.290669e+002 -3.646822e+001 6.672238e+001 -8.407478e+001 -4.856303e+001 -1.976090e+001 -4.233133e+001
3107187500 -5.265524e+001 -8.732748e+001 -3.678736e+001 -2.691275e+001 -7.940752e+001 -1.509970e+002 -1.997457e+001 -4.271385e+001
3108281250 -3.677306e+001 -4.695652e+001 -3.491883e+001 -1.227840e+002 -1.059361e+002 1.478755e+002 -2.016569e+001 -4.346003e+001
3109375000 -3.157783e+001 -3.726204e+001 -3.231131e+001 1.510363e+002 -8.303269e+001 -4.188014e+001 -2.037130e+001 -4.400443e+001
3110468750 -2.850060e+001 -2.877180e+001 -3.018854e+001 7.205431e+001 -8.974207e+001 3.027104e+001 -2.051153e+001 -4.474477e+001
3111562500 -2.646177e+001 -2.062531e+001 -2.896688e+001 -4.253976e+000 -9.025257e+001 6.068609e+001 -2.063410e+001 -4.525623e+001
3112656250 -2.504688e+001 -1.273980e+001 -2.847479e+001 -8.119624e+001 -9.139539e+001 -1.384232e+002 -2.078738e+001 -4.570985e+001
3113750000 -2.404861e+001 -4.953546e+000 -2.865477e+001 -1.612604e+002 -9.168961e+001 1.687223e+002 -2.095042e+001 -4.620747e+001
3114843750 -2.338277e+001 2.943789e+000 -2.917451e+001 1.133315e+002 -8.144221e+001 -6.958158e+001 -2.112852e+001 -4.679791e+001
3115937500 -2.296095e+001 1.065380e+001 -2.927925e+001 2.166969e+001 -8.225608e+001 -1.141980e+002 -2.132081e+001 -4.748876e+001
3117031250 -2.277737e+001 1.831243e+001 -2.839626e+001 -7.069971e+001 -9.486800e+001 -1.331063e+002 -2.155438e+001 -4.882028e+001
3118125000 -2.281677e+001 2.587237e+001 -2.694066e+001 -1.583430e+002 -9.115555e+001 -1.728749e-001 -2.175159e+001 -5.027064e+001
3119218750 -2.310261e+001 3.333908e+001 -2.570083e+001 1.188081e+002 -8.014190e+001 1.523129e+002 -2.194698e+001 -5.218969e+001
3120312500 -2.360924e+001 4.054798e+001 -2.507796e+001 3.800125e+001 -8.449885e+001 -2.207622e+001 -2.210847e+001 -5.453786e+001
3121406250 -2.441167e+001 4.758313e+001 -2.511059e+001 -4.319594e+001 -8.498019e+001 7.887852e+001 -2.215180e+001 -5.727561e+001
3122500000 -2.549270e+001 5.434002e+001 -2.568558e+001 -1.267427e+002 -8.511230e+001 -9.704897e+001 -2.208231e+001 -5.993061e+001
3123593750 -2.699631e+001 6.030740e+001 -2.640117e+001 1.455846e+002 -8.201968e+001 -1.174679e+002 -2.190337e+001 -6.237980e+001
3124687500 -2.905047e+001 6.535879e+001 -2.665819e+001 5.384678e+001 -9.826814e+001 -1.227706e+002 -2.162566e+001 -6.432422e+001
3125781250 -3.199633e+001 6.778919e+001 -2.617305e+001 -3.783341e+001 -8.100373e+001 -3.767976e+001 -2.128086e+001 -6.562137e+001
3126875000 -3.637288e+001 6.237342e+001 -2.536989e+001 -1.259243e+002 -8.197857e+001 -2.013938e+001 -2.088899e+001 -6.618760e+001
3127968750 -4.194904e+001 2.279270e+001 -2.480025e+001 1.494524e+002 -9.584006e+001 2.073023e+001 -2.051589e+001 -6.586496e+001
3129062500 -3.807635e+001 -3.169765e+001 -2.475736e+001 6.593884e+001 -8.641382e+001 -1.021150e+001 -2.017102e+001 -6.493313e+001
3130156250 -3.310641e+001 -4.223367e+001 -2.528914e+001 -1.849385e+001 -9.548820e+001 5.782550e+001 -1.988541e+001 -6.313353e+001
3131250000 -2.984984e+001 -4.144512e+001 -2.611572e+001 -1.060172e+002 -8.349277e+001 -1.442408e+002 -1.969107e+001 -6.089815e+001
3132343750 -2.767398e+001 -3.745770e+001 -2.678193e+001 1.629873e+002 -8.156026e+001 8.108806e+001 -1.959967e+001 -5.806267e+001
3133437500 -2.607489e+001 -3.166021e+001 -2.681806e+001 7.054321e+001 -9.122348e+001 -3.333034e+001 -1.957656e+001 -5.489565e+001
3134531250 -2.491339e+001 -2.523650e+001 -2.639335e+001 -1.930151e+001 -8.671572e+001 1.675763e+002 -1.968658e+001 -5.155739e+001
3135625000 -2.407925e+001 -1.848033e+001 -2.604183e+001 -1.054322e+002 -8.714783e+001 -9.099970e+001 -1.992863e+001 -4.811470e+001
3136718750 -2.355075e+001 -1.148748e+001 -2.612270e+001 1.704845e+002 -8.622472e+001 3.314150e+001 -2.030649e+001 -4.480600e+001
3137812500 -2.322672e+001 -4.490761e+000 -2.666373e+001 8.631050e+001 -8.068988e+001 4.374324e+001 -2.085393e+001 -4.162726e+001
3138906250 -2.313853e+001 2.474465e+000 -2.743653e+001 2.803993e-001 -9.079250e+001 6.340586e+001 -2.160964e+001 -3.878778e+001
3140000000 -2.326873e+001 9.464465e+000 -2.802019e+001 -8.842457e+001 -9.035451e+001 -9.114926e+001 -2.256068e+001 -3.665591e+001
3141093750 -2.365789e+001 1.627556e+001 -2.795138e+001 -1.776045e+002 -9.746520e+001 -1.279766e+002 -2.375738e+001 -3.567316e+001
3142187500 -2.429053e+001 2.309801e+001 -2.735034e+001 9.543340e+001 -7.789554e+001 2.670873e+001 -2.522618e+001 -3.650325e+001
3143281250 -2.518054e+001 2.963456e+001 -2.669166e+001 1.172498e+001 -8.622055e+001 1.532347e+002 -2.693213e+001 -4.102063e+001
3144375000 -2.640856e+001 3.556026e+001 -2.630373e+001 -7.075549e+001 -8.020153e+001 -1.674891e+001 -2.857270e+001 -5.123825e+001
3145468750 -2.811597e+001 4.048622e+001 -2.634719e+001 -1.536451e+002 -8.736569e+001 1.111741e+001 -2.953636e+001 -6.786845e+001
3146562500 -3.052789e+001 4.314678e+001 -2.667640e+001 1.218160e+002 -8.885606e+001 -5.358570e+001 -2.903209e+001 -8.639076e+001
3147656250 -3.398092e+001 4.015081e+001 -2.698724e+001 3.467603e+001 -8.300417e+001 6.798512e+001 -2.752605e+001 -9.939190e+001
3148750000 -3.867694e+001 2.004962e+001 -2.692953e+001 -5.323519e+001 -8.652937e+001 4.751339e+001 -2.570225e+001 -1.058390e+002
3149843750 -3.911419e+001 -3.366574e+001 -2.647888e+001 -1.396292e+002 -8.166865e+001 1.511742e+002 -2.409673e+001 -1.076572e+002
3150937500 -3.433684e+001 -5.721460e+001 -2.586685e+001 1.369239e+002 -9.194036e+001 1.024439e+002 -2.280854e+001 -1.069406e+002
3152031250 -3.066370e+001 -6.064874e+001 -2.542330e+001 5.584616e+001 -8.917636e+001 4.871056e+001 -2.171725e+001 -1.046155e+002
3153125000 -2.807496e+001 -5.765189e+001 -2.527660e+001 -2.486509e+001 -8.460047e+001 -1.616071e+002 -2.085922e+001 -1.012475e+002
3154218750 -2.620791e+001 -5.272981e+001 -2.543420e+001 -1.060524e+002 -8.246956e+001 -1.684839e+002 -2.022450e+001 -9.730428e+001
3155312500 -2.479663e+001 -4.688179e+001 -2.571914e+001 1.707029e+002 -9.321338e+001 5.891988e+000 -1.978292e+001 -9.297714e+001
3156406250 -2.370928e+001 -4.039557e+001 -2.583781e+001 8.529886e+001 -9.098011e+001 7.406227e+001 -1.949962e+001 -8.863949e+001
3157500000 -2.294628e+001 -3.371756e+001 -2.554828e+001 -9.115192e-001 -9.289596e+001 1.132961e+001 -1.939912e+001 -8.421981e+001
3158593750 -2.243069e+001 -2.664123e+001 -2.502544e+001 -8.624398e+001 -9.435427e+001 -1.509122e+001 -1.944936e+001 -7.993716e+001
3159687500 -2.212219e+001 -1.943115e+001 -2.453334e+001 -1.698134e+002 -9.653090e+001 4.454646e+001 -1.967684e+001 -7.595132e+001
3160781250 -2.196925e+001 -1.213661e+001 -2.427657e+001 1.078591e+002 -8.579398e+001 2.158864e+001 -2.007442e+001 -7.229217e+001
3161875000 -2.200814e+001 -4.452805e+000 -2.437093e+001 2.573863e+001 -1.012343e+002 3.973620e+001 -2.062452e+001 -6.933914e+001
3162968750 -2.223243e+001 3.115454e+000 -2.480418e+001 -5.714581e+001 -7.921561e+001 5.566399e+001 -2.130898e+001 -6.755601e+001
3164062500 -2.265738e+001 1.031755e+001 -2.539282e+001 -1.412230e+002 -8.708025e+001 1.240648e+002 -2.213485e+001 -6.730444e+001
