!Agilent Technologies,E8363B,MY43030572,A.06.04.32
!Agilent E8363B: A.06.04.32
!Date: Tuesday, June 07, 2011 09:36:21
!Correction: S11(Full 2 Port(1,2)) S21(Full 2 Port(1,2)) S12(Full 2 Port(1,2)) S22(Full 2 Port(1,2)) 
!S2P File: Measurements: S11, S21, S12, S22:
# Hz S  dB   R 50
3000000000 -2.173763e+001 6.972515e+001 -4.094271e+001 -1.613621e+002 -8.353668e+001 1.134959e+002 -1.623329e+001 -1.585653e+001
3001093750 -2.091962e+001 7.750714e+001 -3.759118e+001 1.180248e+002 -8.834190e+001 -6.688409e+001 -1.641597e+001 -1.282741e+001
3002187500 -2.036354e+001 8.585688e+001 -3.499794e+001 4.478401e+001 -8.252087e+001 -1.496319e+002 -1.664746e+001 -9.529715e+000
3003281250 -2.003930e+001 9.416427e+001 -3.371553e+001 -2.867547e+001 -9.179804e+001 2.510543e+001 -1.702193e+001 -6.355315e+000
3004375000 -1.991132e+001 1.025559e+002 -3.337469e+001 -1.050521e+002 -8.032507e+001 -5.164418e+001 -1.751025e+001 -3.935400e+000
3005468750 -1.996684e+001 1.111662e+002 -3.368653e+001 1.749822e+002 -8.487446e+001 -1.830002e+001 -1.810059e+001 -2.315963e+000
3006562500 -2.023338e+001 1.197168e+002 -3.418128e+001 9.055715e+001 -8.088565e+001 1.718510e+002 -1.880014e+001 -1.677192e+000
3007656250 -2.071708e+001 1.282707e+002 -3.416733e+001 1.892498e+000 -1.010808e+002 3.845318e+001 -1.951878e+001 -2.654207e+000
3008750000 -2.143063e+001 1.369427e+002 -3.321464e+001 -8.584955e+001 -8.300037e+001 2.079322e+001 -2.026597e+001 -5.427555e+000
3009843750 -2.246553e+001 1.459131e+002 -3.179087e+001 -1.705198e+002 -8.643304e+001 -8.487868e+001 -2.086547e+001 -9.951810e+000
3010937500 -2.388763e+001 1.551508e+002 -3.051562e+001 1.069534e+002 -9.098883e+001 -1.652891e+002 -2.120192e+001 -1.606561e+001
3012031250 -2.586974e+001 1.657135e+002 -2.968088e+001 2.484428e+001 -7.882407e+001 4.828560e+000 -2.118710e+001 -2.242817e+001
3013125000 -2.861753e+001 1.779305e+002 -2.936710e+001 -5.864913e+001 -9.080872e+001 -1.038790e+002 -2.079443e+001 -2.812596e+001
3014218750 -3.281049e+001 -1.641640e+002 -2.940742e+001 -1.441805e+002 -8.720238e+001 -1.220349e+002 -2.019545e+001 -3.214839e+001
3015312500 -3.938538e+001 -1.188158e+002 -2.949837e+001 1.278490e+002 -8.682549e+001 -1.451931e+002 -1.949255e+001 -3.418580e+001
3016406250 -3.679300e+001 -3.311258e+001 -2.951201e+001 3.959608e+001 -8.039241e+001 -3.819771e+001 -1.877212e+001 -3.463845e+001
3017500000 -3.093779e+001 -3.424524e+000 -2.936478e+001 -4.807097e+001 -8.569263e+001 6.104768e+001 -1.815267e+001 -3.363373e+001
3018593750 -2.722720e+001 1.146975e+001 -2.935934e+001 -1.344497e+002 -8.409109e+001 -3.325535e+001 -1.762117e+001 -3.166586e+001
3019687500 -2.473179e+001 2.253372e+001 -2.953742e+001 1.401637e+002 -8.929422e+001 4.695382e+001 -1.723029e+001 -2.893140e+001
3020781250 -2.291975e+001 3.213818e+001 -2.991250e+001 5.492961e+001 -8.660105e+001 4.807294e+000 -1.696343e+001 -2.565461e+001
3021875000 -2.160138e+001 4.127403e+001 -3.012206e+001 -3.039947e+001 -8.482573e+001 5.634896e+001 -1.682831e+001 -2.211665e+001
3022968750 -2.062698e+001 5.003522e+001 -3.008101e+001 -1.161823e+002 -9.121636e+001 -1.545498e+002 -1.684634e+001 -1.837912e+001
3024062500 -1.988810e+001 5.859861e+001 -2.997024e+001 1.575927e+002 -9.023611e+001 -1.122158e+002 -1.697536e+001 -1.449075e+001
3025156250 -1.938708e+001 6.727607e+001 -2.995303e+001 7.253071e+001 -8.883523e+001 -5.571107e+001 -1.726654e+001 -1.079255e+001
3026250000 -1.905923e+001 7.551763e+001 -3.010251e+001 -1.140227e+001 -8.296553e+001 -9.392552e+001 -1.768896e+001 -7.401244e+000
3027343750 -1.894084e+001 8.365717e+001 -3.050769e+001 -9.486802e+001 -8.898089e+001 2.115871e+001 -1.828812e+001 -4.482840e+000
3028437500 -1.900751e+001 9.167648e+001 -3.096307e+001 1.795886e+002 -8.666450e+001 1.659863e+002 -1.903295e+001 -2.509907e+000
3029531250 -1.928289e+001 9.948069e+001 -3.128517e+001 9.128688e+001 -9.358429e+001 1.661097e+001 -1.996532e+001 -1.771848e+000
3030625000 -1.973448e+001 1.073679e+002 -3.113427e+001 2.724171e+000 -8.538422e+001 5.578573e+001 -2.103535e+001 -2.622003e+000
3031718750 -2.042411e+001 1.150056e+002 -3.055427e+001 -8.458103e+001 -7.869593e+001 1.284032e+002 -2.219129e+001 -6.049837e+000
3032812500 -2.133326e+001 1.223890e+002 -2.999442e+001 -1.688517e+002 -7.803693e+001 2.094933e+001 -2.323684e+001 -1.282750e+001
3033906250 -2.254513e+001 1.294351e+002 -2.977478e+001 1.084547e+002 -9.009045e+001 -8.203657e+001 -2.388319e+001 -2.261153e+001
3035000000 -2.416651e+001 1.356176e+002 -3.011350e+001 2.511345e+001 -8.088873e+001 -4.108775e+001 -2.379075e+001 -3.374482e+001
3036093750 -2.641079e+001 1.406413e+002 -3.098183e+001 -6.052891e+001 -8.013971e+001 1.974767e+001 -2.306948e+001 -4.302964e+001
3037187500 -2.960625e+001 1.429461e+002 -3.197223e+001 -1.501047e+002 -8.687087e+001 -1.512819e+002 -2.202131e+001 -4.880164e+001
3038281250 -3.446848e+001 1.351403e+002 -3.251143e+001 1.168844e+002 -8.399708e+001 1.433139e+002 -2.088030e+001 -5.160018e+001
3039375000 -3.957304e+001 8.638254e+001 -3.227289e+001 2.557556e+001 -9.320176e+001 -1.668390e+002 -1.985615e+001 -5.206799e+001
3040468750 -3.433636e+001 3.942971e+001 -3.184897e+001 -5.942390e+001 -8.503465e+001 -1.188608e+002 -1.897512e+001 -5.067644e+001
3041562500 -2.966510e+001 3.262989e+001 -3.168211e+001 -1.381639e+002 -9.517591e+001 7.810271e+001 -1.827481e+001 -4.820647e+001
3042656250 -2.662773e+001 3.519557e+001 -3.193957e+001 1.461688e+002 -7.795956e+001 -6.706255e+001 -1.773848e+001 -4.487465e+001
3043750000 -2.452546e+001 4.045060e+001 -3.286162e+001 7.077631e+001 -8.489471e+001 7.888340e+001 -1.736702e+001 -4.101642e+001
3044843750 -2.298119e+001 4.706913e+001 -3.433004e+001 -7.413735e+000 -7.873178e+001 -1.460921e+002 -1.716184e+001 -3.690852e+001
3045937500 -2.186950e+001 5.431340e+001 -3.595041e+001 -9.218878e+001 -8.878288e+001 1.014100e+002 -1.709881e+001 -3.261956e+001
3047031250 -2.103797e+001 6.196423e+001 -3.671297e+001 1.761714e+002 -7.922963e+001 -7.210992e+001 -1.719432e+001 -2.834504e+001
3048125000 -2.048119e+001 6.985165e+001 -3.613543e+001 8.515957e+001 -9.304311e+001 4.197937e+001 -1.743744e+001 -2.425342e+001
3049218750 -2.013745e+001 7.791115e+001 -3.482937e+001 2.858296e+000 -8.312429e+001 5.264364e+001 -1.786490e+001 -2.033886e+001
3050312500 -2.003163e+001 8.634158e+001 -3.397819e+001 -7.265073e+001 -7.707433e+001 -7.844639e+000 -1.846496e+001 -1.705878e+001
3051406250 -2.009348e+001 9.501590e+001 -3.364991e+001 -1.443035e+002 -8.907664e+001 -1.226013e+002 -1.923874e+001 -1.452502e+001
3052500000 -2.033882e+001 1.039785e+002 -3.383531e+001 1.453138e+002 -8.548048e+001 7.395841e+001 -2.024261e+001 -1.337566e+001
3053593750 -2.080324e+001 1.131833e+002 -3.435516e+001 7.291653e+001 -8.466719e+001 1.732366e+002 -2.141404e+001 -1.389758e+001
3054687500 -2.147996e+001 1.228983e+002 -3.522676e+001 -6.527937e+000 -8.030795e+001 8.692078e+001 -2.273650e+001 -1.742045e+001
3055781250 -2.241843e+001 1.331560e+002 -3.575951e+001 -9.291714e+001 -8.733733e+001 -1.000449e+002 -2.396295e+001 -2.500885e+001
3056875000 -2.364180e+001 1.444434e+002 -3.516202e+001 1.758813e+002 -7.801022e+001 -5.595826e+001 -2.470236e+001 -3.680371e+001
3057968750 -2.522103e+001 1.575445e+002 -3.372581e+001 8.846148e+001 -8.828076e+001 1.608843e+002 -2.452605e+001 -5.033663e+001
3059062500 -2.722071e+001 1.738329e+002 -3.236164e+001 6.325593e+000 -8.438896e+001 1.414352e+002 -2.350400e+001 -6.115514e+001
3060156250 -2.947277e+001 -1.641770e+002 -3.167361e+001 -7.323014e+001 -8.325855e+001 -1.391888e+002 -2.213248e+001 -6.778121e+001
3061250000 -3.145322e+001 -1.320920e+002 -3.183818e+001 -1.519123e+002 -8.598508e+001 -8.534617e+001 -2.074414e+001 -7.042995e+001
3062343750 -3.153326e+001 -9.328979e+001 -3.273124e+001 1.278430e+002 -9.667119e+001 7.482147e+000 -1.952340e+001 -7.027982e+001
3063437500 -2.972738e+001 -6.076582e+001 -3.401893e+001 4.319295e+001 -8.423935e+001 -8.302768e+001 -1.846530e+001 -6.854292e+001
3064531250 -2.743775e+001 -3.822331e+001 -3.478316e+001 -4.811862e+001 -8.950646e+001 -5.471696e+001 -1.763215e+001 -6.569220e+001
3065625000 -2.555666e+001 -2.217574e+001 -3.444806e+001 -1.401019e+002 -9.761230e+001 1.750415e+002 -1.695663e+001 -6.192238e+001
3066718750 -2.408836e+001 -9.173079e+000 -3.349162e+001 1.346848e+002 -8.522308e+001 -8.369307e+001 -1.643695e+001 -5.764745e+001
3067812500 -2.294771e+001 2.117027e+000 -3.275226e+001 5.445937e+001 -8.283676e+001 -1.304737e+002 -1.607371e+001 -5.303626e+001
3068906250 -2.211222e+001 1.224899e+001 -3.278303e+001 -2.299529e+001 -8.840272e+001 -1.340519e+002 -1.583287e+001 -4.826937e+001
3070000000 -2.155463e+001 2.183421e+001 -3.394415e+001 -1.012153e+002 -8.036974e+001 -9.681889e+001 -1.572455e+001 -4.352387e+001
3071093750 -2.119876e+001 3.090988e+001 -3.613837e+001 1.775004e+002 -9.139919e+001 -1.053405e+001 -1.575374e+001 -3.872192e+001
3072187500 -2.105284e+001 3.965946e+001 -3.928863e+001 8.649703e+001 -8.769346e+001 5.188821e+001 -1.592203e+001 -3.394535e+001
3073281250 -2.110073e+001 4.807951e+001 -4.110793e+001 -1.555156e+001 -8.405136e+001 -8.178819e+001 -1.622431e+001 -2.924077e+001
3074375000 -2.137451e+001 5.606012e+001 -4.041713e+001 -1.101795e+002 -9.139182e+001 -9.130408e+001 -1.664677e+001 -2.483159e+001
3075468750 -2.185699e+001 6.365553e+001 -3.929282e+001 1.725974e+002 -9.021461e+001 -6.624244e+001 -1.720566e+001 -2.085122e+001
3076562500 -2.260768e+001 7.085172e+001 -3.919908e+001 1.041692e+002 -8.300410e+001 1.498467e+002 -1.790689e+001 -1.752193e+001
3077656250 -2.364877e+001 7.751678e+001 -3.998919e+001 4.471027e+001 -8.559430e+001 -8.812637e+001 -1.877028e+001 -1.507967e+001
3078750000 -2.508348e+001 8.323540e+001 -4.129847e+001 -9.831604e+000 -8.394758e+001 -1.367646e+002 -1.981011e+001 -1.387886e+001
3079843750 -2.698128e+001 8.768170e+001 -4.290537e+001 -6.089527e+001 -8.802285e+001 5.556646e+001 -2.098759e+001 -1.445776e+001
3080937500 -2.961113e+001 8.896314e+001 -4.475138e+001 -1.133373e+002 -8.285226e+001 -1.186143e+002 -2.228415e+001 -1.724697e+001
3082031250 -3.313640e+001 8.153281e+001 -4.816328e+001 1.797190e+002 -8.272781e+001 9.211012e+001 -2.352408e+001 -2.335754e+001
3083125000 -3.658388e+001 5.174854e+001 -5.405899e+001 5.712313e+001 -9.271161e+001 -1.346295e+002 -2.442871e+001 -3.281187e+001
3084218750 -3.464227e+001 1.029224e+001 -4.582621e+001 -7.110365e+001 -9.789520e+001 -1.552547e+001 -2.467398e+001 -4.445544e+001
3085312500 -3.072398e+001 -3.727718e+000 -4.020503e+001 -1.484082e+002 -8.915814e+001 1.567007e+001 -2.418857e+001 -5.482845e+001
3086406250 -2.771428e+001 -4.987911e+000 -3.720687e+001 1.401555e+002 -8.810179e+001 3.024332e+001 -2.325004e+001 -6.234037e+001
3087500000 -2.550243e+001 -1.987539e+000 -3.597901e+001 6.792536e+001 -8.325964e+001 1.026444e+002 -2.215720e+001 -6.658307e+001
3088593750 -2.387701e+001 3.182392e+000 -3.629584e+001 -6.169792e+000 -8.328570e+001 9.098601e+001 -2.111729e+001 -6.826349e+001
3089687500 -2.265117e+001 9.126752e+000 -3.790504e+001 -8.670050e+001 -8.813626e+001 -6.366152e+001 -2.025766e+001 -6.825515e+001
3090781250 -2.175174e+001 1.593057e+001 -4.006308e+001 1.765831e+002 -8.649113e+001 -1.230683e+002 -1.953345e+001 -6.719250e+001
3091875000 -2.106408e+001 2.293494e+001 -3.945254e+001 6.678690e+001 -8.551401e+001 1.744472e+002 -1.898055e+001 -6.510761e+001
3092968750 -2.061121e+001 3.024121e+001 -3.635201e+001 -2.698558e+001 -9.173747e+001 2.867837e+000 -1.855560e+001 -6.256843e+001
3094062500 -2.036999e+001 3.761057e+001 -3.405765e+001 -1.070123e+002 -8.709758e+001 -4.298706e+001 -1.825121e+001 -5.972636e+001
3095156250 -2.031107e+001 4.514949e+001 -3.286711e+001 1.772385e+002 -8.105221e+001 -2.675883e+001 -1.804536e+001 -5.685269e+001
3096250000 -2.044265e+001 5.276591e+001 -3.277621e+001 1.007848e+002 -7.867978e+001 1.464497e+002 -1.794959e+001 -5.401746e+001
3097343750 -2.076557e+001 6.056253e+001 -3.372497e+001 1.963742e+001 -8.441921e+001 1.765128e+002 -1.794205e+001 -5.133576e+001
3098437500 -2.129521e+001 6.847359e+001 -3.531580e+001 -7.045200e+001 -1.041605e+002 -2.293104e+001 -1.803085e+001 -4.898845e+001
3099531250 -2.202459e+001 7.638174e+001 -3.578833e+001 -1.705046e+002 -9.224560e+001 1.321022e+002 -1.818616e+001 -4.684122e+001
3100625000 -2.304111e+001 8.425984e+001 -3.407513e+001 9.388900e+001 -7.938940e+001 -1.485758e+002 -1.840989e+001 -4.510216e+001
3101718750 -2.434810e+001 9.198033e+001 -3.200167e+001 9.725883e+000 -8.683002e+001 1.018742e+002 -1.867033e+001 -4.364935e+001
3102812500 -2.614686e+001 1.000225e+002 -3.054693e+001 -6.887691e+001 -1.030492e+002 -1.378053e+002 -1.896070e+001 -4.270831e+001
3103906250 -2.862477e+001 1.081539e+002 -3.013033e+001 -1.462255e+002 -8.770870e+001 -1.313947e+002 -1.922811e+001 -4.207841e+001
3105000000 -3.230773e+001 1.170493e+002 -3.071543e+001 1.358414e+002 -9.138557e+001 8.916615e+001 -1.949499e+001 -4.195115e+001
3106093750 -3.886007e+001 1.290703e+002 -3.209394e+001 5.460212e+001 -8.701842e+001 -1.517800e+002 -1.975264e+001 -4.220174e+001
3107187500 -5.284625e+001 -9.546940e+001 -3.356245e+001 -3.313172e+001 -8.928964e+001 1.690348e+002 -1.997229e+001 -4.265043e+001
3108281250 -3.691634e+001 -4.800956e+001 -3.382409e+001 -1.253593e+002 -8.262344e+001 1.245887e+001 -2.017100e+001 -4.345402e+001
3109375000 -3.167408e+001 -3.740331e+001 -3.267298e+001 1.461828e+002 -8.728919e+001 8.570033e+001 -2.037079e+001 -4.408687e+001
3110468750 -2.858485e+001 -2.886346e+001 -3.121679e+001 6.614439e+001 -8.380787e+001 9.143665e+001 -2.050844e+001 -4.471863e+001
3111562500 -2.648508e+001 -2.073298e+001 -3.016701e+001 -8.832470e+000 -8.781270e+001 6.605715e+001 -2.066087e+001 -4.522410e+001
3112656250 -2.505886e+001 -1.284626e+001 -2.958619e+001 -8.253874e+001 -9.153881e+001 9.160161e+001 -2.080075e+001 -4.566518e+001
3113750000 -2.404438e+001 -4.878857e+000 -2.959689e+001 -1.580915e+002 -8.324184e+001 -1.484100e+002 -2.095487e+001 -4.610161e+001
3114843750 -2.337533e+001 2.916303e+000 -3.015160e+001 1.225801e+002 -9.149812e+001 2.276887e+001 -2.112624e+001 -4.661863e+001
3115937500 -2.294838e+001 1.065082e+001 -3.083578e+001 3.707594e+001 -9.178085e+001 1.460674e+001 -2.132791e+001 -4.747984e+001
3117031250 -2.275924e+001 1.832471e+001 -3.089250e+001 -5.381303e+001 -8.465201e+001 -5.626426e+001 -2.154186e+001 -4.871189e+001
3118125000 -2.279463e+001 2.592042e+001 -2.986914e+001 -1.436635e+002 -9.539770e+001 1.242870e+002 -2.174257e+001 -5.030041e+001
3119218750 -2.306705e+001 3.339263e+001 -2.851732e+001 1.320323e+002 -9.929413e+001 1.339286e+002 -2.194129e+001 -5.232107e+001
3120312500 -2.357298e+001 4.070065e+001 -2.753447e+001 5.194944e+001 -9.497978e+001 -9.983710e+001 -2.210903e+001 -5.467215e+001
3121406250 -2.434868e+001 4.770259e+001 -2.720503e+001 -2.622894e+001 -8.102148e+001 9.525240e+001 -2.215720e+001 -5.723085e+001
3122500000 -2.543950e+001 5.452024e+001 -2.745863e+001 -1.041106e+002 -8.036794e+001 2.717591e+001 -2.207716e+001 -5.989877e+001
3123593750 -2.692200e+001 6.043459e+001 -2.815107e+001 1.760933e+002 -8.397183e+001 -1.183857e+002 -2.191391e+001 -6.224767e+001
3124687500 -2.898105e+001 6.566291e+001 -2.898892e+001 9.231391e+001 -8.689372e+001 1.434071e+002 -2.162758e+001 -6.420352e+001
3125781250 -3.189849e+001 6.826512e+001 -2.946534e+001 4.924883e+000 -8.340949e+001 -7.173275e+001 -2.127005e+001 -6.554849e+001
3126875000 -3.622419e+001 6.368456e+001 -2.919636e+001 -8.325765e+001 -9.295570e+001 -3.512074e+001 -2.088751e+001 -6.611861e+001
3127968750 -4.204793e+001 2.626661e+001 -2.844138e+001 -1.681233e+002 -9.035954e+001 8.897510e+001 -2.050283e+001 -6.595248e+001
3129062500 -3.832272e+001 -3.090762e+001 -2.773232e+001 1.104542e+002 -8.511729e+001 -1.075414e+002 -2.017695e+001 -6.493816e+001
3130156250 -3.324620e+001 -4.214779e+001 -2.739439e+001 3.073700e+001 -9.032943e+001 -1.264582e+002 -1.989820e+001 -6.311423e+001
3131250000 -2.991792e+001 -4.150944e+001 -2.752330e+001 -4.977073e+001 -8.427821e+001 9.296906e+001 -1.970860e+001 -6.084972e+001
3132343750 -2.768912e+001 -3.744183e+001 -2.801905e+001 -1.327836e+002 -8.256459e+001 -8.940123e+001 -1.960966e+001 -5.798805e+001
3133437500 -2.610345e+001 -3.186847e+001 -2.864605e+001 1.405134e+002 -1.041834e+002 2.482524e+001 -1.958855e+001 -5.486056e+001
3134531250 -2.493191e+001 -2.540147e+001 -2.906143e+001 5.146329e+001 -8.428506e+001 -1.584095e+002 -1.969760e+001 -5.152729e+001
3135625000 -2.409114e+001 -1.845368e+001 -2.911544e+001 -3.657121e+001 -8.144165e+001 -7.390032e+001 -1.992200e+001 -4.806243e+001
3136718750 -2.353480e+001 -1.148622e+001 -2.905976e+001 -1.208183e+002 -9.129889e+001 9.552129e+001 -2.030778e+001 -4.476639e+001
3137812500 -2.320950e+001 -4.421994e+000 -2.922225e+001 1.583636e+002 -8.599664e+001 -3.472091e+001 -2.085287e+001 -4.155617e+001
3138906250 -2.311592e+001 2.450669e+000 -2.979642e+001 7.889859e+001 -8.579099e+001 2.177857e+001 -2.160669e+001 -3.888243e+001
3140000000 -2.325014e+001 9.569157e+000 -3.078562e+001 -1.267204e+000 -8.595880e+001 7.763861e+001 -2.258066e+001 -3.673528e+001
3141093750 -2.362108e+001 1.638243e+001 -3.202365e+001 -8.512733e+001 -8.898132e+001 -4.457032e+001 -2.377234e+001 -3.557471e+001
3142187500 -2.423784e+001 2.328065e+001 -3.301496e+001 -1.741820e+002 -8.952758e+001 -6.815771e+001 -2.524662e+001 -3.637949e+001
3143281250 -2.513417e+001 2.977781e+001 -3.331811e+001 9.418787e+001 -9.624126e+001 7.373959e+001 -2.691436e+001 -4.083826e+001
3144375000 -2.635814e+001 3.580783e+001 -3.308333e+001 5.896747e+000 -9.460296e+001 -9.566593e+001 -2.855861e+001 -5.106807e+001
3145468750 -2.806980e+001 4.081937e+001 -3.317266e+001 -7.683115e+001 -1.092892e+002 -6.979895e+001 -2.954105e+001 -6.776362e+001
3146562500 -3.040862e+001 4.369877e+001 -3.387672e+001 -1.549481e+002 -8.428083e+001 1.176949e+002 -2.904189e+001 -8.625644e+001
3147656250 -3.387337e+001 4.106150e+001 -3.542144e+001 1.292633e+002 -8.578898e+001 1.398751e+002 -2.749162e+001 -9.948229e+001
3148750000 -3.853066e+001 2.179447e+001 -3.772851e+001 5.453561e+001 -8.642548e+001 -4.175092e+001 -2.570697e+001 -1.059065e+002
3149843750 -3.921924e+001 -3.239331e+001 -4.026869e+001 -2.293616e+001 -8.669168e+001 -1.504199e+002 -2.410814e+001 -1.077534e+002
3150937500 -3.441782e+001 -5.703997e+001 -4.185233e+001 -1.104860e+002 -8.741386e+001 -1.084755e+002 -2.280463e+001 -1.069415e+002
3152031250 -3.072738e+001 -6.071733e+001 -4.098968e+001 1.573087e+002 -8.663517e+001 4.907552e+001 -2.173671e+001 -1.044974e+002
3153125000 -2.812717e+001 -5.778992e+001 -3.893158e+001 7.068102e+001 -8.325721e+001 -1.394388e+002 -2.086312e+001 -1.011862e+002
3154218750 -2.623499e+001 -5.269263e+001 -3.735170e+001 -9.369707e+000 -8.497339e+001 -1.345836e+002 -2.022609e+001 -9.718845e+001
3155312500 -2.480818e+001 -4.682274e+001 -3.698935e+001 -8.703217e+001 -7.870486e+001 2.316368e+001 -1.976476e+001 -9.296194e+001
3156406250 -2.372406e+001 -4.038329e+001 -3.778008e+001 -1.643368e+002 -8.489603e+001 -4.095156e+001 -1.948782e+001 -8.864005e+001
3157500000 -2.293279e+001 -3.358969e+001 -4.020409e+001 1.151969e+002 -8.010578e+001 -7.479589e+001 -1.939391e+001 -8.417887e+001
3158593750 -2.242532e+001 -2.662407e+001 -4.399956e+001 2.982463e+001 -7.409641e+001 4.327013e+001 -1.945838e+001 -7.994127e+001
3159687500 -2.211675e+001 -1.933785e+001 -4.785588e+001 -6.763443e+001 -8.391179e+001 1.640301e+002 -1.969921e+001 -7.596087e+001
3160781250 -2.195940e+001 -1.205084e+001 -4.867973e+001 -1.606864e+002 -7.815958e+001 -8.379628e+001 -2.009752e+001 -7.227583e+001
3161875000 -2.200517e+001 -4.440216e+000 -4.770551e+001 1.296571e+002 -9.826466e+001 -8.962231e+001 -2.063395e+001 -6.936175e+001
3162968750 -2.220479e+001 3.196452e+000 -4.499575e+001 7.033786e+001 -8.995262e+001 1.279151e+002 -2.130836e+001 -6.752738e+001
3164062500 -2.263699e+001 1.045090e+001 -4.223449e+001 6.961222e+000 -8.482703e+001 1.013356e+002 -2.213449e+001 -6.722923e+001
