!Agilent Technologies,E8363B,MY43030572,A.06.04.32
!Agilent E8363B: A.06.04.32
!Date: Monday, June 06, 2011 14:26:57
!Correction: S11(Full 2 Port(1,2)) S21(Full 2 Port(1,2)) S12(Full 2 Port(1,2)) S22(Full 2 Port(1,2)) 
!S2P File: Measurements: S11, S21, S12, S22:
# Hz S  dB   R 50
3000000000 -2.082936e+001 5.423286e+001 3.252630e+000 -1.371431e+002 -9.607829e+001 -1.406316e+002 -1.653788e+001 -2.364768e+001
3001093750 -2.032114e+001 6.247467e+001 2.512866e+000 1.614210e+002 -9.945695e+001 9.169026e+001 -1.682893e+001 -1.994292e+001
3002187500 -2.002617e+001 7.095830e+001 2.539075e+000 1.029317e+002 -8.935818e+001 -6.364714e+001 -1.721304e+001 -1.610930e+001
3003281250 -1.994691e+001 7.989098e+001 2.563195e+000 4.411801e+001 -8.632061e+001 2.602897e+001 -1.774454e+001 -1.273807e+001
3004375000 -2.005778e+001 8.844458e+001 2.584732e+000 -1.475660e+001 -8.766155e+001 2.371829e+001 -1.841708e+001 -1.004156e+001
3005468750 -2.037624e+001 9.739050e+001 2.581722e+000 -7.355537e+001 -8.539449e+001 1.767698e+001 -1.922886e+001 -8.498030e+000
3006562500 -2.091676e+001 1.062492e+002 2.579446e+000 -1.324966e+002 -8.408590e+001 4.493957e+001 -2.019955e+001 -8.359873e+000
3007656250 -2.170746e+001 1.154103e+002 2.570739e+000 1.687050e+002 -8.851962e+001 7.844185e+001 -2.122677e+001 -1.048177e+001
3008750000 -2.281669e+001 1.248846e+002 2.560349e+000 1.099273e+002 -8.962691e+001 1.202063e+002 -2.220968e+001 -1.519758e+001
3009843750 -2.434928e+001 1.353178e+002 2.544197e+000 5.117806e+001 -9.695110e+001 1.195882e+002 -2.294065e+001 -2.258982e+001
3010937500 -2.644586e+001 1.465341e+002 2.542007e+000 -7.566217e+000 -8.909761e+001 1.114496e+002 -2.314720e+001 -3.168952e+001
3012031250 -2.944851e+001 1.611455e+002 2.531687e+000 -6.617842e+001 -8.396696e+001 -1.288381e+002 -2.277492e+001 -4.045921e+001
3013125000 -3.384545e+001 -1.751331e+002 2.537333e+000 -1.247192e+002 -8.840200e+001 1.347959e+002 -2.196915e+001 -4.668266e+001
3014218750 -3.847454e+001 -1.152070e+002 2.562078e+000 1.767831e+002 -8.756039e+001 -1.618565e+002 -2.102092e+001 -5.033705e+001
3015312500 -3.399162e+001 -5.189765e+001 2.615451e+000 1.182017e+002 -8.655939e+001 -4.126108e-001 -2.008440e+001 -5.144335e+001
3016406250 -2.937968e+001 -2.743045e+001 2.672926e+000 5.947559e+001 -9.072101e+001 -1.299822e+002 -1.925391e+001 -5.064396e+001
3017500000 -2.624230e+001 -1.306313e+001 2.739117e+000 6.327753e-001 -8.202604e+001 -1.198339e+002 -1.855877e+001 -4.863607e+001
3018593750 -2.403879e+001 -1.450529e+000 2.800685e+000 -5.831614e+001 -8.030002e+001 -5.546813e+001 -1.803500e+001 -4.550103e+001
3019687500 -2.240822e+001 8.672719e+000 2.850554e+000 -1.172972e+002 -8.557365e+001 5.622501e+000 -1.764909e+001 -4.193161e+001
3020781250 -2.116723e+001 1.821647e+001 2.895921e+000 -1.762782e+002 -8.038191e+001 -1.612359e+002 -1.742452e+001 -3.786719e+001
3021875000 -2.027007e+001 2.743510e+001 2.948758e+000 1.246596e+002 -9.167432e+001 1.783540e+002 -1.733828e+001 -3.358662e+001
3022968750 -1.960266e+001 3.632481e+001 2.995224e+000 6.565859e+001 -8.684716e+001 -1.203421e+002 -1.743219e+001 -2.936166e+001
3024062500 -1.915812e+001 4.503131e+001 3.034076e+000 6.617176e+000 -8.430518e+001 -9.151794e+001 -1.765008e+001 -2.511697e+001
3025156250 -1.890088e+001 5.356036e+001 3.057780e+000 -5.238171e+001 -9.336111e+001 1.714605e+002 -1.804422e+001 -2.117315e+001
3026250000 -1.883610e+001 6.208114e+001 3.079180e+000 -1.112710e+002 -8.502522e+001 -1.620632e+001 -1.863080e+001 -1.756987e+001
3027343750 -1.893711e+001 7.054504e+001 3.098464e+000 -1.701437e+002 -8.156562e+001 -4.941625e+001 -1.937879e+001 -1.483900e+001
3028437500 -1.924042e+001 7.893761e+001 3.133248e+000 1.312659e+002 -8.598507e+001 1.547401e+002 -2.033204e+001 -1.308459e+001
3029531250 -1.975837e+001 8.715861e+001 3.180429e+000 7.261697e+001 -1.002420e+002 -1.353202e+002 -2.146193e+001 -1.300521e+001
3030625000 -2.046232e+001 9.535291e+001 3.233398e+000 1.405496e+001 -8.187087e+001 1.698881e+002 -2.275216e+001 -1.563621e+001
3031718750 -2.146821e+001 1.034231e+002 3.307505e+000 -4.438978e+001 -9.233197e+001 6.831964e+001 -2.401748e+001 -2.162157e+001
3032812500 -2.278423e+001 1.113934e+002 3.402258e+000 -1.028072e+002 -9.675322e+001 1.437955e+002 -2.492399e+001 -3.175271e+001
3033906250 -2.451105e+001 1.190964e+002 3.545541e+000 -1.611912e+002 -9.279883e+001 -1.038064e+002 -2.502507e+001 -4.441866e+001
3035000000 -2.696349e+001 1.260665e+002 3.725073e+000 1.402487e+002 -8.643955e+001 5.289119e+001 -2.432056e+001 -5.542074e+001
3036093750 -3.063136e+001 1.320932e+002 3.941456e+000 8.134595e+001 -8.597380e+001 2.345227e+000 -2.312043e+001 -6.247451e+001
3037187500 -3.722809e+001 1.334674e+002 4.167486e+000 2.199657e+001 -8.723294e+001 6.431451e+001 -2.184719e+001 -6.586459e+001
3038281250 -4.787493e+001 2.961848e+001 4.366443e+000 -3.771858e+001 -9.271800e+001 3.954299e+001 -2.069846e+001 -6.628278e+001
3039375000 -3.459776e+001 -6.179790e+000 4.533568e+000 -9.761642e+001 -8.262167e+001 -1.267598e+002 -1.973575e+001 -6.466241e+001
3040468750 -2.954539e+001 -2.095311e+000 4.662076e+000 -1.576697e+002 -9.825418e+001 -1.412766e+001 -1.894750e+001 -6.180439e+001
3041562500 -2.652688e+001 4.512444e+000 4.739780e+000 1.423210e+002 -8.554668e+001 3.266183e+001 -1.835148e+001 -5.814686e+001
3042656250 -2.443909e+001 1.212965e+001 4.797697e+000 8.235018e+001 -8.265199e+001 -1.255974e+002 -1.796056e+001 -5.390093e+001
3043750000 -2.296157e+001 2.027037e+001 4.819117e+000 2.242539e+001 -8.135223e+001 7.323695e+001 -1.771389e+001 -4.934709e+001
3044843750 -2.191538e+001 2.854014e+001 4.816027e+000 -3.717810e+001 -8.363936e+001 1.764940e+002 -1.764400e+001 -4.458314e+001
3045937500 -2.115032e+001 3.704845e+001 4.804833e+000 -9.666258e+001 -8.197871e+001 6.110207e+001 -1.775350e+001 -3.978852e+001
3047031250 -2.064100e+001 4.573631e+001 4.785833e+000 -1.557840e+002 -8.392440e+001 1.749260e+002 -1.802125e+001 -3.489357e+001
3048125000 -2.037924e+001 5.454620e+001 4.797805e+000 1.453472e+002 -9.860277e+001 1.525721e+002 -1.848155e+001 -3.053603e+001
3049218750 -2.030564e+001 6.366321e+001 4.845106e+000 8.666224e+001 -8.958443e+001 1.686778e+002 -1.915662e+001 -2.648760e+001
3050312500 -2.046886e+001 7.302568e+001 4.944649e+000 2.800072e+001 -8.632967e+001 8.336280e+001 -2.006322e+001 -2.298153e+001
3051406250 -2.079155e+001 8.277946e+001 5.104036e+000 -3.093961e+001 -8.734852e+001 1.704499e+002 -2.121405e+001 -2.093529e+001
3052500000 -2.133609e+001 9.295425e+001 5.269592e+000 -8.989144e+001 -8.997220e+001 6.505765e+001 -2.265420e+001 -2.059603e+001
3053593750 -2.215945e+001 1.039672e+002 5.468997e+000 -1.492127e+002 -1.087660e+002 3.550047e+001 -2.441533e+001 -2.415339e+001
3054687500 -2.320606e+001 1.158047e+002 5.672372e+000 1.512319e+002 -9.079089e+001 -3.734974e+001 -2.629467e+001 -3.356716e+001
3055781250 -2.453507e+001 1.295464e+002 5.862619e+000 9.130293e+001 -8.608978e+001 8.082901e-001 -2.741824e+001 -5.062987e+001
3056875000 -2.618550e+001 1.462937e+002 6.041912e+000 3.117356e+001 -9.072763e+001 1.314770e+002 -2.696058e+001 -7.020642e+001
3057968750 -2.798898e+001 1.679783e+002 6.171280e+000 -2.926208e+001 -8.881132e+001 1.280976e+002 -2.523542e+001 -8.392414e+001
3059062500 -2.943759e+001 -1.632756e+002 6.261260e+000 -8.979591e+001 -8.362239e+001 5.424832e+001 -2.323642e+001 -9.028068e+001
3060156250 -2.963743e+001 -1.298510e+002 6.282428e+000 -1.502418e+002 -8.618433e+001 5.528120e+001 -2.150287e+001 -9.176251e+001
3061250000 -2.834090e+001 -9.998383e+001 6.275336e+000 1.494471e+002 -9.090524e+001 1.379951e+002 -2.005264e+001 -9.027178e+001
3062343750 -2.650551e+001 -7.683825e+001 6.244811e+000 8.947108e+001 -8.658858e+001 -1.566942e+002 -1.886987e+001 -8.729305e+001
3063437500 -2.478730e+001 -5.937276e+001 6.207473e+000 2.970733e+001 -8.112532e+001 6.364833e+001 -1.793844e+001 -8.331056e+001
3064531250 -2.337028e+001 -4.535393e+001 6.192404e+000 -2.993520e+001 -8.190266e+001 -7.802651e+001 -1.719073e+001 -7.880251e+001
3065625000 -2.224173e+001 -3.323466e+001 6.176027e+000 -8.945228e+001 -8.868134e+001 5.677251e+001 -1.664461e+001 -7.371861e+001
3066718750 -2.138797e+001 -2.228227e+001 6.168830e+000 -1.488967e+002 -8.795595e+001 -1.762308e+001 -1.624643e+001 -6.849953e+001
3067812500 -2.076150e+001 -1.210513e+001 6.164557e+000 1.517759e+002 -1.013136e+002 -6.232633e+001 -1.600751e+001 -6.311778e+001
3068906250 -2.032357e+001 -2.423802e+000 6.179464e+000 9.254544e+001 -9.425418e+001 -3.614312e+001 -1.590162e+001 -5.759147e+001
3070000000 -2.012030e+001 6.784507e+000 6.209251e+000 3.337060e+001 -8.963296e+001 -3.585390e+001 -1.593248e+001 -5.211300e+001
3071093750 -2.010127e+001 1.551371e+001 6.271224e+000 -2.576523e+001 -9.930162e+001 -6.712617e+001 -1.609807e+001 -4.673402e+001
3072187500 -2.025844e+001 2.418350e+001 6.348849e+000 -8.501743e+001 -8.000221e+001 7.090016e+001 -1.639216e+001 -4.147387e+001
3073281250 -2.061538e+001 3.234403e+001 6.444151e+000 -1.442618e+002 -8.027209e+001 1.233474e+002 -1.682713e+001 -3.659709e+001
3074375000 -2.119076e+001 4.023705e+001 6.561843e+000 1.563537e+002 -9.091232e+001 4.925642e+001 -1.741176e+001 -3.193622e+001
3075468750 -2.202468e+001 4.775484e+001 6.684841e+000 9.691131e+001 -9.454321e+001 1.138698e+002 -1.814445e+001 -2.797563e+001
3076562500 -2.316869e+001 5.471689e+001 6.830834e+000 3.728318e+001 -8.865885e+001 1.374176e+002 -1.907265e+001 -2.470984e+001
3077656250 -2.469158e+001 6.078961e+001 6.975083e+000 -2.254361e+001 -8.162463e+001 -1.243535e+002 -2.016823e+001 -2.252211e+001
3078750000 -2.677639e+001 6.550367e+001 7.104970e+000 -8.267667e+001 -8.517367e+001 -1.835916e+001 -2.147745e+001 -2.209379e+001
3079843750 -2.968027e+001 6.671014e+001 7.213326e+000 -1.429670e+002 -8.269323e+001 1.494246e+002 -2.294178e+001 -2.387443e+001
3080937500 -3.376844e+001 5.851471e+001 7.271142e+000 1.566539e+002 -8.096366e+001 -1.233622e+002 -2.444278e+001 -2.957249e+001
3082031250 -3.765826e+001 2.083936e+001 7.287802e+000 9.642690e+001 -9.883273e+001 1.742490e+002 -2.570897e+001 -3.948950e+001
3083125000 -3.436681e+001 -2.231078e+001 7.297623e+000 3.639126e+001 -8.294473e+001 1.786589e+002 -2.621039e+001 -5.287453e+001
3084218750 -3.004380e+001 -3.297710e+001 7.302045e+000 -2.348633e+001 -9.594070e+001 2.307779e+001 -2.577569e+001 -6.605828e+001
3085312500 -2.707696e+001 -3.219995e+001 7.322376e+000 -8.321176e+001 -9.201935e+001 -9.693640e+000 -2.472580e+001 -7.506973e+001
3086406250 -2.496558e+001 -2.793535e+001 7.359041e+000 -1.430463e+002 -9.564850e+001 -5.503926e+001 -2.349693e+001 -8.008844e+001
3087500000 -2.337257e+001 -2.222698e+001 7.401565e+000 1.571522e+002 -9.181738e+001 -1.306812e+002 -2.238942e+001 -8.188731e+001
3088593750 -2.221505e+001 -1.539194e+001 7.438545e+000 9.728408e+001 -8.169769e+001 1.005077e+002 -2.140635e+001 -8.165522e+001
3089687500 -2.136238e+001 -8.338243e+000 7.488937e+000 3.740606e+001 -9.621397e+001 1.551455e+002 -2.065336e+001 -8.012482e+001
3090781250 -2.072608e+001 -9.460717e-001 7.544370e+000 -2.241718e+001 -8.988445e+001 1.336580e+002 -2.006030e+001 -7.800978e+001
3091875000 -2.035749e+001 6.602126e+000 7.602533e+000 -8.240293e+001 -8.657472e+001 1.758290e+002 -1.963502e+001 -7.535291e+001
3092968750 -2.018642e+001 1.448034e+001 7.661110e+000 -1.424435e+002 -9.397181e+001 -1.064986e+002 -1.936977e+001 -7.251082e+001
3094062500 -2.019451e+001 2.246816e+001 7.703712e+000 1.573126e+002 -9.263346e+001 -5.035910e+001 -1.921423e+001 -6.957841e+001
3095156250 -2.039147e+001 3.049879e+001 7.730100e+000 9.701191e+001 -9.233620e+001 1.156800e+002 -1.915226e+001 -6.691222e+001
3096250000 -2.078293e+001 3.867439e+001 7.728007e+000 3.678034e+001 -8.500317e+001 -4.305105e+000 -1.921266e+001 -6.444123e+001
3097343750 -2.141252e+001 4.698079e+001 7.710145e+000 -2.334513e+001 -9.825170e+001 -1.359592e+002 -1.935209e+001 -6.234798e+001
3098437500 -2.228572e+001 5.566668e+001 7.678514e+000 -8.333720e+001 -8.850464e+001 1.628551e+002 -1.956623e+001 -6.072343e+001
3099531250 -2.344353e+001 6.442970e+001 7.664074e+000 -1.433344e+002 -8.482011e+001 -1.827722e+001 -1.980518e+001 -5.944640e+001
3100625000 -2.500839e+001 7.379033e+001 7.624948e+000 1.567325e+002 -8.673617e+001 -1.307498e+002 -2.006271e+001 -5.886873e+001
3101718750 -2.708074e+001 8.375098e+001 7.594829e+000 9.684248e+001 -8.224524e+001 7.905507e+001 -2.033245e+001 -5.872301e+001
3102812500 -3.001728e+001 9.627489e+001 7.567564e+000 3.706533e+001 -9.524911e+001 1.362951e+002 -2.053355e+001 -5.918416e+001
3103906250 -3.451765e+001 1.146927e+002 7.535841e+000 -2.270949e+001 -9.734706e+001 -1.469339e+001 -2.072443e+001 -5.968257e+001
3105000000 -4.120628e+001 1.646736e+002 7.507155e+000 -8.231470e+001 -8.990466e+001 -7.155159e+001 -2.083974e+001 -6.052758e+001
3106093750 -3.787503e+001 -1.136679e+002 7.502608e+000 -1.420392e+002 -8.522368e+001 2.879015e+001 -2.087947e+001 -6.126986e+001
3107187500 -3.227368e+001 -8.613239e+001 7.517401e+000 1.583282e+002 -8.509248e+001 1.704189e+002 -2.090839e+001 -6.162938e+001
3108281250 -2.888007e+001 -7.179954e+001 7.529583e+000 9.856234e+001 -8.457025e+001 -4.548519e+000 -2.089901e+001 -6.174219e+001
3109375000 -2.659915e+001 -6.078093e+001 7.541687e+000 3.873301e+001 -8.576909e+001 -1.137865e+002 -2.089050e+001 -6.167585e+001
3110468750 -2.500764e+001 -5.120149e+001 7.563666e+000 -2.115274e+001 -8.352534e+001 1.166536e+002 -2.092082e+001 -6.116442e+001
3111562500 -2.385134e+001 -4.217583e+001 7.583981e+000 -8.110239e+001 -8.540691e+001 -1.238176e+002 -2.099300e+001 -6.039288e+001
3112656250 -2.305663e+001 -3.363160e+001 7.601165e+000 -1.410927e+002 -8.801929e+001 6.368994e+001 -2.109454e+001 -5.960615e+001
3113750000 -2.255187e+001 -2.519449e+001 7.614653e+000 1.588183e+002 -8.115942e+001 -1.254811e+002 -2.132091e+001 -5.866577e+001
3114843750 -2.227485e+001 -1.710036e+001 7.611530e+000 9.863658e+001 -9.063681e+001 1.143076e+002 -2.159261e+001 -5.804407e+001
3115937500 -2.223037e+001 -9.149884e+000 7.570887e+000 3.846385e+001 -8.295831e+001 -5.499016e+001 -2.194791e+001 -5.774122e+001
3117031250 -2.242675e+001 -1.299664e+000 7.523425e+000 -2.162839e+001 -9.433923e+001 1.614406e+002 -2.235492e+001 -5.804326e+001
3118125000 -2.285163e+001 6.401043e+000 7.460854e+000 -8.164552e+001 -8.482955e+001 -8.488955e+001 -2.282391e+001 -5.924466e+001
3119218750 -2.354196e+001 1.395778e+001 7.393348e+000 -1.415730e+002 -8.633678e+001 -5.476529e+001 -2.326071e+001 -6.125146e+001
3120312500 -2.452344e+001 2.097243e+001 7.313049e+000 1.586414e+002 -8.534585e+001 -1.487576e+002 -2.361547e+001 -6.438639e+001
3121406250 -2.589187e+001 2.784148e+001 7.230878e+000 9.891261e+001 -8.348354e+001 -8.303492e+001 -2.383622e+001 -6.817233e+001
3122500000 -2.777582e+001 3.373001e+001 7.168127e+000 3.925497e+001 -8.658025e+001 1.295975e+002 -2.386566e+001 -7.249660e+001
3123593750 -3.043831e+001 3.777166e+001 7.093774e+000 -2.030711e+001 -8.184861e+001 8.639688e+001 -2.366200e+001 -7.662444e+001
3124687500 -3.453562e+001 3.681461e+001 7.034184e+000 -7.970341e+001 -8.577036e+001 1.178499e+002 -2.326770e+001 -7.962980e+001
3125781250 -4.126991e+001 1.287674e+001 6.989411e+000 -1.390912e+002 -8.907780e+001 -1.509763e+002 -2.278723e+001 -8.171761e+001
3126875000 -3.982857e+001 -6.145401e+001 6.977355e+000 1.615415e+002 -8.318967e+001 1.487278e+002 -2.228995e+001 -8.242789e+001
3127968750 -3.355695e+001 -7.772356e+001 6.982148e+000 1.021002e+002 -8.390978e+001 -1.944370e+001 -2.179631e+001 -8.183411e+001
3129062500 -2.983815e+001 -7.697906e+001 7.005735e+000 4.236203e+001 -9.383846e+001 1.193671e+002 -2.137984e+001 -8.034904e+001
3130156250 -2.734020e+001 -7.233230e+001 7.020411e+000 -1.734904e+001 -8.375830e+001 1.271465e+002 -2.104889e+001 -7.798311e+001
3131250000 -2.553775e+001 -6.666154e+001 7.008442e+000 -7.721746e+001 -8.541218e+001 -6.762678e+001 -2.083142e+001 -7.499352e+001
3132343750 -2.422314e+001 -5.991529e+001 6.993742e+000 -1.370879e+002 -8.266071e+001 -1.714659e+002 -2.074393e+001 -7.144330e+001
3133437500 -2.328569e+001 -5.303976e+001 6.969841e+000 1.629971e+002 -8.085127e+001 1.785973e+002 -2.082623e+001 -6.764277e+001
3134531250 -2.262260e+001 -4.607273e+001 6.918172e+000 1.031448e+002 -9.247620e+001 -1.519678e+002 -2.104028e+001 -6.373045e+001
3135625000 -2.219026e+001 -3.878242e+001 6.860913e+000 4.347390e+001 -9.238380e+001 -6.449915e+001 -2.142888e+001 -5.958014e+001
3136718750 -2.202413e+001 -3.151454e+001 6.807111e+000 -1.620876e+001 -8.609743e+001 -1.209477e+002 -2.201883e+001 -5.560317e+001
3137812500 -2.204310e+001 -2.436409e+001 6.751762e+000 -7.576298e+001 -8.460650e+001 1.520111e+002 -2.285789e+001 -5.196955e+001
3138906250 -2.227895e+001 -1.730428e+001 6.716316e+000 -1.352989e+002 -9.069556e+001 -2.664876e+001 -2.397918e+001 -4.890682e+001
3140000000 -2.274058e+001 -1.016328e+001 6.674436e+000 1.652220e+002 -8.284462e+001 -3.880968e+001 -2.543499e+001 -4.714714e+001
3141093750 -2.346086e+001 -3.440913e+000 6.648307e+000 1.057647e+002 -8.692357e+001 -1.156667e+002 -2.736795e+001 -4.775681e+001
3142187500 -2.447830e+001 3.142321e+000 6.630534e+000 4.612716e+001 -9.751357e+001 1.311050e+002 -2.972975e+001 -5.363078e+001
3143281250 -2.585456e+001 8.985679e+000 6.609576e+000 -1.350161e+001 -8.988478e+001 1.716248e+002 -3.227261e+001 -6.999489e+001
3144375000 -2.777691e+001 1.361289e+001 6.589448e+000 -7.306475e+001 -9.157929e+001 -5.992988e+001 -3.298707e+001 -9.878226e+001
3145468750 -3.047808e+001 1.580595e+001 6.572495e+000 -1.326816e+002 -8.557188e+001 3.909921e+001 -3.084877e+001 -1.222925e+002
3146562500 -3.441802e+001 1.120412e+001 6.575618e+000 1.676946e+002 -7.956373e+001 3.762076e+000 -2.815877e+001 -1.321560e+002
3147656250 -3.945269e+001 -1.911698e+001 6.572798e+000 1.079234e+002 -8.905207e+001 7.567180e+000 -2.583044e+001 -1.344910e+002
3148750000 -3.739594e+001 -7.346620e+001 6.565621e+000 4.799623e+001 -8.540327e+001 1.704254e+002 -2.402518e+001 -1.331788e+002
3149843750 -3.250401e+001 -8.896796e+001 6.538334e+000 -1.212291e+001 -8.927306e+001 -5.122867e+001 -2.262368e+001 -1.300323e+002
3150937500 -2.911843e+001 -8.984691e+001 6.487771e+000 -7.224046e+001 -8.288578e+001 -7.549648e+001 -2.148768e+001 -1.258377e+002
3152031250 -2.672210e+001 -8.637090e+001 6.385895e+000 -1.321596e+002 -9.248659e+001 -1.537745e+002 -2.065416e+001 -1.209832e+002
3153125000 -2.502954e+001 -8.087517e+001 6.278232e+000 1.681131e+002 -8.675995e+001 -1.765145e+002 -2.003155e+001 -1.156466e+002
3154218750 -2.375365e+001 -7.467108e+001 6.159188e+000 1.085503e+002 -8.436043e+001 8.478106e+000 -1.960077e+001 -1.103687e+002
3155312500 -2.280181e+001 -6.797587e+001 6.064448e+000 4.928122e+001 -8.818445e+001 6.443175e+001 -1.935155e+001 -1.047437e+002
3156406250 -2.211661e+001 -6.093941e+001 5.986309e+000 -1.005064e+001 -8.226690e+001 -8.965556e+001 -1.928479e+001 -9.914880e+001
3157500000 -2.166225e+001 -5.364098e+001 5.924263e+000 -6.935060e+001 -8.217557e+001 7.348413e+001 -1.937199e+001 -9.379636e+001
3158593750 -2.142122e+001 -4.642034e+001 5.881785e+000 -1.285386e+002 -7.995080e+001 -1.631191e+002 -1.963511e+001 -8.847005e+001
3159687500 -2.139005e+001 -3.908124e+001 5.840322e+000 1.721376e+002 -8.705170e+001 -1.411403e+001 -2.008606e+001 -8.367591e+001
3160781250 -2.153701e+001 -3.153464e+001 5.811388e+000 1.128295e+002 -8.882951e+001 6.699596e+001 -2.070652e+001 -7.939001e+001
3161875000 -2.189927e+001 -2.384528e+001 5.778100e+000 5.355421e+001 -8.862209e+001 -4.376162e+001 -2.156516e+001 -7.599043e+001
3162968750 -2.243443e+001 -1.635859e+001 5.768203e+000 -5.857538e+000 -8.239391e+001 -1.661131e+002 -2.265175e+001 -7.403599e+001
3164062500 -2.324850e+001 -8.750956e+000 5.754349e+000 -6.534953e+001 -8.221961e+001 3.168771e+001 -2.392915e+001 -7.421816e+001
3165156250 -2.431514e+001 -1.041509e+000 5.729290e+000 -1.247893e+002 -8.606155e+001 8.224146e+001 -2.539121e+001 -7.778516e+001
