!Agilent Technologies,E8363B,MY43030572,A.06.04.32
!Agilent E8363B: A.06.04.32
!Date: Monday, June 06, 2011 14:26:07
!Correction: S11(Full 2 Port(1,2)) S21(Full 2 Port(1,2)) S12(Full 2 Port(1,2)) S22(Full 2 Port(1,2)) 
!S2P File: Measurements: S11, S21, S12, S22:
# Hz S  dB   R 50
3000000000 -2.081987e+001 5.429568e+001 6.986259e+000 -1.310779e+002 -8.356655e+001 -1.508241e+002 -1.654693e+001 -2.372866e+001
3001093750 -2.032577e+001 6.247914e+001 6.201624e+000 1.665939e+002 -8.515763e+001 1.256582e+002 -1.683639e+001 -1.994842e+001
3002187500 -2.002250e+001 7.106658e+001 6.227043e+000 1.076192e+002 -8.460239e+001 -4.205293e+001 -1.721730e+001 -1.608620e+001
3003281250 -1.993990e+001 7.988439e+001 6.261328e+000 4.838554e+001 -7.743887e+001 6.196262e+000 -1.776386e+001 -1.271047e+001
3004375000 -2.005282e+001 8.850680e+001 6.305766e+000 -1.084265e+001 -8.914786e+001 1.328170e+002 -1.843035e+001 -1.003249e+001
3005468750 -2.036546e+001 9.734181e+001 6.346165e+000 -7.006601e+001 -9.648702e+001 -1.276872e+002 -1.923727e+001 -8.543294e+000
3006562500 -2.090466e+001 1.062811e+002 6.385110e+000 -1.294514e+002 -9.165051e+001 -1.479005e+002 -2.020306e+001 -8.445387e+000
3007656250 -2.170086e+001 1.153774e+002 6.427719e+000 1.711719e+002 -9.510784e+001 -2.797120e+001 -2.124170e+001 -1.056465e+001
3008750000 -2.282000e+001 1.248807e+002 6.467007e+000 1.117472e+002 -7.916325e+001 1.568581e+002 -2.222592e+001 -1.519785e+001
3009843750 -2.434276e+001 1.351123e+002 6.495731e+000 5.229144e+001 -8.485019e+001 -1.663186e+002 -2.295082e+001 -2.256538e+001
3010937500 -2.644114e+001 1.466516e+002 6.524323e+000 -7.251955e+000 -8.070860e+001 1.602645e+002 -2.315026e+001 -3.175570e+001
3012031250 -2.942030e+001 1.612689e+002 6.536416e+000 -6.673618e+001 -7.900899e+001 -2.389460e+001 -2.278918e+001 -4.053748e+001
3013125000 -3.383517e+001 -1.748237e+002 6.538301e+000 -1.261734e+002 -8.570451e+001 9.714924e+001 -2.196721e+001 -4.672770e+001
3014218750 -3.843441e+001 -1.152147e+002 6.536879e+000 1.745035e+002 -9.216986e+001 -9.856898e+001 -2.102514e+001 -5.035032e+001
3015312500 -3.397898e+001 -5.187012e+001 6.549797e+000 1.152444e+002 -1.006793e+002 -1.340877e+002 -2.008205e+001 -5.145723e+001
3016406250 -2.936608e+001 -2.746887e+001 6.567140e+000 5.599217e+001 -8.070773e+001 -6.514489e+001 -1.925690e+001 -5.070369e+001
3017500000 -2.624501e+001 -1.298326e+001 6.600022e+000 -3.283352e+000 -8.205070e+001 1.267099e+002 -1.856492e+001 -4.863004e+001
3018593750 -2.404042e+001 -1.371715e+000 6.654556e+000 -6.255479e+001 -8.819366e+001 6.730851e+001 -1.802720e+001 -4.551683e+001
3019687500 -2.241736e+001 8.683305e+000 6.712906e+000 -1.218769e+002 -8.588885e+001 -1.635155e+002 -1.765197e+001 -4.205132e+001
3020781250 -2.118137e+001 1.828618e+001 6.778546e+000 1.786899e+002 -9.140862e+001 -1.989021e+001 -1.744158e+001 -3.791717e+001
3021875000 -2.027533e+001 2.744411e+001 6.858883e+000 1.190874e+002 -1.010701e+002 4.133252e+001 -1.734740e+001 -3.367024e+001
3022968750 -1.959548e+001 3.631735e+001 6.921589e+000 5.945098e+001 -7.920943e+001 -1.196361e+002 -1.743885e+001 -2.941577e+001
3024062500 -1.914600e+001 4.506868e+001 6.973010e+000 -2.764776e-001 -8.380776e+001 1.614542e+002 -1.765888e+001 -2.516961e+001
3025156250 -1.890013e+001 5.358513e+001 6.999337e+000 -6.000479e+001 -7.900600e+001 1.406685e+002 -1.806145e+001 -2.120342e+001
3026250000 -1.883139e+001 6.207433e+001 7.012906e+000 -1.196658e+002 -8.584922e+001 1.008551e+002 -1.864636e+001 -1.759805e+001
3027343750 -1.893882e+001 7.057110e+001 7.017398e+000 -1.793604e+002 -7.961369e+001 -1.392758e+002 -1.939432e+001 -1.491351e+001
3028437500 -1.923768e+001 7.898390e+001 7.014826e+000 1.212279e+002 -9.051279e+001 9.790180e+001 -2.035064e+001 -1.318474e+001
3029531250 -1.974188e+001 8.714513e+001 7.021887e+000 6.178597e+001 -8.388006e+001 -1.793058e+002 -2.146806e+001 -1.301363e+001
3030625000 -2.045386e+001 9.536456e+001 7.012630e+000 2.483977e+000 -9.550375e+001 4.036172e+001 -2.275135e+001 -1.565808e+001
3031718750 -2.146269e+001 1.034874e+002 7.025281e+000 -5.671158e+001 -8.365798e+001 -1.467397e+002 -2.402029e+001 -2.168995e+001
3032812500 -2.276494e+001 1.114879e+002 7.048371e+000 -1.157254e+002 -8.803278e+001 -2.746294e+000 -2.490604e+001 -3.179310e+001
3033906250 -2.450982e+001 1.190993e+002 7.110506e+000 -1.747122e+002 -8.651595e+001 2.359269e+001 -2.502562e+001 -4.453465e+001
3035000000 -2.696811e+001 1.260966e+002 7.207587e+000 1.262816e+002 -8.214712e+001 -5.049541e+001 -2.432028e+001 -5.533836e+001
3036093750 -3.059235e+001 1.322916e+002 7.350207e+000 6.695905e+001 -8.687183e+001 -1.787533e+002 -2.311550e+001 -6.259014e+001
3037187500 -3.713290e+001 1.331124e+002 7.508033e+000 7.311830e+000 -8.739195e+001 -4.301446e+001 -2.186143e+001 -6.588318e+001
3038281250 -4.783765e+001 2.875713e+001 7.647825e+000 -5.268146e+001 -8.066956e+001 -1.743858e+002 -2.069587e+001 -6.626481e+001
3039375000 -3.466870e+001 -5.814491e+000 7.767874e+000 -1.128734e+002 -8.783926e+001 5.404570e+001 -1.972999e+001 -6.471209e+001
3040468750 -2.956660e+001 -2.146191e+000 7.862592e+000 -1.732529e+002 -7.807990e+001 1.418130e+002 -1.894897e+001 -6.180925e+001
3041562500 -2.652677e+001 4.683699e+000 7.906580e+000 1.264080e+002 -8.933426e+001 3.829122e+001 -1.836252e+001 -5.817904e+001
3042656250 -2.443993e+001 1.211120e+001 7.930697e+000 6.597692e+001 -8.265703e+001 1.398630e+002 -1.795559e+001 -5.396410e+001
3043750000 -2.295356e+001 2.017833e+001 7.921654e+000 5.554258e+000 -9.458440e+001 7.833519e+000 -1.771795e+001 -4.936871e+001
3044843750 -2.191998e+001 2.845594e+001 7.877079e+000 -5.465577e+001 -8.301993e+001 -1.585842e+002 -1.764548e+001 -4.463140e+001
3045937500 -2.113282e+001 3.704265e+001 7.819283e+000 -1.147327e+002 -8.415189e+001 3.828484e+001 -1.775473e+001 -3.982090e+001
3047031250 -2.063898e+001 4.577787e+001 7.729011e+000 -1.745154e+002 -9.364256e+001 -1.612077e+002 -1.803666e+001 -3.496775e+001
3048125000 -2.037340e+001 5.454801e+001 7.655560e+000 1.259921e+002 -8.394711e+001 -1.271933e+002 -1.849866e+001 -3.049978e+001
3049218750 -2.030593e+001 6.366702e+001 7.599082e+000 6.670506e+001 -7.974061e+001 -1.198632e+002 -1.916230e+001 -2.640407e+001
3050312500 -2.045369e+001 7.311182e+001 7.587127e+000 7.570272e+000 -8.856646e+001 -3.328181e+001 -2.006611e+001 -2.297301e+001
3051406250 -2.079520e+001 8.271120e+001 7.613210e+000 -5.170298e+001 -8.650069e+001 6.241713e+001 -2.123662e+001 -2.087010e+001
3052500000 -2.135197e+001 9.297979e+001 7.655501e+000 -1.109310e+002 -8.401999e+001 -6.138243e+001 -2.267270e+001 -2.073143e+001
3053593750 -2.215749e+001 1.039903e+002 7.726718e+000 -1.704181e+002 -8.787225e+001 7.114018e+001 -2.443578e+001 -2.417345e+001
3054687500 -2.319619e+001 1.157706e+002 7.804235e+000 1.300006e+002 -9.304719e+001 -1.568882e+002 -2.628027e+001 -3.368414e+001
3055781250 -2.454007e+001 1.295856e+002 7.892502e+000 7.019802e+001 -9.082047e+001 -1.695877e+002 -2.742822e+001 -5.074850e+001
3056875000 -2.618539e+001 1.461783e+002 7.979826e+000 1.017594e+001 -8.651302e+001 7.228771e+001 -2.697855e+001 -7.037788e+001
3057968750 -2.800893e+001 1.678586e+002 8.034509e+000 -5.018314e+001 -9.432674e+001 -5.584602e+001 -2.523305e+001 -8.395718e+001
3059062500 -2.944950e+001 -1.632921e+002 8.055189e+000 -1.106587e+002 -8.138255e+001 4.409535e+001 -2.324746e+001 -9.034231e+001
3060156250 -2.963849e+001 -1.297117e+002 8.021552e+000 -1.711032e+002 -8.667294e+001 -7.857212e+001 -2.151014e+001 -9.176099e+001
3061250000 -2.835954e+001 -9.995161e+001 7.941720e+000 1.285423e+002 -8.461127e+001 -8.760748e+001 -2.004601e+001 -9.037822e+001
3062343750 -2.651356e+001 -7.681627e+001 7.833890e+000 6.847267e+001 -8.040166e+001 -2.241248e+001 -1.888205e+001 -8.734778e+001
3063437500 -2.479208e+001 -5.939967e+001 7.710266e+000 8.689361e+000 -8.045058e+001 9.825028e+001 -1.794597e+001 -8.339351e+001
3064531250 -2.337949e+001 -4.525266e+001 7.605000e+000 -5.088309e+001 -7.916388e+001 4.615151e+001 -1.718970e+001 -7.888747e+001
3065625000 -2.223975e+001 -3.325327e+001 7.490582e+000 -1.102287e+002 -8.106523e+001 1.061058e+002 -1.664575e+001 -7.367767e+001
3066718750 -2.138647e+001 -2.223790e+001 7.402175e+000 -1.694070e+002 -8.037250e+001 -8.646001e+001 -1.625106e+001 -6.852405e+001
3067812500 -2.076064e+001 -1.196125e+001 7.330898e+000 1.316287e+002 -7.858174e+001 8.241908e+000 -1.601056e+001 -6.315675e+001
3068906250 -2.032586e+001 -2.465701e+000 7.299997e+000 7.272455e+001 -8.248766e+001 -1.235754e+002 -1.590565e+001 -5.758452e+001
3070000000 -2.012072e+001 6.807257e+000 7.296825e+000 1.392241e+001 -8.313132e+001 -1.418318e+002 -1.593801e+001 -5.223271e+001
3071093750 -2.008811e+001 1.554800e+001 7.347069e+000 -4.493151e+001 -8.462466e+001 -3.602509e+001 -1.609664e+001 -4.673630e+001
3072187500 -2.025433e+001 2.414775e+001 7.422114e+000 -1.040308e+002 -9.006815e+001 9.538029e+001 -1.638893e+001 -4.150864e+001
3073281250 -2.060691e+001 3.237729e+001 7.512698e+000 -1.631915e+002 -8.123092e+001 1.746028e+002 -1.683489e+001 -3.658965e+001
3074375000 -2.119242e+001 4.022299e+001 7.618208e+000 1.374112e+002 -8.265144e+001 4.867120e+001 -1.741315e+001 -3.196447e+001
3075468750 -2.201251e+001 4.775964e+001 7.728036e+000 7.784858e+001 -9.307830e+001 -1.401382e+002 -1.814883e+001 -2.797442e+001
3076562500 -2.316378e+001 5.473864e+001 7.850120e+000 1.810440e+001 -9.089162e+001 1.073644e+002 -1.907408e+001 -2.474113e+001
3077656250 -2.468501e+001 6.085378e+001 7.967566e+000 -4.192549e+001 -9.531007e+001 -1.165164e+002 -2.018171e+001 -2.257592e+001
3078750000 -2.675990e+001 6.547398e+001 8.063638e+000 -1.022311e+002 -9.511975e+001 -1.595447e+002 -2.148537e+001 -2.203455e+001
3079843750 -2.967196e+001 6.695174e+001 8.122626e+000 -1.627050e+002 -8.260575e+001 -6.544743e+001 -2.293557e+001 -2.389237e+001
3080937500 -3.378487e+001 5.868363e+001 8.117920e+000 1.367394e+002 -8.871203e+001 1.714602e+000 -2.445770e+001 -2.947667e+001
3082031250 -3.768392e+001 2.039274e+001 8.060677e+000 7.636435e+001 -8.662331e+001 7.545226e+001 -2.572309e+001 -3.939939e+001
3083125000 -3.433715e+001 -2.238623e+001 7.991930e+000 1.630891e+001 -7.980952e+001 -1.200372e+002 -2.620213e+001 -5.292128e+001
3084218750 -3.007925e+001 -3.303914e+001 7.911035e+000 -4.357972e+001 -9.531554e+001 6.668872e+000 -2.578801e+001 -6.613223e+001
3085312500 -2.708634e+001 -3.215461e+001 7.852815e+000 -1.031055e+002 -9.510455e+001 -8.143670e+001 -2.471750e+001 -7.514522e+001
3086406250 -2.495336e+001 -2.791860e+001 7.817894e+000 -1.627379e+002 -9.022839e+001 -1.603993e+002 -2.350423e+001 -8.017635e+001
3087500000 -2.338767e+001 -2.206624e+001 7.790287e+000 1.377097e+002 -1.090493e+002 6.390626e+001 -2.238766e+001 -8.196106e+001
3088593750 -2.222240e+001 -1.542052e+001 7.779785e+000 7.810319e+001 -8.705222e+001 -1.753027e+002 -2.142658e+001 -8.168969e+001
3089687500 -2.136061e+001 -8.349507e+000 7.776512e+000 1.848820e+001 -9.268333e+001 -5.084479e+001 -2.065722e+001 -8.021073e+001
3090781250 -2.071746e+001 -8.800582e-001 7.789713e+000 -4.109046e+001 -8.739600e+001 -4.050805e+001 -2.008161e+001 -7.801521e+001
3091875000 -2.035551e+001 6.599065e+000 7.809261e+000 -1.007916e+002 -7.769303e+001 -1.036142e+002 -1.964461e+001 -7.540707e+001
3092968750 -2.017532e+001 1.454003e+001 7.838893e+000 -1.606482e+002 -8.650141e+001 5.699223e+001 -1.936475e+001 -7.254459e+001
3094062500 -2.019854e+001 2.254479e+001 7.844779e+000 1.393753e+002 -9.186138e+001 -6.206162e+001 -1.921588e+001 -6.973549e+001
3095156250 -2.038623e+001 3.051728e+001 7.835694e+000 7.928602e+001 -8.480804e+001 -1.366023e+002 -1.915747e+001 -6.696655e+001
3096250000 -2.077866e+001 3.868928e+001 7.801520e+000 1.928841e+001 -8.687077e+001 -1.061619e+002 -1.921653e+001 -6.450874e+001
3097343750 -2.140301e+001 4.708876e+001 7.755100e+000 -4.058022e+001 -9.251175e+001 -5.001099e+001 -1.935571e+001 -6.235675e+001
3098437500 -2.228483e+001 5.564889e+001 7.706214e+000 -1.004348e+002 -8.259457e+001 5.376441e+000 -1.957420e+001 -6.072077e+001
3099531250 -2.342758e+001 6.443102e+001 7.661098e+000 -1.602362e+002 -8.537959e+001 7.861134e+001 -1.980176e+001 -5.941951e+001
3100625000 -2.500513e+001 7.371271e+001 7.590016e+000 1.399579e+002 -9.009870e+001 1.152275e+002 -2.006790e+001 -5.885167e+001
3101718750 -2.707740e+001 8.376992e+001 7.528634e+000 8.025202e+001 -8.605820e+001 1.155088e+002 -2.033494e+001 -5.877034e+001
3102812500 -3.003288e+001 9.639248e+001 7.464526e+000 2.071694e+001 -9.283659e+001 -1.843453e+001 -2.054433e+001 -5.915941e+001
3103906250 -3.451962e+001 1.144946e+002 7.398473e+000 -3.871467e+001 -8.668513e+001 -1.165425e+002 -2.072289e+001 -5.975189e+001
3105000000 -4.123788e+001 1.654083e+002 7.358070e+000 -9.800907e+001 -9.105320e+001 1.011862e+002 -2.083982e+001 -6.044443e+001
3106093750 -3.782553e+001 -1.135423e+002 7.345294e+000 -1.573803e+002 -8.465475e+001 -1.120215e+002 -2.089640e+001 -6.120373e+001
3107187500 -3.228944e+001 -8.609899e+001 7.367694e+000 1.432959e+002 -9.615156e+001 -1.504645e+002 -2.094221e+001 -6.160249e+001
3108281250 -2.887373e+001 -7.180682e+001 7.396259e+000 8.376186e+001 -8.187117e+001 -4.388341e+001 -2.090273e+001 -6.179479e+001
3109375000 -2.659314e+001 -6.066407e+001 7.422791e+000 2.405851e+001 -8.766667e+001 1.775357e+002 -2.090372e+001 -6.166292e+001
3110468750 -2.500693e+001 -5.118271e+001 7.467877e+000 -3.572929e+001 -9.128345e+001 1.103736e+001 -2.091965e+001 -6.112624e+001
3111562500 -2.384425e+001 -4.211675e+001 7.499844e+000 -9.564811e+001 -8.992182e+001 5.910162e-001 -2.100897e+001 -6.035602e+001
3112656250 -2.306462e+001 -3.359134e+001 7.519522e+000 -1.557239e+002 -8.678400e+001 -9.673195e+001 -2.112917e+001 -5.962324e+001
3113750000 -2.253252e+001 -2.525872e+001 7.527899e+000 1.440578e+002 -9.089272e+001 -1.063457e+002 -2.132944e+001 -5.878104e+001
3114843750 -2.228229e+001 -1.707717e+001 7.499451e+000 8.376976e+001 -9.002179e+001 -5.301075e+001 -2.159815e+001 -5.806141e+001
3115937500 -2.223060e+001 -9.153792e+000 7.427866e+000 2.345979e+001 -8.720686e+001 -1.128356e+002 -2.195933e+001 -5.774335e+001
3117031250 -2.241693e+001 -1.316909e+000 7.330250e+000 -3.666088e+001 -1.002377e+002 -1.348789e+000 -2.237106e+001 -5.821495e+001
3118125000 -2.283578e+001 6.415175e+000 7.214151e+000 -9.656184e+001 -9.077184e+001 -9.440419e+001 -2.284234e+001 -5.920603e+001
3119218750 -2.353169e+001 1.386369e+001 7.093944e+000 -1.563001e+002 -8.544844e+001 -1.294257e+002 -2.325729e+001 -6.129793e+001
3120312500 -2.449912e+001 2.107034e+001 6.978483e+000 1.442004e+002 -8.510621e+001 1.635059e+002 -2.362676e+001 -6.442841e+001
3121406250 -2.589078e+001 2.783983e+001 6.872954e+000 8.473844e+001 -8.564728e+001 -4.657672e+001 -2.384028e+001 -6.827647e+001
3122500000 -2.778250e+001 3.354071e+001 6.798145e+000 2.536997e+001 -8.270347e+001 1.677943e+002 -2.385968e+001 -7.257899e+001
3123593750 -3.044152e+001 3.774263e+001 6.724999e+000 -3.392550e+001 -1.116233e+002 -1.511175e+002 -2.366663e+001 -7.669802e+001
3124687500 -3.454014e+001 3.680313e+001 6.677794e+000 -9.315054e+001 -8.620810e+001 -1.733130e+002 -2.327903e+001 -7.976363e+001
3125781250 -4.117841e+001 1.254429e+001 6.649949e+000 -1.524774e+002 -7.923680e+001 -1.243303e+002 -2.278964e+001 -8.173743e+001
3126875000 -3.976418e+001 -6.097423e+001 6.643235e+000 1.481657e+002 -7.822421e+001 -6.108972e+001 -2.228934e+001 -8.241656e+001
3127968750 -3.354795e+001 -7.759140e+001 6.654848e+000 8.864565e+001 -8.620616e+001 1.508508e+002 -2.181025e+001 -8.183543e+001
3129062500 -2.984217e+001 -7.665783e+001 6.661449e+000 2.885264e+001 -8.025664e+001 1.797595e+002 -2.136258e+001 -8.031626e+001
3130156250 -2.733886e+001 -7.230032e+001 6.659396e+000 -3.096214e+001 -8.708211e+001 6.441470e+001 -2.104779e+001 -7.801086e+001
3131250000 -2.553891e+001 -6.649919e+001 6.617326e+000 -9.084145e+001 -1.006839e+002 -2.862836e+001 -2.084602e+001 -7.494276e+001
3132343750 -2.423090e+001 -5.985976e+001 6.577324e+000 -1.507703e+002 -9.236280e+001 -9.253560e+000 -2.076619e+001 -7.150932e+001
3133437500 -2.328129e+001 -5.302246e+001 6.515471e+000 1.493169e+002 -8.302172e+001 1.268502e+002 -2.083079e+001 -6.761609e+001
3134531250 -2.262462e+001 -4.599253e+001 6.422469e+000 8.942596e+001 -8.256463e+001 -1.545883e+002 -2.105465e+001 -6.378241e+001
3135625000 -2.219361e+001 -3.869114e+001 6.326436e+000 2.973520e+001 -8.129783e+001 1.070505e+002 -2.144985e+001 -5.958073e+001
3136718750 -2.202354e+001 -3.150136e+001 6.218001e+000 -2.988066e+001 -9.564287e+001 6.291552e+001 -2.203775e+001 -5.556446e+001
3137812500 -2.203577e+001 -2.430215e+001 6.117504e+000 -8.934275e+001 -8.267816e+001 -9.713557e+001 -2.286240e+001 -5.200026e+001
3138906250 -2.227418e+001 -1.729925e+001 6.025736e+000 -1.487535e+002 -8.809909e+001 -1.612871e+002 -2.399757e+001 -4.905872e+001
3140000000 -2.273598e+001 -1.017417e+001 5.940816e+000 1.519414e+002 -8.275498e+001 7.555067e+001 -2.544803e+001 -4.713515e+001
3141093750 -2.346360e+001 -3.463038e+000 5.862100e+000 9.265634e+001 -8.065874e+001 9.824577e+001 -2.739059e+001 -4.778818e+001
3142187500 -2.447515e+001 3.160604e+000 5.801735e+000 3.322843e+001 -8.040408e+001 1.458721e+002 -2.976478e+001 -5.369464e+001
3143281250 -2.587440e+001 8.899909e+000 5.731268e+000 -2.617537e+001 -8.683401e+001 -1.789238e+002 -3.232101e+001 -7.001965e+001
3144375000 -2.775284e+001 1.355467e+001 5.671170e+000 -8.550033e+001 -8.145646e+001 1.474218e+002 -3.303146e+001 -9.894359e+001
3145468750 -3.048719e+001 1.600712e+001 5.610262e+000 -1.448643e+002 -8.089014e+001 1.271202e+002 -3.086175e+001 -1.224063e+002
3146562500 -3.437859e+001 1.142873e+001 5.570680e+000 1.557995e+002 -8.315619e+001 1.952968e+001 -2.816291e+001 -1.322380e+002
3147656250 -3.942955e+001 -1.963238e+001 5.527147e+000 9.625218e+001 -7.870167e+001 3.782060e+001 -2.583017e+001 -1.345062e+002
3148750000 -3.737987e+001 -7.362553e+001 5.475415e+000 3.660556e+001 -9.796111e+001 -1.737391e+002 -2.402305e+001 -1.332782e+002
3149843750 -3.251669e+001 -8.888514e+001 5.397086e+000 -2.318094e+001 -8.734837e+001 9.731470e+001 -2.262845e+001 -1.300601e+002
3150937500 -2.914890e+001 -8.976820e+001 5.288774e+000 -8.286434e+001 -9.231059e+001 -7.389377e+001 -2.149410e+001 -1.258276e+002
3152031250 -2.672519e+001 -8.624847e+001 5.137249e+000 -1.422917e+002 -8.764197e+001 1.208890e+002 -2.066371e+001 -1.209723e+002
3153125000 -2.502102e+001 -8.090178e+001 4.989764e+000 1.585326e+002 -8.260414e+001 -6.107671e+001 -2.003623e+001 -1.156395e+002
3154218750 -2.375442e+001 -7.463477e+001 4.837764e+000 9.956890e+001 -8.485365e+001 -1.038460e+002 -1.961688e+001 -1.103476e+002
3155312500 -2.278780e+001 -6.792488e+001 4.721623e+000 4.091957e+001 -8.825863e+001 -9.679073e+001 -1.935884e+001 -1.047106e+002
3156406250 -2.211312e+001 -6.093853e+001 4.630602e+000 -1.771478e+001 -8.326022e+001 4.376254e+001 -1.929276e+001 -9.916787e+001
3157500000 -2.165890e+001 -5.370936e+001 4.575357e+000 -7.632410e+001 -8.917478e+001 -1.797293e+002 -1.937973e+001 -9.372186e+001
3158593750 -2.141722e+001 -4.632366e+001 4.549355e+000 -1.348319e+002 -8.451161e+001 -1.485687e+002 -1.964963e+001 -8.846252e+001
3159687500 -2.137835e+001 -3.906771e+001 4.538841e+000 1.665294e+002 -8.891976e+001 1.699458e+002 -2.009730e+001 -8.367363e+001
3160781250 -2.151962e+001 -3.149960e+001 4.560906e+000 1.077891e+002 -8.412069e+001 4.265089e+001 -2.072443e+001 -7.936272e+001
3161875000 -2.189207e+001 -2.380928e+001 4.580399e+000 4.895359e+001 -9.807181e+001 -7.033299e+001 -2.158125e+001 -7.606779e+001
3162968750 -2.243066e+001 -1.626780e+001 4.627156e+000 -1.005831e+001 -8.298168e+001 -7.535027e+001 -2.266968e+001 -7.401212e+001
3164062500 -2.324206e+001 -8.785604e+000 4.674938e+000 -6.928779e+001 -8.703439e+001 1.238113e+002 -2.392904e+001 -7.429832e+001
3165156250 -2.431161e+001 -1.079128e+000 4.695756e+000 -1.285617e+002 -7.931513e+001 1.562585e+002 -2.541910e+001 -7.775978e+001
