!Agilent Technologies,E8363B,MY43030572,A.06.04.32
!Agilent E8363B: A.06.04.32
!Date: Monday, June 06, 2011 14:30:30
!Correction: S11(Full 2 Port(1,2)) S21(Full 2 Port(1,2)) S12(Full 2 Port(1,2)) S22(Full 2 Port(1,2)) 
!S2P File: Measurements: S11, S21, S12, S22:
# Hz S  dB   R 50
3000000000 -2.079226e+001 5.450383e+001 6.387634e+000 -5.545345e+001 -8.416275e+001 -1.673497e+002 -1.651508e+001 -2.352805e+001
3001093750 -2.030348e+001 6.281025e+001 5.807210e+000 -1.174490e+002 -8.173765e+001 6.782853e+001 -1.679822e+001 -1.984479e+001
3002187500 -2.000531e+001 7.137096e+001 5.915232e+000 -1.765457e+002 -8.284840e+001 1.200569e+001 -1.718816e+001 -1.596249e+001
3003281250 -1.992426e+001 8.022423e+001 6.007699e+000 1.240660e+002 -8.099991e+001 -8.862935e+001 -1.771328e+001 -1.262066e+001
3004375000 -2.003820e+001 8.895252e+001 6.091707e+000 6.474030e+001 -8.286631e+001 3.054927e+001 -1.837885e+001 -1.001422e+001
3005468750 -2.035391e+001 9.775832e+001 6.162887e+000 5.478518e+000 -9.001355e+001 -1.541077e+001 -1.918574e+001 -8.349459e+000
3006562500 -2.089725e+001 1.066850e+002 6.241146e+000 -5.384060e+001 -8.376871e+001 1.503931e+002 -2.014586e+001 -8.310393e+000
3007656250 -2.169687e+001 1.159134e+002 6.331281e+000 -1.131323e+002 -9.168689e+001 2.129444e+001 -2.118000e+001 -1.040535e+001
3008750000 -2.282356e+001 1.254618e+002 6.431666e+000 -1.724687e+002 -8.776550e+001 3.341206e+001 -2.216715e+001 -1.495535e+001
3009843750 -2.434658e+001 1.358527e+002 6.522598e+000 1.280712e+002 -9.050001e+001 -1.343783e+002 -2.288402e+001 -2.237865e+001
3010937500 -2.643526e+001 1.471911e+002 6.618134e+000 6.849335e+001 -9.383385e+001 3.791494e+001 -2.310958e+001 -3.140285e+001
3012031250 -2.943929e+001 1.620141e+002 6.699982e+000 8.926112e+000 -8.441778e+001 1.256394e+002 -2.273750e+001 -4.009369e+001
3013125000 -3.387179e+001 -1.738103e+002 6.778546e+000 -5.062254e+001 -8.865699e+001 -1.003161e+002 -2.194566e+001 -4.645928e+001
3014218750 -3.828719e+001 -1.138523e+002 6.855678e+000 -1.101870e+002 -8.599972e+001 1.735726e+002 -2.099825e+001 -4.996751e+001
3015312500 -3.387094e+001 -5.164627e+001 6.931083e+000 -1.697592e+002 -8.529872e+001 2.664806e+001 -2.004892e+001 -5.118173e+001
3016406250 -2.931704e+001 -2.732313e+001 6.998077e+000 1.306077e+002 -9.271012e+001 -9.538342e+001 -1.924012e+001 -5.045736e+001
3017500000 -2.620123e+001 -1.270194e+001 7.061221e+000 7.104207e+001 -8.508162e+001 6.296222e+001 -1.853855e+001 -4.838371e+001
3018593750 -2.401715e+001 -1.102429e+000 7.127990e+000 1.152030e+001 -7.832342e+001 -1.091697e+002 -1.800186e+001 -4.535091e+001
3019687500 -2.240630e+001 9.030308e+000 7.206226e+000 -4.799409e+001 -8.580923e+001 -3.397165e+000 -1.762424e+001 -4.179287e+001
3020781250 -2.116798e+001 1.863549e+001 7.295374e+000 -1.074815e+002 -8.924386e+001 -1.010541e+002 -1.739749e+001 -3.777721e+001
3021875000 -2.026783e+001 2.780561e+001 7.400702e+000 -1.671422e+002 -1.011234e+002 1.259211e+001 -1.731395e+001 -3.352698e+001
3022968750 -1.960110e+001 3.671296e+001 7.502686e+000 1.331466e+002 -7.580889e+001 -1.124549e+002 -1.739211e+001 -2.927041e+001
3024062500 -1.915929e+001 4.539997e+001 7.601041e+000 7.334314e+001 -8.226736e+001 8.318999e+001 -1.763392e+001 -2.502052e+001
3025156250 -1.889072e+001 5.394090e+001 7.690947e+000 1.350412e+001 -7.971397e+001 -1.115981e+001 -1.801778e+001 -2.101697e+001
3026250000 -1.883742e+001 6.239943e+001 7.763604e+000 -4.630085e+001 -8.404778e+001 -5.510223e+001 -1.859329e+001 -1.746863e+001
3027343750 -1.894497e+001 7.087496e+001 7.839490e+000 -1.062126e+002 -7.887833e+001 -3.246658e+001 -1.934436e+001 -1.475666e+001
3028437500 -1.926020e+001 7.927211e+001 7.916579e+000 -1.660008e+002 -8.111963e+001 1.169558e+002 -2.029696e+001 -1.307535e+001
3029531250 -1.976001e+001 8.750156e+001 7.991286e+000 1.340528e+002 -8.689442e+001 -1.406048e+002 -2.142360e+001 -1.298531e+001
3030625000 -2.048073e+001 9.563634e+001 8.045552e+000 7.408585e+001 -9.008084e+001 5.750311e+001 -2.269193e+001 -1.538609e+001
3031718750 -2.147348e+001 1.038252e+002 8.102518e+000 1.416166e+001 -8.038344e+001 -4.572561e+001 -2.394485e+001 -2.140441e+001
3032812500 -2.279913e+001 1.117508e+002 8.141964e+000 -4.569883e+001 -8.100432e+001 8.313041e+001 -2.485815e+001 -3.163781e+001
3033906250 -2.454915e+001 1.194091e+002 8.207903e+000 -1.055082e+002 -8.865419e+001 8.779347e+000 -2.495674e+001 -4.407293e+001
3035000000 -2.698109e+001 1.263579e+002 8.282863e+000 -1.654381e+002 -9.747649e+001 -1.160063e+002 -2.425925e+001 -5.499995e+001
3036093750 -3.062101e+001 1.323935e+002 8.370214e+000 1.344918e+002 -8.172873e+001 -1.044434e+002 -2.309063e+001 -6.228079e+001
3037187500 -3.717141e+001 1.331681e+002 8.440212e+000 7.414748e+001 -8.412099e+001 1.503964e+002 -2.181671e+001 -6.564229e+001
3038281250 -4.767516e+001 3.131552e+001 8.474934e+000 1.362378e+001 -8.371503e+001 1.618954e+002 -2.066971e+001 -6.602651e+001
3039375000 -3.470168e+001 -5.146560e+000 8.481096e+000 -4.688041e+001 -9.139297e+001 -5.760349e+001 -1.971245e+001 -6.445573e+001
3040468750 -2.959500e+001 -1.586325e+000 8.463879e+000 -1.073148e+002 -8.255740e+001 1.713637e+002 -1.892560e+001 -6.160565e+001
3041562500 -2.655222e+001 4.872438e+000 8.415474e+000 -1.676117e+002 -9.070341e+001 -2.984011e+001 -1.833215e+001 -5.799990e+001
3042656250 -2.447926e+001 1.253851e+001 8.353580e+000 1.322006e+002 -8.488049e+001 -1.142862e+002 -1.792020e+001 -5.370936e+001
3043750000 -2.300033e+001 2.055124e+001 8.277179e+000 7.211043e+001 -8.923333e+001 1.667474e+002 -1.768815e+001 -4.927036e+001
3044843750 -2.195718e+001 2.882357e+001 8.185074e+000 1.231789e+001 -8.444728e+001 -7.809721e+001 -1.762684e+001 -4.447725e+001
3045937500 -2.118209e+001 3.734398e+001 8.105791e+000 -4.730850e+001 -9.787394e+001 -1.470371e+002 -1.771803e+001 -3.969637e+001
3047031250 -2.068151e+001 4.600958e+001 8.026452e+000 -1.067123e+002 -8.031957e+001 -1.484285e+002 -1.799207e+001 -3.482710e+001
3048125000 -2.041651e+001 5.479349e+001 7.978641e+000 -1.658925e+002 -8.067103e+001 -5.621307e+001 -1.845150e+001 -3.039588e+001
3049218750 -2.035597e+001 6.384696e+001 7.969093e+000 1.349870e+002 -8.217979e+001 -2.319553e+001 -1.911311e+001 -2.634753e+001
3050312500 -2.050497e+001 7.324199e+001 8.004705e+000 7.584164e+001 -7.951380e+001 8.616629e+001 -2.002258e+001 -2.286016e+001
3051406250 -2.082988e+001 8.294202e+001 8.077000e+000 1.637789e+001 -8.309430e+001 -3.970157e+001 -2.117776e+001 -2.079641e+001
3052500000 -2.138553e+001 9.303912e+001 8.147769e+000 -4.318515e+001 -8.247535e+001 1.766354e+002 -2.261903e+001 -2.061472e+001
3053593750 -2.219916e+001 1.039853e+002 8.224794e+000 -1.030064e+002 -8.466048e+001 1.054445e+002 -2.435274e+001 -2.409572e+001
3054687500 -2.324439e+001 1.158138e+002 8.297845e+000 -1.629531e+002 -8.710396e+001 -1.516771e+002 -2.620627e+001 -3.350007e+001
3055781250 -2.459048e+001 1.294218e+002 8.349838e+000 1.368476e+002 -8.052659e+001 1.522550e+002 -2.732378e+001 -5.034902e+001
3056875000 -2.623338e+001 1.459734e+002 8.390609e+000 7.658244e+001 -8.583635e+001 -1.710855e+002 -2.688632e+001 -6.989524e+001
3057968750 -2.805665e+001 1.676356e+002 8.388892e+000 1.611319e+001 -8.626992e+001 5.732722e+001 -2.518926e+001 -8.347023e+001
3059062500 -2.954401e+001 -1.635732e+002 8.363363e+000 -4.430913e+001 -8.465247e+001 -3.261957e+001 -2.321100e+001 -8.987036e+001
3060156250 -2.975987e+001 -1.301167e+002 8.287708e+000 -1.045935e+002 -8.778883e+001 9.675964e+001 -2.147053e+001 -9.139783e+001
3061250000 -2.846200e+001 -9.991833e+001 8.189148e+000 -1.646570e+002 -9.290826e+001 1.393263e+002 -2.003604e+001 -9.004957e+001
3062343750 -2.662047e+001 -7.673022e+001 8.093725e+000 1.355337e+002 -9.434644e+001 7.483354e+001 -1.885189e+001 -8.696842e+001
3063437500 -2.487398e+001 -5.928607e+001 8.002993e+000 7.589934e+001 -8.226760e+001 -1.157997e+002 -1.793178e+001 -8.312571e+001
3064531250 -2.345467e+001 -4.505914e+001 7.944199e+000 1.628434e+001 -8.061224e+001 5.894162e+001 -1.716973e+001 -7.858810e+001
3065625000 -2.231061e+001 -3.309886e+001 7.875322e+000 -4.329542e+001 -9.532659e+001 -1.452734e+002 -1.662219e+001 -7.353329e+001
3066718750 -2.144988e+001 -2.219845e+001 7.815787e+000 -1.028111e+002 -8.508236e+001 1.109796e+002 -1.622786e+001 -6.833947e+001
3067812500 -2.081457e+001 -1.182834e+001 7.758458e+000 -1.622628e+002 -8.814626e+001 -1.085084e+002 -1.599390e+001 -6.289698e+001
3068906250 -2.037944e+001 -2.364024e+000 7.714471e+000 1.383176e+002 -8.599677e+001 -1.071736e+001 -1.587970e+001 -5.745492e+001
3070000000 -2.015857e+001 6.864827e+000 7.678502e+000 7.892969e+001 -8.316113e+001 -1.781395e+002 -1.590735e+001 -5.196683e+001
3071093750 -2.013137e+001 1.553582e+001 7.660810e+000 1.952245e+001 -8.037521e+001 1.715406e+002 -1.607153e+001 -4.660376e+001
3072187500 -2.028378e+001 2.412382e+001 7.643327e+000 -3.997719e+001 -9.108885e+001 -2.573646e+000 -1.636496e+001 -4.136148e+001
3073281250 -2.063376e+001 3.227993e+001 7.639031e+000 -9.937808e+001 -8.536594e+001 -1.005976e+002 -1.680920e+001 -3.651647e+001
3074375000 -2.120430e+001 4.013440e+001 7.639935e+000 -1.589161e+002 -1.024626e+002 -2.497372e+001 -1.738689e+001 -3.187988e+001
3075468750 -2.202194e+001 4.766046e+001 7.652644e+000 1.415787e+002 -8.637782e+001 1.290417e+002 -1.811917e+001 -2.792950e+001
3076562500 -2.315581e+001 5.461895e+001 7.685732e+000 8.197263e+001 -8.932823e+001 5.912709e+000 -1.903638e+001 -2.465677e+001
3077656250 -2.465324e+001 6.067303e+001 7.712058e+000 2.215179e+001 -8.939194e+001 -7.974401e+001 -2.014003e+001 -2.257050e+001
3078750000 -2.668438e+001 6.537473e+001 7.728265e+000 -3.785104e+001 -8.777740e+001 -4.985429e+001 -2.143036e+001 -2.199788e+001
3079843750 -2.954002e+001 6.680301e+001 7.717099e+000 -9.796349e+001 -8.611369e+001 1.142242e+002 -2.289144e+001 -2.395165e+001
3080937500 -3.354071e+001 5.909621e+001 7.661535e+000 -1.581264e+002 -8.899680e+001 1.602971e+001 -2.438192e+001 -2.947964e+001
3082031250 -3.741337e+001 2.314072e+001 7.563068e+000 1.419854e+002 -8.961469e+001 -1.037310e+002 -2.563377e+001 -3.938076e+001
3083125000 -3.450778e+001 -2.043822e+001 7.459922e+000 8.238043e+001 -8.177824e+001 -7.930812e+001 -2.612449e+001 -5.268407e+001
3084218750 -3.023522e+001 -3.199836e+001 7.369888e+000 2.291674e+001 -8.635815e+001 7.372257e+001 -2.571260e+001 -6.575203e+001
3085312500 -2.722624e+001 -3.167887e+001 7.299345e+000 -3.624020e+001 -1.014361e+002 1.316258e+002 -2.466140e+001 -7.482201e+001
3086406250 -2.505791e+001 -2.763246e+001 7.261390e+000 -9.550740e+001 -8.733740e+001 -1.627429e+002 -2.346306e+001 -7.968144e+001
3087500000 -2.348150e+001 -2.195962e+001 7.232817e+000 -1.548029e+002 -9.310904e+001 -8.716472e+001 -2.235554e+001 -8.152485e+001
3088593750 -2.230800e+001 -1.533037e+001 7.219906e+000 1.458575e+002 -9.344756e+001 8.175375e+001 -2.138400e+001 -8.139568e+001
3089687500 -2.142245e+001 -8.236907e+000 7.219383e+000 8.647437e+001 -8.807768e+001 5.186618e+001 -2.061890e+001 -7.988464e+001
3090781250 -2.078641e+001 -8.705850e-001 7.224464e+000 2.706762e+001 -8.831956e+001 1.132780e+002 -2.003474e+001 -7.770982e+001
3091875000 -2.040323e+001 6.621675e+000 7.238535e+000 -3.247477e+001 -8.218553e+001 9.897892e+001 -1.961593e+001 -7.515384e+001
3092968750 -2.022809e+001 1.445677e+001 7.252935e+000 -9.207175e+001 -8.988664e+001 8.629704e+001 -1.932341e+001 -7.226524e+001
3094062500 -2.022457e+001 2.238309e+001 7.249135e+000 -1.519272e+002 -8.280132e+001 -4.612362e+001 -1.918444e+001 -6.948853e+001
3095156250 -2.041140e+001 3.046891e+001 7.231943e+000 1.482726e+002 -8.273605e+001 1.307104e+002 -1.913189e+001 -6.669338e+001
3096250000 -2.080039e+001 3.862518e+001 7.193066e+000 8.849363e+001 -8.119363e+001 1.215269e+002 -1.918902e+001 -6.438818e+001
3097343750 -2.141030e+001 4.694984e+001 7.151324e+000 2.886966e+001 -8.582058e+001 -1.745309e+002 -1.933577e+001 -6.217604e+001
3098437500 -2.227698e+001 5.562361e+001 7.104533e+000 -3.071011e+001 -8.198977e+001 -2.239745e+001 -1.954042e+001 -6.061139e+001
3099531250 -2.342806e+001 6.438081e+001 7.071879e+000 -9.029892e+001 -8.945491e+001 1.782165e+002 -1.977618e+001 -5.934879e+001
3100625000 -2.496696e+001 7.365224e+001 7.022717e+000 -1.498834e+002 -8.449061e+001 -9.889464e+001 -2.002528e+001 -5.876512e+001
3101718750 -2.702357e+001 8.371550e+001 6.977634e+000 1.505080e+002 -8.325022e+001 -1.498530e+002 -2.029431e+001 -5.872227e+001
3102812500 -2.993184e+001 9.622280e+001 6.927195e+000 9.104148e+001 -8.727988e+001 1.847832e+001 -2.051201e+001 -5.915056e+001
3103906250 -3.435785e+001 1.143185e+002 6.866028e+000 3.156605e+001 -9.903923e+001 -1.531085e+001 -2.069299e+001 -5.969749e+001
3105000000 -4.096193e+001 1.632599e+002 6.807258e+000 -2.776695e+001 -8.166485e+001 -1.295246e+002 -2.079901e+001 -6.045660e+001
3106093750 -3.796854e+001 -1.154858e+002 6.762481e+000 -8.711848e+001 -9.604576e+001 1.582425e+002 -2.084082e+001 -6.114039e+001
3107187500 -3.237047e+001 -8.690749e+001 6.739830e+000 -1.463562e+002 -8.585339e+001 8.766261e+001 -2.086631e+001 -6.155951e+001
3108281250 -2.896267e+001 -7.225505e+001 6.707777e+000 1.543497e+002 -8.357750e+001 -1.034855e+002 -2.084689e+001 -6.168993e+001
3109375000 -2.664604e+001 -6.104720e+001 6.689099e+000 9.507207e+001 -8.259225e+001 -1.251665e+002 -2.085342e+001 -6.155907e+001
3110468750 -2.502859e+001 -5.141376e+001 6.692875e+000 3.581619e+001 -7.905203e+001 -5.752467e+001 -2.086517e+001 -6.109146e+001
3111562500 -2.385965e+001 -4.244784e+001 6.709012e+000 -2.350542e+001 -7.983469e+001 1.461946e+002 -2.094468e+001 -6.026714e+001
3112656250 -2.304240e+001 -3.377488e+001 6.738013e+000 -8.288206e+001 -7.937957e+001 -1.704193e+002 -2.105837e+001 -5.952065e+001
3113750000 -2.252335e+001 -2.540504e+001 6.776261e+000 -1.424515e+002 -9.242683e+001 1.340381e+002 -2.127867e+001 -5.854510e+001
3114843750 -2.224654e+001 -1.721712e+001 6.805711e+000 1.578459e+002 -8.809109e+001 3.036194e+001 -2.154793e+001 -5.788026e+001
3115937500 -2.219647e+001 -9.260550e+000 6.811649e+000 9.801880e+001 -8.269653e+001 1.298387e+002 -2.190781e+001 -5.759353e+001
3117031250 -2.236379e+001 -1.437965e+000 6.807092e+000 3.826678e+001 -8.218291e+001 -1.060462e+002 -2.232296e+001 -5.797730e+001
3118125000 -2.277365e+001 6.397365e+000 6.789193e+000 -2.151450e+001 -8.069054e+001 9.560559e+001 -2.277797e+001 -5.895336e+001
3119218750 -2.344828e+001 1.401202e+001 6.760047e+000 -8.125517e+001 -9.485743e+001 -1.532579e+002 -2.321843e+001 -6.110584e+001
3120312500 -2.441232e+001 2.121775e+001 6.722620e+000 -1.409572e+002 -9.647862e+001 -3.169839e+001 -2.357006e+001 -6.422385e+001
3121406250 -2.576616e+001 2.816570e+001 6.674455e+000 1.593383e+002 -8.626276e+001 1.003686e+002 -2.379402e+001 -6.798042e+001
3122500000 -2.762787e+001 3.413647e+001 6.634899e+000 9.967277e+001 -8.149906e+001 -2.364033e+001 -2.383396e+001 -7.242603e+001
3123593750 -3.022213e+001 3.857027e+001 6.573864e+000 4.010547e+001 -8.776713e+001 1.681657e+002 -2.361544e+001 -7.653783e+001
3124687500 -3.423883e+001 3.867517e+001 6.520980e+000 -1.931956e+001 -8.748222e+001 2.642451e+001 -2.323834e+001 -7.956319e+001
3125781250 -4.111154e+001 1.909119e+001 6.476793e+000 -7.874096e+001 -8.946679e+001 -7.247330e+001 -2.275117e+001 -8.147803e+001
3126875000 -4.048520e+001 -5.976821e+001 6.454149e+000 -1.381553e+002 -8.420037e+001 -1.790974e+002 -2.224619e+001 -8.231632e+001
3127968750 -3.388058e+001 -7.856558e+001 6.451010e+000 1.623526e+002 -8.372122e+001 -4.519750e+001 -2.176746e+001 -8.173228e+001
3129062500 -3.004322e+001 -7.740946e+001 6.448301e+000 1.026712e+002 -8.684918e+001 -1.370457e+002 -2.133181e+001 -8.021633e+001
3130156250 -2.744832e+001 -7.296824e+001 6.434800e+000 4.298187e+001 -8.840920e+001 -9.705504e+001 -2.100990e+001 -7.794325e+001
3131250000 -2.562101e+001 -6.717064e+001 6.389685e+000 -1.680633e+001 -8.633643e+001 1.628490e+002 -2.080537e+001 -7.482286e+001
3132343750 -2.428071e+001 -6.043464e+001 6.346898e+000 -7.654150e+001 -8.339933e+001 -1.029089e+002 -2.072297e+001 -7.148973e+001
3133437500 -2.331752e+001 -5.345891e+001 6.290584e+000 -1.362908e+002 -7.864006e+001 -1.752034e+002 -2.078240e+001 -6.756701e+001
3134531250 -2.263553e+001 -4.633548e+001 6.210173e+000 1.640040e+002 -7.769676e+001 8.051427e+001 -2.100829e+001 -6.369815e+001
3135625000 -2.218367e+001 -3.901135e+001 6.125622e+000 1.044630e+002 -9.871824e+001 -1.176482e+002 -2.139678e+001 -5.953478e+001
3136718750 -2.200199e+001 -3.178237e+001 6.034779e+000 4.503096e+001 -9.020506e+001 -1.741962e+002 -2.198778e+001 -5.557357e+001
3137812500 -2.201653e+001 -2.459855e+001 5.950873e+000 -1.431521e+001 -8.319463e+001 8.178122e+001 -2.281877e+001 -5.197736e+001
3138906250 -2.224576e+001 -1.734382e+001 5.873262e+000 -7.355428e+001 -8.921226e+001 7.696319e+001 -2.392260e+001 -4.902846e+001
3140000000 -2.269508e+001 -1.016823e+001 5.803037e+000 -1.327215e+002 -8.037154e+001 -2.402934e+000 -2.536235e+001 -4.698382e+001
3141093750 -2.342142e+001 -3.432364e+000 5.738670e+000 1.681357e+002 -8.862920e+001 -1.149560e+001 -2.730222e+001 -4.787211e+001
3142187500 -2.442019e+001 3.150879e+000 5.688141e+000 1.088658e+002 -8.884473e+001 -3.958289e+001 -2.964552e+001 -5.384618e+001
3143281250 -2.580584e+001 9.217813e+000 5.628657e+000 4.968881e+001 -9.428709e+001 -4.013410e+001 -3.214011e+001 -6.991911e+001
3144375000 -2.769663e+001 1.380650e+001 5.581499e+000 -9.400996e+000 -8.501696e+001 -6.196149e+001 -3.286604e+001 -9.844262e+001
3145468750 -3.040588e+001 1.644754e+001 5.539791e+000 -6.844296e+001 -8.933791e+001 9.638049e+001 -3.079844e+001 -1.217293e+002
3146562500 -3.432787e+001 1.236568e+001 5.528711e+000 -1.274004e+002 -8.484313e+001 -1.745447e+002 -2.810272e+001 -1.315983e+002
3147656250 -3.951212e+001 -1.784565e+001 5.531496e+000 1.735133e+002 -8.004409e+001 -1.114491e+002 -2.579832e+001 -1.340901e+002
3148750000 -3.757911e+001 -7.333409e+001 5.552183e+000 1.143132e+002 -9.832475e+001 1.613304e+001 -2.398139e+001 -1.328161e+002
3149843750 -3.260138e+001 -8.938251e+001 5.569774e+000 5.484193e+001 -8.750584e+001 -7.425381e+001 -2.258094e+001 -1.297261e+002
3150937500 -2.916218e+001 -9.016281e+001 5.591479e+000 -4.708334e+000 -8.955616e+001 1.259655e+002 -2.145625e+001 -1.255068e+002
3152031250 -2.671708e+001 -8.641413e+001 5.573559e+000 -6.427554e+001 -9.024310e+001 -7.085036e+001 -2.062727e+001 -1.207853e+002
3153125000 -2.500410e+001 -8.098243e+001 5.554280e+000 -1.238397e+002 -7.910658e+001 1.701526e+002 -2.000447e+001 -1.154551e+002
3154218750 -2.371514e+001 -7.462433e+001 5.505404e+000 1.765634e+002 -8.891926e+001 -3.450175e+001 -1.956725e+001 -1.101768e+002
3155312500 -2.275945e+001 -6.785076e+001 5.459453e+000 1.170667e+002 -8.769695e+001 1.552865e+002 -1.932271e+001 -1.045643e+002
3156406250 -2.207128e+001 -6.079834e+001 5.391212e+000 5.754641e+001 -8.800643e+001 5.728800e+001 -1.926046e+001 -9.894116e+001
3157500000 -2.161009e+001 -5.354449e+001 5.312109e+000 -1.859796e+000 -8.787154e+001 -4.986354e+001 -1.933266e+001 -9.359982e+001
3158593750 -2.136971e+001 -4.610081e+001 5.226789e+000 -6.101956e+001 -9.622417e+001 8.945023e+000 -1.960472e+001 -8.833904e+001
3159687500 -2.131788e+001 -3.875712e+001 5.138867e+000 -1.200562e+002 -8.644978e+001 1.192965e+002 -2.004405e+001 -8.356636e+001
3160781250 -2.147146e+001 -3.125191e+001 5.071528e+000 -1.789486e+002 -8.472558e+001 9.727031e+001 -2.066873e+001 -7.930900e+001
3161875000 -2.183464e+001 -2.345239e+001 5.023560e+000 1.223466e+002 -8.543383e+001 -1.394817e+002 -2.151899e+001 -7.588449e+001
3162968750 -2.236300e+001 -1.575589e+001 5.015336e+000 6.360761e+001 -9.362064e+001 -1.041682e+000 -2.259663e+001 -7.399584e+001
3164062500 -2.317382e+001 -8.171002e+000 5.034389e+000 4.830983e+000 -8.186784e+001 4.503626e+001 -2.387569e+001 -7.412680e+001
3165156250 -2.425328e+001 -4.087732e-001 5.063918e+000 -5.404319e+001 -9.059544e+001 3.492038e+001 -2.532654e+001 -7.752277e+001
