!Agilent Technologies,E8363B,MY43030572,A.06.04.32
!Agilent E8363B: A.06.04.32
!Date: Monday, June 06, 2011 14:32:27
!Correction: S11(Full 2 Port(1,2)) S21(Full 2 Port(1,2)) S12(Full 2 Port(1,2)) S22(Full 2 Port(1,2)) 
!S2P File: Measurements: S11, S21, S12, S22:
# Hz S  dB   R 50
3000000000 -2.078133e+001 5.489165e+001 4.501468e+000 -9.505173e+001 -1.028472e+002 5.212657e+001 -1.649408e+001 -2.356321e+001
3001093750 -2.028709e+001 6.327382e+001 3.745225e+000 -1.570162e+002 -8.372153e+001 -8.013573e+001 -1.679182e+001 -1.993987e+001
3002187500 -1.999273e+001 7.188087e+001 3.715116e+000 1.444137e+002 -8.719983e+001 2.075003e+001 -1.716740e+001 -1.598896e+001
3003281250 -1.991770e+001 8.068465e+001 3.698899e+000 8.566397e+001 -8.512846e+001 -7.839825e+001 -1.770374e+001 -1.260865e+001
3004375000 -2.002447e+001 8.940818e+001 3.701629e+000 2.702071e+001 -8.234402e+001 3.342721e+001 -1.836992e+001 -1.002199e+001
3005468750 -2.035651e+001 9.823357e+001 3.710080e+000 -3.158903e+001 -8.931004e+001 1.011439e+002 -1.918036e+001 -8.429101e+000
3006562500 -2.089572e+001 1.071267e+002 3.732820e+000 -9.031453e+001 -8.550530e+001 -3.097974e+001 -2.012771e+001 -8.405780e+000
3007656250 -2.168794e+001 1.164263e+002 3.778043e+000 -1.489827e+002 -8.274150e+001 9.193756e+001 -2.115904e+001 -1.048535e+001
3008750000 -2.281074e+001 1.259670e+002 3.836511e+000 1.522263e+002 -9.404306e+001 7.043005e+001 -2.215456e+001 -1.510598e+001
3009843750 -2.432978e+001 1.364393e+002 3.896587e+000 9.337943e+001 -8.190147e+001 -7.584657e+001 -2.287022e+001 -2.244925e+001
3010937500 -2.643603e+001 1.479447e+002 3.975425e+000 3.436715e+001 -8.778315e+001 -1.643158e+002 -2.307962e+001 -3.152573e+001
3012031250 -2.939275e+001 1.629612e+002 4.048447e+000 -2.468234e+001 -8.490480e+001 7.658507e+001 -2.271412e+001 -4.010082e+001
3013125000 -3.378109e+001 -1.723577e+002 4.120451e+000 -8.378259e+001 -8.367776e+001 7.260233e+001 -2.190822e+001 -4.642527e+001
3014218750 -3.798809e+001 -1.129324e+002 4.185505e+000 -1.429332e+002 -9.019433e+001 -8.606894e+001 -2.097042e+001 -5.004125e+001
3015312500 -3.369312e+001 -5.237892e+001 4.256152e+000 1.578167e+002 -8.676617e+001 1.532987e+002 -2.003090e+001 -5.125065e+001
3016406250 -2.920023e+001 -2.766836e+001 4.307226e+000 9.848695e+001 -9.026139e+001 -5.505731e+001 -1.921365e+001 -5.050260e+001
3017500000 -2.614482e+001 -1.298931e+001 4.347704e+000 3.914764e+001 -7.957949e+001 1.876296e+001 -1.851405e+001 -4.841756e+001
3018593750 -2.396291e+001 -1.281596e+000 4.388054e+000 -2.011017e+001 -8.998977e+001 1.787266e+002 -1.798579e+001 -4.536255e+001
3019687500 -2.234225e+001 8.860056e+000 4.420925e+000 -7.931828e+001 -8.746848e+001 1.322964e+002 -1.760331e+001 -4.178790e+001
3020781250 -2.112858e+001 1.857627e+001 4.452410e+000 -1.384629e+002 -8.922075e+001 -2.667771e+001 -1.738429e+001 -3.774401e+001
3021875000 -2.022832e+001 2.774215e+001 4.506967e+000 1.622836e+002 -9.456618e+001 1.717640e+002 -1.729645e+001 -3.351108e+001
3022968750 -1.955355e+001 3.666743e+001 4.567768e+000 1.031592e+002 -8.451337e+001 -7.828572e+001 -1.737917e+001 -2.925785e+001
3024062500 -1.910968e+001 4.546167e+001 4.619810e+000 4.395781e+001 -8.509441e+001 -1.379431e+002 -1.760406e+001 -2.500855e+001
3025156250 -1.885061e+001 5.401888e+001 4.680276e+000 -1.524999e+001 -1.013167e+002 -1.372925e+002 -1.800661e+001 -2.112634e+001
3026250000 -1.879345e+001 6.258195e+001 4.735991e+000 -7.445825e+001 -9.394823e+001 3.403185e+001 -1.858663e+001 -1.753426e+001
3027343750 -1.890484e+001 7.099935e+001 4.790943e+000 -1.338057e+002 -8.829591e+001 -9.582879e+001 -1.932585e+001 -1.486975e+001
3028437500 -1.919415e+001 7.941074e+001 4.855743e+000 1.669588e+002 -8.216170e+001 -9.142109e+001 -2.027569e+001 -1.315053e+001
3029531250 -1.969464e+001 8.765842e+001 4.921259e+000 1.076234e+002 -7.695016e+001 4.541089e+001 -2.140236e+001 -1.300274e+001
3030625000 -2.041593e+001 9.583436e+001 4.963918e+000 4.828739e+001 -9.494540e+001 1.389090e+002 -2.266865e+001 -1.558260e+001
3031718750 -2.138110e+001 1.040026e+002 5.016188e+000 -1.095256e+001 -8.809507e+001 2.098683e+001 -2.392815e+001 -2.160406e+001
3032812500 -2.269930e+001 1.119650e+002 5.063893e+000 -7.017923e+001 -8.389047e+001 -1.013104e+001 -2.481351e+001 -3.174367e+001
3033906250 -2.441404e+001 1.197647e+002 5.141256e+000 -1.293850e+002 -1.082338e+002 -1.155870e+002 -2.494572e+001 -4.422485e+001
3035000000 -2.683167e+001 1.268896e+002 5.231279e+000 1.713392e+002 -8.984479e+001 -6.673234e+001 -2.423504e+001 -5.507333e+001
3036093750 -3.040680e+001 1.332692e+002 5.340828e+000 1.118724e+002 -8.398066e+001 1.784119e+002 -2.305589e+001 -6.226328e+001
3037187500 -3.674050e+001 1.355497e+002 5.436538e+000 5.218967e+001 -8.960159e+001 1.050718e+002 -2.181564e+001 -6.564045e+001
3038281250 -4.928562e+001 3.720150e+001 5.511497e+000 -7.687259e+000 -8.602637e+001 -1.329419e+002 -2.064282e+001 -6.597755e+001
3039375000 -3.507218e+001 -6.020369e+000 5.561234e+000 -6.760372e+001 -8.970878e+001 1.541958e+002 -1.967937e+001 -6.446231e+001
3040468750 -2.978111e+001 -2.172536e+000 5.595447e+000 -1.274578e+002 -8.347341e+001 3.014824e+001 -1.889986e+001 -6.162032e+001
3041562500 -2.668349e+001 4.421533e+000 5.604228e+000 1.727426e+002 -8.587035e+001 -3.815952e+001 -1.830964e+001 -5.799927e+001
3042656250 -2.456609e+001 1.210246e+001 5.605822e+000 1.130084e+002 -8.019680e+001 1.394675e+002 -1.790456e+001 -5.379160e+001
3043750000 -2.305943e+001 2.026692e+001 5.594527e+000 5.327225e+001 -8.320808e+001 1.359908e+002 -1.767727e+001 -4.920710e+001
3044843750 -2.200195e+001 2.848916e+001 5.564476e+000 -6.231706e+000 -9.073251e+001 7.167305e+001 -1.760831e+001 -4.455411e+001
3045937500 -2.122412e+001 3.703438e+001 5.535759e+000 -6.567188e+001 -8.677463e+001 3.182710e+001 -1.771464e+001 -3.975991e+001
3047031250 -2.070286e+001 4.573912e+001 5.495811e+000 -1.248284e+002 -8.676286e+001 -7.304044e+001 -1.797847e+001 -3.486769e+001
3048125000 -2.044519e+001 5.453662e+001 5.477071e+000 1.761965e+002 -8.625099e+001 -8.022487e-001 -1.842661e+001 -3.045242e+001
3049218750 -2.035661e+001 6.363974e+001 5.488940e+000 1.173750e+002 -8.073985e+001 -7.560188e+001 -1.910058e+001 -2.644340e+001
3050312500 -2.052181e+001 7.292448e+001 5.543462e+000 5.849596e+001 -9.851397e+001 1.704831e+002 -2.000246e+001 -2.304283e+001
3051406250 -2.083856e+001 8.258826e+001 5.636046e+000 -5.937259e-001 -8.977412e+001 -5.745316e+001 -2.116315e+001 -2.091436e+001
3052500000 -2.139284e+001 9.269750e+001 5.733267e+000 -5.969949e+001 -8.148052e+001 8.761222e+001 -2.259027e+001 -2.079199e+001
3053593750 -2.218715e+001 1.036484e+002 5.853613e+000 -1.190915e+002 -8.852776e+001 -1.084270e+001 -2.434560e+001 -2.424220e+001
3054687500 -2.323524e+001 1.153768e+002 5.968336e+000 -1.786362e+002 -9.190186e+001 3.660090e+001 -2.616057e+001 -3.360498e+001
3055781250 -2.458136e+001 1.289535e+002 6.075739e+000 1.215563e+002 -9.687231e+001 -1.360067e+002 -2.729049e+001 -5.039812e+001
3056875000 -2.623107e+001 1.454477e+002 6.170400e+000 6.160381e+001 -9.567308e+001 -1.213846e+002 -2.686208e+001 -6.982608e+001
3057968750 -2.807291e+001 1.667636e+002 6.216692e+000 1.397441e+000 -9.667934e+001 -2.462539e+001 -2.516606e+001 -8.341656e+001
3059062500 -2.962440e+001 -1.645040e+002 6.231030e+000 -5.877747e+001 -9.557603e+001 -1.334396e+002 -2.318581e+001 -8.978933e+001
3060156250 -2.990337e+001 -1.304426e+002 6.193259e+000 -1.187471e+002 -8.247990e+001 -4.069439e+001 -2.146170e+001 -9.131908e+001
3061250000 -2.862345e+001 -1.000869e+002 6.136503e+000 -1.785268e+002 -8.757996e+001 -1.320874e+002 -2.000336e+001 -8.994540e+001
3062343750 -2.673568e+001 -7.678012e+001 6.088037e+000 1.220071e+002 -8.210165e+001 -5.474461e+000 -1.884125e+001 -8.698616e+001
3063437500 -2.497897e+001 -5.905879e+001 6.048184e+000 6.264928e+001 -8.235639e+001 6.269024e+001 -1.790535e+001 -8.303922e+001
3064531250 -2.353316e+001 -4.504592e+001 6.039922e+000 3.328781e+000 -9.077794e+001 -1.699468e+002 -1.716993e+001 -7.862715e+001
3065625000 -2.237889e+001 -3.287770e+001 6.021876e+000 -5.593099e+001 -8.239661e+001 -8.905689e+001 -1.661065e+001 -7.347451e+001
3066718750 -2.150615e+001 -2.202590e+001 6.018728e+000 -1.151850e+002 -8.753987e+001 8.300273e+001 -1.621688e+001 -6.827177e+001
3067812500 -2.086163e+001 -1.186776e+001 6.007331e+000 -1.743088e+002 -8.431805e+001 -1.486385e+002 -1.598316e+001 -6.292002e+001
3068906250 -2.041965e+001 -2.257066e+000 6.021137e+000 1.265894e+002 -8.560522e+001 4.980716e+001 -1.587391e+001 -5.746224e+001
3070000000 -2.020962e+001 6.940269e+000 6.042381e+000 6.756923e+001 -9.713199e+001 -1.575924e+002 -1.589345e+001 -5.208580e+001
3071093750 -2.017297e+001 1.566040e+001 6.092319e+000 8.534070e+000 -8.080508e+001 -2.405239e+001 -1.605828e+001 -4.664453e+001
3072187500 -2.032234e+001 2.417815e+001 6.153080e+000 -5.058664e+001 -8.015845e+001 9.359549e+001 -1.635871e+001 -4.140722e+001
3073281250 -2.067431e+001 3.232359e+001 6.231615e+000 -1.096478e+002 -8.210876e+001 -1.326326e+002 -1.678986e+001 -3.661980e+001
3074375000 -2.123473e+001 4.010926e+001 6.336834e+000 -1.688750e+002 -8.132227e+001 -4.645725e+001 -1.736879e+001 -3.196152e+001
3075468750 -2.206112e+001 4.759357e+001 6.455544e+000 1.318378e+002 -9.339597e+001 6.810759e+001 -1.810335e+001 -2.800858e+001
3076562500 -2.320292e+001 5.463772e+001 6.594087e+000 7.235226e+001 -9.555110e+001 7.714121e+001 -1.903408e+001 -2.472150e+001
3077656250 -2.470446e+001 6.052406e+001 6.743952e+000 1.254763e+001 -8.687624e+001 8.636602e+001 -2.012129e+001 -2.265046e+001
3078750000 -2.674365e+001 6.521812e+001 6.866212e+000 -4.755952e+001 -8.351984e+001 -1.345606e+002 -2.142555e+001 -2.213162e+001
3079843750 -2.960538e+001 6.626663e+001 6.949884e+000 -1.078636e+002 -8.584016e+001 -7.325142e+001 -2.286687e+001 -2.407419e+001
3080937500 -3.358123e+001 5.819093e+001 6.977192e+000 -1.682190e+002 -8.863658e+001 -1.884244e+001 -2.436204e+001 -2.950397e+001
3082031250 -3.734402e+001 2.179415e+001 6.959143e+000 1.315171e+002 -8.843903e+001 1.709797e+002 -2.562130e+001 -3.945488e+001
3083125000 -3.431947e+001 -2.021117e+001 6.920402e+000 7.157571e+001 -8.017003e+001 -1.274211e+002 -2.608282e+001 -5.278097e+001
3084218750 -3.009278e+001 -3.163890e+001 6.868035e+000 1.172571e+001 -9.433820e+001 1.563098e+002 -2.568017e+001 -6.583409e+001
3085312500 -2.714007e+001 -3.119046e+001 6.818682e+000 -4.776193e+001 -9.389160e+001 -7.219660e+001 -2.464221e+001 -7.480773e+001
3086406250 -2.500481e+001 -2.713473e+001 6.777136e+000 -1.072806e+002 -9.017152e+001 -1.604262e+002 -2.342764e+001 -7.986588e+001
3087500000 -2.343641e+001 -2.147839e+001 6.742853e+000 -1.666634e+002 -7.946120e+001 1.044501e+001 -2.232730e+001 -8.149500e+001
3088593750 -2.226763e+001 -1.490405e+001 6.730776e+000 1.340366e+002 -8.696202e+001 -1.596225e+002 -2.135918e+001 -8.134891e+001
3089687500 -2.140343e+001 -7.825295e+000 6.736357e+000 7.485439e+001 -7.881910e+001 -9.548583e+001 -2.061125e+001 -7.987892e+001
3090781250 -2.076580e+001 -3.602945e-001 6.770477e+000 1.574164e+001 -8.944557e+001 -1.004151e+002 -2.002759e+001 -7.773059e+001
3091875000 -2.037791e+001 7.017221e+000 6.837181e+000 -4.356815e+001 -8.153832e+001 9.671109e+001 -1.959973e+001 -7.518710e+001
3092968750 -2.021287e+001 1.496681e+001 6.915662e+000 -1.029684e+002 -8.347811e+001 1.933710e+001 -1.933454e+001 -7.235274e+001
3094062500 -2.019909e+001 2.289924e+001 6.988531e+000 -1.626472e+002 -8.362848e+001 4.268302e+001 -1.916150e+001 -6.952583e+001
3095156250 -2.039548e+001 3.094994e+001 7.059810e+000 1.375402e+002 -8.709599e+001 1.612832e+002 -1.912028e+001 -6.683077e+001
3096250000 -2.078294e+001 3.913340e+001 7.102682e+000 7.767805e+001 -8.153980e+001 1.480364e+002 -1.917733e+001 -6.442392e+001
3097343750 -2.141006e+001 4.754208e+001 7.131133e+000 1.781003e+001 -9.334969e+001 2.017340e+001 -1.931796e+001 -6.231141e+001
3098437500 -2.226565e+001 5.622529e+001 7.144526e+000 -4.204920e+001 -8.467394e+001 -1.202932e+001 -1.952755e+001 -6.071945e+001
3099531250 -2.341777e+001 6.504674e+001 7.144340e+000 -1.019366e+002 -7.804363e+001 5.769749e+001 -1.976044e+001 -5.942569e+001
3100625000 -2.498265e+001 7.450438e+001 7.110953e+000 -1.617417e+002 -9.671118e+001 -1.720841e+002 -2.001740e+001 -5.887476e+001
3101718750 -2.701217e+001 8.471644e+001 7.079832e+000 1.385614e+002 -8.243928e+001 -7.176719e+001 -2.027873e+001 -5.878047e+001
3102812500 -2.991497e+001 9.749091e+001 7.046595e+000 7.909248e+001 -8.352555e+001 1.077358e+002 -2.049973e+001 -5.919495e+001
3103906250 -3.432989e+001 1.161598e+002 7.010481e+000 1.967484e+001 -8.402217e+001 5.105838e+001 -2.066265e+001 -5.975435e+001
3105000000 -4.054682e+001 1.656774e+002 6.997064e+000 -3.956758e+001 -8.213602e+001 -3.159324e+001 -2.077647e+001 -6.052352e+001
3106093750 -3.757988e+001 -1.163028e+002 7.002870e+000 -9.896427e+001 -8.543128e+001 9.904346e+001 -2.081960e+001 -6.135717e+001
3107187500 -3.219019e+001 -8.770686e+001 7.023438e+000 -1.582898e+002 -8.092521e+001 6.285027e+001 -2.084888e+001 -6.164336e+001
3108281250 -2.883979e+001 -7.259619e+001 7.038947e+000 1.423062e+002 -8.153691e+001 -7.330339e+001 -2.082670e+001 -6.172792e+001
3109375000 -2.653093e+001 -6.136267e+001 7.053619e+000 8.286412e+001 -8.521312e+001 -1.309333e+002 -2.083008e+001 -6.158421e+001
3110468750 -2.496097e+001 -5.156248e+001 7.081421e+000 2.350071e+001 -9.045212e+001 1.723904e+001 -2.085188e+001 -6.108009e+001
3111562500 -2.378333e+001 -4.242525e+001 7.115673e+000 -3.586099e+001 -8.548023e+001 -1.193149e+002 -2.092366e+001 -6.031558e+001
3112656250 -2.297821e+001 -3.384206e+001 7.165206e+000 -9.522167e+001 -9.421938e+001 -7.654168e+001 -2.104283e+001 -5.948439e+001
3113750000 -2.244737e+001 -2.544549e+001 7.234411e+000 -1.547379e+002 -8.821777e+001 -9.778315e+001 -2.124483e+001 -5.868008e+001
3114843750 -2.218613e+001 -1.719005e+001 7.296430e+000 1.456527e+002 -9.047235e+001 6.432224e+000 -2.153274e+001 -5.793330e+001
3115937500 -2.211919e+001 -9.150079e+000 7.350705e+000 8.596807e+001 -8.186392e+001 1.172069e+002 -2.188535e+001 -5.767469e+001
3117031250 -2.230018e+001 -1.308532e+000 7.397785e+000 2.629811e+001 -8.623676e+001 -1.751970e+002 -2.230695e+001 -5.808179e+001
3118125000 -2.270654e+001 6.545885e+000 7.440051e+000 -3.340617e+001 -8.387386e+001 -9.446136e+001 -2.277073e+001 -5.903119e+001
3119218750 -2.337165e+001 1.420913e+001 7.477394e+000 -9.309544e+001 -9.859108e+001 8.190681e+001 -2.319414e+001 -6.116560e+001
3120312500 -2.431012e+001 2.155898e+001 7.506736e+000 -1.528056e+002 -8.422853e+001 -1.630475e+002 -2.355646e+001 -6.432529e+001
3121406250 -2.565667e+001 2.847764e+001 7.518364e+000 1.474084e+002 -9.663087e+001 3.212002e+001 -2.378602e+001 -6.809763e+001
3122500000 -2.748909e+001 3.459635e+001 7.541571e+000 8.772971e+001 -9.379659e+001 1.051431e+002 -2.380651e+001 -7.254906e+001
3123593750 -3.006561e+001 3.965734e+001 7.546894e+000 2.812912e+001 -9.319681e+001 1.555175e+002 -2.360165e+001 -7.666065e+001
3124687500 -3.401421e+001 4.026124e+001 7.560329e+000 -3.137348e+001 -8.698758e+001 1.175391e+001 -2.321172e+001 -7.961412e+001
3125781250 -4.092798e+001 2.311902e+001 7.589677e+000 -9.090727e+001 -7.896845e+001 -4.130154e+001 -2.273403e+001 -8.169019e+001
3126875000 -4.120369e+001 -5.905932e+001 7.642622e+000 -1.504201e+002 -8.273415e+001 1.581007e+002 -2.222805e+001 -8.226184e+001
3127968750 -3.419614e+001 -7.882253e+001 7.717587e+000 1.499434e+002 -8.472308e+001 -1.127671e+002 -2.174554e+001 -8.164551e+001
3129062500 -3.020721e+001 -7.802141e+001 7.789729e+000 9.005178e+001 -9.234124e+001 -3.497302e+001 -2.131156e+001 -8.026371e+001
3130156250 -2.757615e+001 -7.328271e+001 7.860441e+000 3.010654e+001 -8.051598e+001 3.631498e+001 -2.099964e+001 -7.792599e+001
3131250000 -2.570193e+001 -6.741932e+001 7.901089e+000 -3.003660e+001 -9.014220e+001 -1.172445e+002 -2.077691e+001 -7.502184e+001
3132343750 -2.434842e+001 -6.057824e+001 7.926898e+000 -9.021699e+001 -7.954015e+001 1.028859e+002 -2.069276e+001 -7.146837e+001
3133437500 -2.336536e+001 -5.370768e+001 7.931800e+000 -1.504782e+002 -9.500902e+001 8.907317e+001 -2.075937e+001 -6.764556e+001
3134531250 -2.267123e+001 -4.660636e+001 7.891901e+000 1.493238e+002 -9.103429e+001 2.285681e+001 -2.099864e+001 -6.376279e+001
3135625000 -2.223618e+001 -3.925990e+001 7.838641e+000 8.931515e+001 -8.231457e+001 5.518301e+001 -2.138282e+001 -5.968729e+001
3136718750 -2.202658e+001 -3.203363e+001 7.769392e+000 2.953546e+001 -8.281934e+001 -7.618842e+001 -2.196656e+001 -5.566394e+001
3137812500 -2.202160e+001 -2.482776e+001 7.710109e+000 -3.003174e+001 -8.534952e+001 6.679881e+001 -2.280393e+001 -5.209555e+001
3138906250 -2.225604e+001 -1.770954e+001 7.674841e+000 -8.949257e+001 -8.999854e+001 5.895840e+001 -2.392290e+001 -4.917680e+001
3140000000 -2.271271e+001 -1.059949e+001 7.652870e+000 -1.488889e+002 -8.917994e+001 8.963987e+001 -2.535086e+001 -4.728131e+001
3141093750 -2.340450e+001 -3.768823e+000 7.655464e+000 1.517376e+002 -7.764117e+001 -7.232441e+001 -2.728547e+001 -4.805631e+001
3142187500 -2.441244e+001 2.821433e+000 7.681013e+000 9.214896e+001 -8.018034e+001 1.010578e+002 -2.962742e+001 -5.392828e+001
3143281250 -2.578592e+001 8.638824e+000 7.701777e+000 3.252938e+001 -8.274345e+001 4.501095e+001 -3.211931e+001 -7.036761e+001
3144375000 -2.762062e+001 1.328323e+001 7.727209e+000 -2.713754e+001 -8.442321e+001 -6.907557e+000 -3.284051e+001 -9.850799e+001
3145468750 -3.029014e+001 1.544255e+001 7.751502e+000 -8.687266e+001 -8.531501e+001 -1.581149e+002 -3.072731e+001 -1.219028e+002
3146562500 -3.411861e+001 1.163388e+001 7.784749e+000 -1.466900e+002 -8.553587e+001 1.277640e+002 -2.807581e+001 -1.316939e+002
3147656250 -3.899521e+001 -1.672094e+001 7.809545e+000 1.532929e+002 -7.948463e+001 1.106255e+002 -2.574770e+001 -1.339320e+002
3148750000 -3.748030e+001 -7.038278e+001 7.821733e+000 9.320484e+001 -8.408881e+001 1.594127e+002 -2.394924e+001 -1.328263e+002
3149843750 -3.262840e+001 -8.753285e+001 7.804471e+000 3.292997e+001 -9.084024e+001 8.104085e+001 -2.255962e+001 -1.296661e+002
3150937500 -2.919281e+001 -8.886824e+001 7.760176e+000 -2.727498e+001 -8.926060e+001 -7.754648e+001 -2.144045e+001 -1.255263e+002
3152031250 -2.677719e+001 -8.551101e+001 7.685841e+000 -8.733887e+001 -8.551705e+001 -1.089147e+002 -2.060153e+001 -1.207406e+002
3153125000 -2.506180e+001 -8.023901e+001 7.605357e+000 -1.472452e+002 -8.558794e+001 -2.115676e+001 -1.998048e+001 -1.154318e+002
3154218750 -2.377386e+001 -7.406792e+001 7.497942e+000 1.529001e+002 -9.011910e+001 3.005478e+001 -1.955007e+001 -1.101851e+002
3155312500 -2.282353e+001 -6.734695e+001 7.407441e+000 9.328147e+001 -9.224088e+001 -4.383708e+001 -1.930028e+001 -1.045067e+002
3156406250 -2.213476e+001 -6.031982e+001 7.313191e+000 3.367374e+001 -8.241485e+001 1.279926e+002 -1.923778e+001 -9.900272e+001
3157500000 -2.166688e+001 -5.305323e+001 7.221146e+000 -2.577623e+001 -9.414637e+001 -1.175612e+002 -1.931640e+001 -9.365112e+001
3158593750 -2.142365e+001 -4.569079e+001 7.148344e+000 -8.507798e+001 -8.090686e+001 6.480088e+001 -1.957157e+001 -8.834216e+001
3159687500 -2.138633e+001 -3.841234e+001 7.077955e+000 -1.443490e+002 -8.670429e+001 7.103391e+001 -2.002803e+001 -8.360936e+001
3160781250 -2.153061e+001 -3.083841e+001 7.023158e+000 1.564109e+002 -8.505463e+001 1.476447e+002 -2.064372e+001 -7.937122e+001
3161875000 -2.189393e+001 -2.316068e+001 6.980530e+000 9.723062e+001 -8.309243e+001 1.403727e+002 -2.150454e+001 -7.594070e+001
3162968750 -2.243430e+001 -1.547619e+001 6.962681e+000 3.799172e+001 -8.400931e+001 -1.535037e+002 -2.257599e+001 -7.398291e+001
3164062500 -2.323391e+001 -7.886626e+000 6.948357e+000 -2.128732e+001 -1.048704e+002 -4.008956e+001 -2.383676e+001 -7.425599e+001
3165156250 -2.432983e+001 -2.563132e-001 6.931807e+000 -8.054504e+001 -8.322527e+001 -1.050494e+002 -2.531120e+001 -7.778072e+001
