!Agilent Technologies,E8363B,MY43030572,A.06.04.32
!Agilent E8363B: A.06.04.32
!Date: Monday, June 06, 2011 14:36:19
!Correction: S11(Full 2 Port(1,2)) S21(Full 2 Port(1,2)) S12(Full 2 Port(1,2)) S22(Full 2 Port(1,2)) 
!S2P File: Measurements: S11, S21, S12, S22:
# Hz S  dB   R 50
3000000000 -2.078098e+001 5.498199e+001 1.298495e+000 -1.107306e+001 -9.337402e+001 1.759318e+001 -1.647844e+001 -2.354613e+001
3001093750 -2.029192e+001 6.330716e+001 5.590960e-001 -7.449763e+001 -9.122762e+001 -1.747696e+002 -1.676963e+001 -1.980835e+001
3002187500 -1.999201e+001 7.186911e+001 6.107749e-001 -1.346287e+002 -8.221976e+001 -6.267307e+001 -1.714194e+001 -1.600674e+001
3003281250 -1.992227e+001 8.068478e+001 6.716439e-001 1.649587e+002 -9.665405e+001 4.502760e+001 -1.766590e+001 -1.265740e+001
3004375000 -2.002893e+001 8.944243e+001 7.544178e-001 1.045383e+002 -9.774963e+001 -1.393060e+002 -1.834009e+001 -1.006583e+001
3005468750 -2.035428e+001 9.824670e+001 8.298584e-001 4.412595e+001 -8.498754e+001 1.685366e+002 -1.914100e+001 -8.497158e+000
3006562500 -2.090549e+001 1.073036e+002 9.107276e-001 -1.640697e+001 -8.741174e+001 -1.399581e+002 -2.010106e+001 -8.448810e+000
3007656250 -2.169105e+001 1.164922e+002 1.004374e+000 -7.695013e+001 -8.700541e+001 -6.988148e+001 -2.112743e+001 -1.052412e+001
3008750000 -2.280949e+001 1.261460e+002 1.104310e+000 -1.376138e+002 -8.278841e+001 1.369979e+002 -2.210977e+001 -1.515828e+001
3009843750 -2.432744e+001 1.366470e+002 1.202538e+000 1.616352e+002 -8.870228e+001 9.438893e+000 -2.281378e+001 -2.248233e+001
3010937500 -2.643378e+001 1.482723e+002 1.294979e+000 1.007763e+002 -8.184310e+001 -1.643208e+002 -2.302473e+001 -3.140384e+001
3012031250 -2.942988e+001 1.633745e+002 1.385796e+000 3.993656e+001 -8.352908e+001 1.124920e+002 -2.266483e+001 -4.006844e+001
3013125000 -3.378632e+001 -1.716669e+002 1.472458e+000 -2.089770e+001 -9.065302e+001 -5.133533e+000 -2.186890e+001 -4.636611e+001
3014218750 -3.788241e+001 -1.126236e+002 1.558565e+000 -8.173074e+001 -8.988554e+001 5.134708e+001 -2.093372e+001 -4.995320e+001
3015312500 -3.363005e+001 -5.287204e+001 1.652528e+000 -1.425265e+002 -8.656612e+001 -1.594013e+002 -1.999705e+001 -5.116440e+001
3016406250 -2.920252e+001 -2.800715e+001 1.748659e+000 1.566021e+002 -8.870400e+001 6.282094e+001 -1.917140e+001 -5.042504e+001
3017500000 -2.612736e+001 -1.316182e+001 1.853153e+000 9.567182e+001 -8.330424e+001 2.435727e+001 -1.848963e+001 -4.837430e+001
3018593750 -2.395238e+001 -1.310070e+000 1.977352e+000 3.471627e+001 -8.369920e+001 1.175380e+002 -1.796896e+001 -4.530782e+001
3019687500 -2.234557e+001 8.776724e+000 2.097839e+000 -2.634164e+001 -8.320942e+001 -1.353208e+002 -1.758030e+001 -4.178938e+001
3020781250 -2.111096e+001 1.851349e+001 2.223319e+000 -8.758076e+001 -1.010907e+002 -1.140368e+002 -1.735543e+001 -3.777880e+001
3021875000 -2.020632e+001 2.778050e+001 2.340470e+000 -1.489867e+002 -9.184734e+001 -1.190398e+002 -1.727103e+001 -3.351160e+001
3022968750 -1.955356e+001 3.670471e+001 2.424642e+000 1.495793e+002 -8.851372e+001 1.529363e+002 -1.735443e+001 -2.928382e+001
3024062500 -1.910508e+001 4.543480e+001 2.487554e+000 8.809734e+001 -9.498130e+001 4.602580e+001 -1.758469e+001 -2.505324e+001
3025156250 -1.884334e+001 5.399786e+001 2.524121e+000 2.669303e+001 -8.743542e+001 -1.289684e+001 -1.798103e+001 -2.114928e+001
3026250000 -1.878662e+001 6.255362e+001 2.545347e+000 -3.454895e+001 -8.430783e+001 -8.105567e+001 -1.855663e+001 -1.756984e+001
3027343750 -1.889127e+001 7.104599e+001 2.570460e+000 -9.575021e+001 -1.028859e+002 -1.054585e+001 -1.930277e+001 -1.490670e+001
3028437500 -1.918744e+001 7.946824e+001 2.613813e+000 -1.566965e+002 -8.591021e+001 8.962639e+001 -2.023440e+001 -1.320524e+001
3029531250 -1.968795e+001 8.768790e+001 2.669359e+000 1.422471e+002 -8.714371e+001 -6.744307e+001 -2.135575e+001 -1.316107e+001
3030625000 -2.038280e+001 9.592149e+001 2.714847e+000 8.118810e+001 -1.025673e+002 -4.797052e+001 -2.262445e+001 -1.563665e+001
3031718750 -2.136892e+001 1.040614e+002 2.775942e+000 2.017533e+001 -8.174013e+001 1.143065e+002 -2.388201e+001 -2.165046e+001
3032812500 -2.267133e+001 1.120834e+002 2.836172e+000 -4.086945e+001 -7.824001e+001 1.321189e+002 -2.475551e+001 -3.162822e+001
3033906250 -2.440103e+001 1.199012e+002 2.913741e+000 -1.018864e+002 -7.984487e+001 -4.903125e+001 -2.487403e+001 -4.403672e+001
3035000000 -2.681003e+001 1.272628e+002 3.011076e+000 -1.630243e+002 -8.462525e+001 1.114137e+002 -2.417229e+001 -5.507598e+001
3036093750 -3.035954e+001 1.334772e+002 3.110553e+000 1.356405e+002 -8.110533e+001 1.367466e+002 -2.300949e+001 -6.216135e+001
3037187500 -3.665451e+001 1.359070e+002 3.202100e+000 7.411259e+001 -8.448957e+001 -7.743372e+001 -2.175560e+001 -6.556638e+001
3038281250 -4.988872e+001 3.856837e+001 3.264302e+000 1.247423e+001 -8.069170e+001 -1.518599e+002 -2.061762e+001 -6.598818e+001
3039375000 -3.511792e+001 -6.355798e+000 3.311388e+000 -4.920645e+001 -8.541361e+001 5.266613e+000 -1.965212e+001 -6.440229e+001
3040468750 -2.982653e+001 -2.358979e+000 3.342839e+000 -1.108678e+002 -8.910695e+001 -7.402931e+001 -1.888478e+001 -6.158752e+001
3041562500 -2.671398e+001 4.335151e+000 3.352137e+000 -1.724833e+002 -8.320735e+001 -6.302287e+001 -1.829379e+001 -5.789185e+001
3042656250 -2.457859e+001 1.199397e+001 3.362212e+000 1.259563e+002 -8.336739e+001 4.537716e+001 -1.787134e+001 -5.376726e+001
3043750000 -2.307148e+001 2.017064e+001 3.343906e+000 6.435228e+001 -8.370111e+001 1.780951e+002 -1.764601e+001 -4.921531e+001
3044843750 -2.201284e+001 2.843451e+001 3.304132e+000 2.950722e+000 -7.807368e+001 -5.244359e+001 -1.756613e+001 -4.453423e+001
3045937500 -2.123316e+001 3.703527e+001 3.265249e+000 -5.835552e+001 -8.643745e+001 1.228821e+002 -1.768301e+001 -3.979285e+001
3047031250 -2.070577e+001 4.573731e+001 3.220882e+000 -1.194052e+002 -8.346497e+001 1.575098e+002 -1.796091e+001 -3.492959e+001
3048125000 -2.044689e+001 5.452747e+001 3.190970e+000 1.797263e+002 -8.689881e+001 3.367797e+001 -1.840318e+001 -3.056643e+001
3049218750 -2.036786e+001 6.358868e+001 3.192305e+000 1.188530e+002 -8.279177e+001 -3.088771e+001 -1.907216e+001 -2.653441e+001
3050312500 -2.052356e+001 7.289336e+001 3.219080e+000 5.800610e+001 -8.276286e+001 5.437955e+001 -1.996751e+001 -2.309096e+001
3051406250 -2.083752e+001 8.264465e+001 3.271721e+000 -3.072880e+000 -8.108276e+001 -1.036170e+002 -2.111838e+001 -2.113897e+001
3052500000 -2.138682e+001 9.276395e+001 3.316710e+000 -6.412594e+001 -8.421719e+001 -6.008739e+001 -2.254013e+001 -2.085282e+001
3053593750 -2.218525e+001 1.036730e+002 3.360721e+000 -1.253579e+002 -8.798984e+001 3.409222e+001 -2.426586e+001 -2.438131e+001
3054687500 -2.323766e+001 1.154299e+002 3.402110e+000 1.734361e+002 -8.620235e+001 -7.966240e+001 -2.608500e+001 -3.374808e+001
3055781250 -2.456475e+001 1.289256e+002 3.455976e+000 1.120870e+002 -8.259834e+001 -1.627833e+002 -2.719096e+001 -5.034954e+001
3056875000 -2.621762e+001 1.453624e+002 3.504595e+000 5.063683e+001 -8.785749e+001 1.797864e+002 -2.677197e+001 -6.968396e+001
3057968750 -2.807605e+001 1.667246e+002 3.532056e+000 -1.103658e+001 -9.772346e+001 3.842010e+001 -2.512122e+001 -8.321855e+001
3059062500 -2.959079e+001 -1.645128e+002 3.536792e+000 -7.273586e+001 -9.136951e+001 5.720446e+001 -2.314610e+001 -8.962453e+001
3060156250 -2.984391e+001 -1.308213e+002 3.494908e+000 -1.344699e+002 -8.575742e+001 7.740279e+001 -2.143631e+001 -9.118170e+001
3061250000 -2.860147e+001 -1.003558e+002 3.420308e+000 1.639748e+002 -8.528111e+001 8.761794e+001 -1.997884e+001 -8.974230e+001
3062343750 -2.674882e+001 -7.683641e+001 3.340022e+000 1.025957e+002 -7.812586e+001 7.922978e+001 -1.880840e+001 -8.685735e+001
3063437500 -2.497927e+001 -5.921145e+001 3.254413e+000 4.140646e+001 -8.661320e+001 5.602281e+001 -1.787643e+001 -8.301922e+001
3064531250 -2.353874e+001 -4.505009e+001 3.172872e+000 -1.972129e+001 -8.227409e+001 -1.518527e+002 -1.714329e+001 -7.853979e+001
3065625000 -2.238755e+001 -3.297506e+001 3.079095e+000 -8.064143e+001 -9.289317e+001 -9.532172e+001 -1.658681e+001 -7.344431e+001
3066718750 -2.150988e+001 -2.204743e+001 2.996781e+000 -1.414456e+002 -9.318705e+001 -1.665962e+002 -1.619146e+001 -6.831258e+001
3067812500 -2.087654e+001 -1.180912e+001 2.923383e+000 1.579536e+002 -8.271325e+001 1.584606e+002 -1.595063e+001 -6.293914e+001
3068906250 -2.043171e+001 -2.313703e+000 2.878577e+000 9.742011e+001 -8.253107e+001 -1.517174e+002 -1.584947e+001 -5.748508e+001
3070000000 -2.020510e+001 6.938790e+000 2.854318e+000 3.703873e+001 -9.062746e+001 -1.001479e+002 -1.587157e+001 -5.202008e+001
3071093750 -2.017624e+001 1.570567e+001 2.860311e+000 -2.338998e+001 -8.798333e+001 9.830257e+001 -1.603899e+001 -4.668193e+001
3072187500 -2.033731e+001 2.426197e+001 2.880747e+000 -8.393388e+001 -8.272083e+001 -4.517921e+000 -1.632324e+001 -4.144724e+001
3073281250 -2.067889e+001 3.240561e+001 2.916552e+000 -1.444141e+002 -7.902253e+001 -1.292343e+002 -1.676501e+001 -3.664724e+001
3074375000 -2.124451e+001 4.027624e+001 2.980493e+000 1.550775e+002 -9.512930e+001 8.811842e+001 -1.734417e+001 -3.196070e+001
3075468750 -2.206123e+001 4.768636e+001 3.059291e+000 9.462778e+001 -8.369693e+001 -1.519321e+002 -1.807690e+001 -2.809793e+001
3076562500 -2.319572e+001 5.459064e+001 3.177317e+000 3.397292e+001 -9.459660e+001 5.814669e+001 -1.899539e+001 -2.486772e+001
3077656250 -2.469090e+001 6.062925e+001 3.313505e+000 -2.693879e+001 -8.574085e+001 -5.849989e+001 -2.008958e+001 -2.267799e+001
3078750000 -2.674929e+001 6.528648e+001 3.459428e+000 -8.823486e+001 -1.060397e+002 8.440563e+001 -2.138554e+001 -2.224881e+001
3079843750 -2.959150e+001 6.630572e+001 3.570707e+000 -1.498390e+002 -9.381439e+001 -6.078334e+001 -2.283054e+001 -2.420328e+001
3080937500 -3.360321e+001 5.817456e+001 3.633739e+000 1.483656e+002 -8.618453e+001 -1.788474e+002 -2.432442e+001 -2.966615e+001
3082031250 -3.738878e+001 2.189660e+001 3.643047e+000 8.665698e+001 -7.893851e+001 -1.678400e+002 -2.555579e+001 -3.951932e+001
3083125000 -3.433339e+001 -2.018434e+001 3.635988e+000 2.515422e+001 -8.563164e+001 4.326676e+000 -2.605513e+001 -5.277318e+001
3084218750 -3.015528e+001 -3.145080e+001 3.617205e+000 -3.624855e+001 -8.413974e+001 -1.454566e+002 -2.563189e+001 -6.574440e+001
3085312500 -2.715547e+001 -3.117604e+001 3.597350e+000 -9.739622e+001 -9.187165e+001 -1.794177e+002 -2.458453e+001 -7.471811e+001
3086406250 -2.500782e+001 -2.717293e+001 3.594916e+000 -1.586218e+002 -8.397327e+001 -1.718509e+002 -2.337941e+001 -7.968695e+001
3087500000 -2.344455e+001 -2.150066e+001 3.581729e+000 1.401820e+002 -8.777625e+001 -1.714062e+002 -2.229658e+001 -8.152146e+001
3088593750 -2.227041e+001 -1.488049e+001 3.586487e+000 7.907584e+001 -8.529253e+001 -7.763787e+001 -2.133376e+001 -8.132265e+001
3089687500 -2.139967e+001 -7.767623e+000 3.592578e+000 1.806821e+001 -9.159102e+001 -6.007483e+000 -2.057928e+001 -7.983975e+001
3090781250 -2.076222e+001 -3.751207e-001 3.627034e+000 -4.288525e+001 -8.384518e+001 -9.490819e+001 -1.999176e+001 -7.772471e+001
3091875000 -2.039348e+001 7.074988e+000 3.675451e+000 -1.039145e+002 -8.442662e+001 -5.081446e+001 -1.957832e+001 -7.517979e+001
3092968750 -2.021768e+001 1.494832e+001 3.745433e+000 -1.651442e+002 -8.440649e+001 -1.578763e+002 -1.929712e+001 -7.235693e+001
3094062500 -2.020561e+001 2.294931e+001 3.802009e+000 1.334058e+002 -8.750387e+001 1.600492e+002 -1.913735e+001 -6.950665e+001
3095156250 -2.040884e+001 3.095303e+001 3.839581e+000 7.181930e+001 -8.320169e+001 -1.432048e+002 -1.908841e+001 -6.682771e+001
3096250000 -2.079268e+001 3.908958e+001 3.846499e+000 1.018626e+001 -8.816922e+001 1.572435e+002 -1.914557e+001 -6.441042e+001
3097343750 -2.140558e+001 4.752953e+001 3.834866e+000 -5.129663e+001 -8.212914e+001 -5.919081e+001 -1.926959e+001 -6.229887e+001
3098437500 -2.227928e+001 5.618450e+001 3.799074e+000 -1.128307e+002 -7.821793e+001 -2.091302e+001 -1.949303e+001 -6.076582e+001
3099531250 -2.342075e+001 6.507450e+001 3.757353e+000 -1.743209e+002 -8.431693e+001 1.669036e+002 -1.972227e+001 -5.945224e+001
3100625000 -2.496613e+001 7.443791e+001 3.686674e+000 1.243021e+002 -8.127704e+001 1.346297e+002 -1.997047e+001 -5.892076e+001
3101718750 -2.701776e+001 8.464379e+001 3.615273e+000 6.305285e+001 -9.171584e+001 1.058551e+002 -2.024162e+001 -5.877196e+001
3102812500 -2.991903e+001 9.759497e+001 3.545178e+000 2.053402e+000 -9.117336e+001 9.063561e+001 -2.045362e+001 -5.919373e+001
3103906250 -3.432830e+001 1.161647e+002 3.473428e+000 -5.886198e+001 -8.476243e+001 -1.120683e+002 -2.062193e+001 -5.981065e+001
3105000000 -4.058296e+001 1.653907e+002 3.429486e+000 -1.195409e+002 -8.232466e+001 -2.882691e+001 -2.074205e+001 -6.055074e+001
3106093750 -3.764615e+001 -1.158485e+002 3.430823e+000 1.797769e+002 -8.031920e+001 -8.917009e+001 -2.077501e+001 -6.119597e+001
3107187500 -3.221913e+001 -8.757925e+001 3.460422e+000 1.191870e+002 -7.837588e+001 -5.597766e+000 -2.080783e+001 -6.160547e+001
3108281250 -2.885617e+001 -7.265862e+001 3.505877e+000 5.842284e+001 -9.054967e+001 -1.773803e+002 -2.080366e+001 -6.171881e+001
3109375000 -2.655569e+001 -6.124373e+001 3.576793e+000 -2.466542e+000 -8.617554e+001 -1.259625e+002 -2.079690e+001 -6.161758e+001
3110468750 -2.498234e+001 -5.143177e+001 3.664377e+000 -6.344617e+001 -9.006429e+001 1.179223e+000 -2.083414e+001 -6.118669e+001
3111562500 -2.380319e+001 -4.232177e+001 3.762345e+000 -1.246081e+002 -8.268654e+001 9.034858e+001 -2.089491e+001 -6.041190e+001
3112656250 -2.298250e+001 -3.368076e+001 3.851981e+000 1.740910e+002 -8.024881e+001 7.495553e+000 -2.102371e+001 -5.956838e+001
3113750000 -2.246250e+001 -2.526324e+001 3.946521e+000 1.125893e+002 -8.289546e+001 -4.429863e+001 -2.121683e+001 -5.867780e+001
3114843750 -2.218145e+001 -1.701435e+001 4.012488e+000 5.088160e+001 -8.706827e+001 -1.016747e+002 -2.149761e+001 -5.799219e+001
3115937500 -2.212980e+001 -9.037427e+000 4.052300e+000 -1.094008e+001 -8.869466e+001 2.494683e+001 -2.185682e+001 -5.778381e+001
3117031250 -2.230692e+001 -1.137427e+000 4.066127e+000 -7.267339e+001 -8.501781e+001 1.709577e+002 -2.225633e+001 -5.818027e+001
3118125000 -2.271441e+001 6.684813e+000 4.076510e+000 -1.344656e+002 -8.925589e+001 -1.026558e+002 -2.272567e+001 -5.921292e+001
3119218750 -2.336832e+001 1.432631e+001 4.067921e+000 1.637224e+002 -9.508707e+001 -9.115417e+001 -2.314581e+001 -6.134278e+001
3120312500 -2.433013e+001 2.161565e+001 4.042777e+000 1.019053e+002 -9.865401e+001 -1.525331e+001 -2.349840e+001 -6.448741e+001
3121406250 -2.566781e+001 2.872611e+001 4.001868e+000 3.995890e+001 -8.903520e+001 2.287548e+001 -2.371622e+001 -6.824467e+001
3122500000 -2.750667e+001 3.484283e+001 3.947190e+000 -2.193539e+001 -8.169788e+001 8.875364e+000 -2.375826e+001 -7.249426e+001
3123593750 -3.008362e+001 3.968768e+001 3.854995e+000 -8.374076e+001 -9.535208e+001 1.576401e+002 -2.354814e+001 -7.654189e+001
3124687500 -3.406499e+001 4.039392e+001 3.755769e+000 -1.453687e+002 -8.730379e+001 -8.795210e+001 -2.316511e+001 -7.945580e+001
3125781250 -4.092350e+001 2.299610e+001 3.651433e+000 1.531506e+002 -8.746194e+001 8.391773e+001 -2.268809e+001 -8.149661e+001
3126875000 -4.128661e+001 -5.938197e+001 3.562950e+000 9.185357e+001 -9.448479e+001 7.146647e+001 -2.217532e+001 -8.237640e+001
3127968750 -3.420521e+001 -7.870085e+001 3.494410e+000 3.054299e+001 -8.653971e+001 1.093162e+002 -2.169940e+001 -8.168994e+001
3129062500 -3.020358e+001 -7.794950e+001 3.438052e+000 -3.090548e+001 -9.802871e+001 7.502331e+001 -2.128266e+001 -8.021169e+001
3130156250 -2.757247e+001 -7.325923e+001 3.366947e+000 -9.227659e+001 -8.902230e+001 -1.678492e+002 -2.095869e+001 -7.792528e+001
3131250000 -2.568958e+001 -6.748489e+001 3.277536e+000 -1.537247e+002 -8.258051e+001 1.378734e+002 -2.075203e+001 -7.498885e+001
3132343750 -2.433202e+001 -6.064925e+001 3.181986e+000 1.449205e+002 -1.078451e+002 -8.950020e+001 -2.067358e+001 -7.149416e+001
3133437500 -2.336695e+001 -5.364037e+001 3.077302e+000 8.359379e+001 -8.428969e+001 -1.289645e+002 -2.072682e+001 -6.764146e+001
3134531250 -2.266959e+001 -4.659075e+001 2.948037e+000 2.236129e+001 -8.120610e+001 5.853502e+001 -2.096428e+001 -6.381235e+001
3135625000 -2.223042e+001 -3.920761e+001 2.820309e+000 -3.865906e+001 -7.880681e+001 -7.143915e+001 -2.135986e+001 -5.973691e+001
3136718750 -2.204082e+001 -3.195140e+001 2.691181e+000 -9.960198e+001 -8.851095e+001 -6.917806e+001 -2.193764e+001 -5.584478e+001
3137812500 -2.203583e+001 -2.475210e+001 2.580004e+000 -1.603766e+002 -8.913041e+001 1.783740e+002 -2.276698e+001 -5.235421e+001
3138906250 -2.225604e+001 -1.754178e+001 2.500212e+000 1.388487e+002 -8.066320e+001 -4.038489e+001 -2.390361e+001 -4.931089e+001
3140000000 -2.270881e+001 -1.046783e+001 2.430410e+000 7.815952e+001 -8.150349e+001 -1.096836e+002 -2.532100e+001 -4.773114e+001
3141093750 -2.341319e+001 -3.658143e+000 2.381814e+000 1.732630e+001 -8.708801e+001 -3.814581e+001 -2.723419e+001 -4.836161e+001
3142187500 -2.440934e+001 2.876850e+000 2.336793e+000 -4.372868e+001 -8.230073e+001 -1.599967e+002 -2.957969e+001 -5.460918e+001
3143281250 -2.578163e+001 8.761319e+000 2.277713e+000 -1.048145e+002 -8.214555e+001 -1.232283e+002 -3.196232e+001 -7.067368e+001
3144375000 -2.764283e+001 1.346642e+001 2.204390e+000 -1.657776e+002 -8.344173e+001 8.025717e+001 -3.269093e+001 -9.849242e+001
3145468750 -3.031206e+001 1.587346e+001 2.121524e+000 1.333215e+002 -8.331137e+001 4.483767e+001 -3.062153e+001 -1.210378e+002
3146562500 -3.414467e+001 1.182179e+001 2.071377e+000 7.266798e+001 -9.442549e+001 2.377288e+001 -2.799232e+001 -1.310511e+002
3147656250 -3.908384e+001 -1.716539e+001 2.029495e+000 1.195298e+001 -8.814189e+001 -5.062033e+001 -2.568173e+001 -1.337488e+002
3148750000 -3.745463e+001 -7.094878e+001 2.012160e+000 -4.877549e+001 -8.172217e+001 -5.236975e+001 -2.388591e+001 -1.325824e+002
3149843750 -3.262672e+001 -8.755054e+001 2.013378e+000 -1.096844e+002 -9.023918e+001 1.396382e+002 -2.251789e+001 -1.295518e+002
3150937500 -2.919271e+001 -8.903728e+001 2.033198e+000 -1.706929e+002 -8.664677e+001 8.776505e+001 -2.140455e+001 -1.254076e+002
3152031250 -2.677028e+001 -8.562943e+001 2.030298e+000 1.281533e+002 -9.208426e+001 1.475879e+002 -2.057808e+001 -1.206529e+002
3153125000 -2.505265e+001 -8.020981e+001 2.037895e+000 6.685664e+001 -8.411568e+001 -5.305094e+001 -1.994478e+001 -1.153387e+002
3154218750 -2.377107e+001 -7.410777e+001 1.997569e+000 5.275865e+000 -8.627186e+001 8.861993e+001 -1.952243e+001 -1.100986e+002
3155312500 -2.281157e+001 -6.730633e+001 1.942287e+000 -5.627376e+001 -9.977897e+001 -1.610499e+002 -1.926576e+001 -1.044990e+002
3156406250 -2.211143e+001 -6.028410e+001 1.850327e+000 -1.179632e+002 -8.832896e+001 -1.110231e+002 -1.920319e+001 -9.900513e+001
3157500000 -2.166523e+001 -5.304424e+001 1.712737e+000 -1.795221e+002 -8.660313e+001 7.830801e+001 -1.928252e+001 -9.366064e+001
3158593750 -2.141147e+001 -4.567060e+001 1.559054e+000 1.192012e+002 -8.272857e+001 8.320158e+001 -1.955481e+001 -8.836303e+001
3159687500 -2.136767e+001 -3.833397e+001 1.378085e+000 5.804675e+001 -8.961111e+001 -3.964263e+000 -1.999710e+001 -8.371558e+001
3160781250 -2.150617e+001 -3.080796e+001 1.211859e+000 -2.902086e+000 -8.459244e+001 1.214616e+002 -2.061779e+001 -7.954134e+001
3161875000 -2.187447e+001 -2.302833e+001 1.045606e+000 -6.357482e+001 -8.603951e+001 5.823556e+000 -2.147091e+001 -7.609693e+001
3162968750 -2.243903e+001 -1.546887e+001 9.182204e-001 -1.241577e+002 -8.904668e+001 -1.599404e+002 -2.254545e+001 -7.414196e+001
3164062500 -2.323020e+001 -7.792656e+000 8.076040e-001 1.752803e+002 -9.124638e+001 -1.193677e+002 -2.378655e+001 -7.436485e+001
3165156250 -2.432643e+001 -1.588228e-001 7.047684e-001 1.147802e+002 -8.407442e+001 -1.461167e+002 -2.521389e+001 -7.787970e+001
