!Agilent Technologies,E8363B,MY43030572,A.06.04.32
!Agilent E8363B: A.06.04.32
!Date: Monday, June 06, 2011 14:39:23
!Correction: S11(Full 2 Port(1,2)) S21(Full 2 Port(1,2)) S12(Full 2 Port(1,2)) S22(Full 2 Port(1,2)) 
!S2P File: Measurements: S11, S21, S12, S22:
# Hz S  dB   R 50
3000000000 -2.080508e+001 5.491910e+001 -7.910581e-001 -2.678305e+001 -8.180454e+001 5.667778e+001 -1.645961e+001 -2.353256e+001
3001093750 -2.029927e+001 6.320531e+001 -1.375198e+000 -8.944911e+001 -1.015238e+002 -9.278271e+001 -1.673682e+001 -1.991384e+001
3002187500 -2.000230e+001 7.181317e+001 -1.217467e+000 -1.495112e+002 -8.773206e+001 1.676156e+002 -1.712682e+001 -1.602977e+001
3003281250 -1.992975e+001 8.069211e+001 -1.064660e+000 1.498706e+002 -8.525822e+001 -1.745763e+002 -1.765761e+001 -1.265890e+001
3004375000 -2.002643e+001 8.934116e+001 -9.452477e-001 8.906023e+001 -8.265653e+001 1.721140e+002 -1.831593e+001 -1.006559e+001
3005468750 -2.035669e+001 9.826611e+001 -8.630956e-001 2.825683e+001 -9.245577e+001 -1.235992e+001 -1.913133e+001 -8.495702e+000
3006562500 -2.087563e+001 1.072416e+002 -7.987466e-001 -3.270815e+001 -9.011401e+001 4.456056e+001 -2.006651e+001 -8.388235e+000
3007656250 -2.166589e+001 1.164665e+002 -7.558059e-001 -9.346537e+001 -8.302147e+001 1.281095e+002 -2.111108e+001 -1.057794e+001
3008750000 -2.277025e+001 1.261397e+002 -7.080773e-001 -1.542787e+002 -8.579985e+001 -1.656746e+002 -2.208133e+001 -1.500735e+001
3009843750 -2.428000e+001 1.365483e+002 -6.715986e-001 1.449146e+002 -8.780875e+001 3.438986e+001 -2.277032e+001 -2.250991e+001
3010937500 -2.636973e+001 1.482408e+002 -6.442689e-001 8.404118e+001 -8.669138e+001 8.202892e+001 -2.300102e+001 -3.152987e+001
3012031250 -2.927590e+001 1.632341e+002 -6.251647e-001 2.327108e+001 -8.863189e+001 -4.878969e+001 -2.263125e+001 -4.000376e+001
3013125000 -3.355686e+001 -1.724621e+002 -6.190022e-001 -3.739994e+001 -8.789030e+001 -1.776090e+001 -2.184740e+001 -4.638834e+001
3014218750 -3.772675e+001 -1.147410e+002 -6.096746e-001 -9.796718e+001 -8.679535e+001 -1.340190e+002 -2.091791e+001 -4.988475e+001
3015312500 -3.374654e+001 -5.405682e+001 -5.884888e-001 -1.584156e+002 -8.476056e+001 6.245521e+001 -1.997831e+001 -5.108545e+001
3016406250 -2.928172e+001 -2.865860e+001 -5.453888e-001 1.411481e+002 -8.870024e+001 -1.339452e+002 -1.916029e+001 -5.038508e+001
3017500000 -2.619304e+001 -1.366782e+001 -4.779040e-001 8.065237e+001 -7.771179e+001 -1.759854e+002 -1.846842e+001 -4.831561e+001
3018593750 -2.400275e+001 -1.705848e+000 -3.978381e-001 2.008914e+001 -8.604460e+001 -9.009810e+001 -1.793503e+001 -4.529363e+001
3019687500 -2.238009e+001 8.521921e+000 -3.061347e-001 -4.059570e+001 -8.307625e+001 -6.547955e+001 -1.756226e+001 -4.177256e+001
3020781250 -2.114398e+001 1.824778e+001 -2.117155e-001 -1.014892e+002 -8.241658e+001 -1.763438e+002 -1.733943e+001 -3.777744e+001
3021875000 -2.023320e+001 2.756288e+001 -1.247173e-001 -1.625779e+002 -8.993168e+001 1.023268e+002 -1.726556e+001 -3.353493e+001
3022968750 -1.957262e+001 3.647671e+001 -6.872574e-002 1.363165e+002 -8.816783e+001 2.043867e+001 -1.734119e+001 -2.922708e+001
3024062500 -1.911830e+001 4.526118e+001 -4.087193e-002 7.518090e+001 -8.178120e+001 -3.305863e+001 -1.756475e+001 -2.504424e+001
3025156250 -1.885346e+001 5.394119e+001 -5.260726e-002 1.420508e+001 -9.726128e+001 4.308080e+001 -1.796815e+001 -2.111924e+001
3026250000 -1.879149e+001 6.249670e+001 -7.618193e-002 -4.658697e+001 -8.335467e+001 -1.320858e+002 -1.853667e+001 -1.761812e+001
3027343750 -1.887780e+001 7.098107e+001 -1.112758e-001 -1.072448e+002 -9.531871e+001 1.474263e+002 -1.928089e+001 -1.497683e+001
3028437500 -1.919032e+001 7.943615e+001 -1.130461e-001 -1.676254e+002 -8.016225e+001 9.858485e+001 -2.021852e+001 -1.320519e+001
3029531250 -1.966493e+001 8.769584e+001 -9.802288e-002 1.321090e+002 -8.612934e+001 1.748267e+002 -2.133671e+001 -1.323070e+001
3030625000 -2.037392e+001 9.598509e+001 -7.184536e-002 7.184658e+001 -8.401460e+001 8.967561e+001 -2.261830e+001 -1.572473e+001
3031718750 -2.134444e+001 1.041732e+002 -6.835938e-003 1.164881e+001 -8.160107e+001 -7.632310e+001 -2.385961e+001 -2.164264e+001
3032812500 -2.264499e+001 1.122686e+002 7.312053e-002 -4.860181e+001 -9.374169e+001 1.257786e+002 -2.473789e+001 -3.170545e+001
3033906250 -2.433532e+001 1.201573e+002 1.802530e-001 -1.088829e+002 -8.327824e+001 1.132798e+002 -2.485115e+001 -4.402060e+001
3035000000 -2.671947e+001 1.274659e+002 3.211030e-001 -1.693554e+002 -8.232982e+001 9.537135e+001 -2.414239e+001 -5.505721e+001
3036093750 -3.025985e+001 1.343317e+002 4.751336e-001 1.299849e+002 -8.762102e+001 1.523699e+002 -2.298492e+001 -6.205825e+001
3037187500 -3.639439e+001 1.380329e+002 6.373680e-001 6.906719e+001 -9.082969e+001 -1.035730e+002 -2.173800e+001 -6.543917e+001
3038281250 -5.177879e+001 4.334224e+001 7.950106e-001 7.812387e+000 -8.491780e+001 7.222903e+001 -2.059067e+001 -6.592657e+001
3039375000 -3.545597e+001 -7.878580e+000 9.368801e-001 -5.352885e+001 -7.753209e+001 4.020596e+001 -1.964025e+001 -6.436690e+001
3040468750 -2.996762e+001 -3.204986e+000 1.060552e+000 -1.150136e+002 -8.635960e+001 4.874434e+000 -1.886145e+001 -6.157730e+001
3041562500 -2.679303e+001 3.667594e+000 1.149158e+000 -1.766214e+002 -8.224831e+001 -5.978062e+000 -1.826311e+001 -5.796334e+001
3042656250 -2.465367e+001 1.160707e+001 1.216080e+000 1.216984e+002 -7.856160e+001 5.551697e+001 -1.786536e+001 -5.374780e+001
3043750000 -2.312715e+001 1.990657e+001 1.238641e+000 6.002464e+001 -8.549260e+001 -8.705256e+001 -1.762510e+001 -4.928984e+001
3044843750 -2.204704e+001 2.817509e+001 1.228726e+000 -1.493518e+000 -9.518682e+001 9.896601e+001 -1.755986e+001 -4.455233e+001
3045937500 -2.125398e+001 3.684274e+001 1.191656e+000 -6.281084e+001 -1.000123e+002 -9.716307e+000 -1.766844e+001 -3.975924e+001
3047031250 -2.072868e+001 4.549348e+001 1.134423e+000 -1.238369e+002 -8.772231e+001 5.537294e+001 -1.792901e+001 -3.497043e+001
3048125000 -2.046199e+001 5.430250e+001 1.096192e+000 1.753982e+002 -8.439738e+001 -1.170442e+002 -1.837916e+001 -3.061666e+001
3049218750 -2.036669e+001 6.337542e+001 1.073376e+000 1.148364e+002 -8.914089e+001 1.583864e+002 -1.905992e+001 -2.655822e+001
3050312500 -2.052680e+001 7.279794e+001 1.086942e+000 5.434446e+001 -8.968411e+001 1.304358e+002 -1.995993e+001 -2.316287e+001
3051406250 -2.082372e+001 8.255817e+001 1.144685e+000 -6.324623e+000 -8.233808e+001 -9.334054e+000 -2.109867e+001 -2.110689e+001
3052500000 -2.137416e+001 9.261489e+001 1.199145e+000 -6.693133e+001 -9.005174e+001 -2.653413e+001 -2.250743e+001 -2.098843e+001
3053593750 -2.216979e+001 1.035295e+002 1.272720e+000 -1.276780e+002 -9.026426e+001 -1.685877e+002 -2.421145e+001 -2.446024e+001
3054687500 -2.320080e+001 1.153078e+002 1.360242e+000 1.715509e+002 -9.389691e+001 -1.784756e+002 -2.604070e+001 -3.385485e+001
3055781250 -2.457273e+001 1.289738e+002 1.462128e+000 1.106142e+002 -8.749136e+001 2.053458e+001 -2.715968e+001 -5.044536e+001
3056875000 -2.620039e+001 1.451304e+002 1.581153e+000 4.952663e+001 -8.705180e+001 -1.239776e+002 -2.672522e+001 -6.953464e+001
3057968750 -2.804826e+001 1.664964e+002 1.688751e+000 -1.186781e+001 -8.301566e+001 -1.191419e+002 -2.506219e+001 -8.315001e+001
3059062500 -2.957648e+001 -1.647394e+002 1.796251e+000 -7.343212e+001 -8.989714e+001 -7.950040e+001 -2.312367e+001 -8.938506e+001
3060156250 -2.991355e+001 -1.311975e+002 1.848476e+000 -1.351426e+002 -8.471209e+001 9.825681e+001 -2.140617e+001 -9.103431e+001
3061250000 -2.863245e+001 -1.003678e+002 1.865693e+000 1.631568e+002 -8.822162e+001 -2.075550e+001 -1.997464e+001 -8.969832e+001
3062343750 -2.678386e+001 -7.700240e+001 1.868615e+000 1.015020e+002 -8.640752e+001 -2.529557e+001 -1.879262e+001 -8.679757e+001
3063437500 -2.501605e+001 -5.913794e+001 1.842698e+000 3.993510e+001 -8.819666e+001 -1.162928e+002 -1.786220e+001 -8.293660e+001
3064531250 -2.356743e+001 -4.502420e+001 1.805003e+000 -2.161939e+001 -8.743465e+001 1.223629e+002 -1.712688e+001 -7.849024e+001
3065625000 -2.242030e+001 -3.285789e+001 1.731547e+000 -8.307426e+001 -8.102013e+001 -4.351917e+001 -1.657346e+001 -7.342303e+001
3066718750 -2.153184e+001 -2.196565e+001 1.648141e+000 -1.443604e+002 -8.711024e+001 1.554120e+002 -1.618225e+001 -6.826873e+001
3067812500 -2.089893e+001 -1.167922e+001 1.542940e+000 1.545495e+002 -8.858898e+001 1.368069e+002 -1.593572e+001 -6.288529e+001
3068906250 -2.045457e+001 -2.165558e+000 1.448937e+000 9.368104e+001 -9.431480e+001 1.162548e+002 -1.582575e+001 -5.743873e+001
3070000000 -2.022538e+001 7.051589e+000 1.363583e+000 3.294731e+001 -8.698020e+001 -4.703513e+001 -1.586254e+001 -5.201611e+001
3071093750 -2.019095e+001 1.588030e+001 1.295345e+000 -2.761735e+001 -7.986138e+001 -1.185726e+002 -1.602160e+001 -4.665240e+001
3072187500 -2.035575e+001 2.444853e+001 1.231670e+000 -8.818240e+001 -8.387215e+001 4.254446e+001 -1.631650e+001 -4.150095e+001
3073281250 -2.070600e+001 3.258034e+001 1.182265e+000 -1.484742e+002 -8.679242e+001 -9.058737e+001 -1.675228e+001 -3.658085e+001
3074375000 -2.127705e+001 4.048677e+001 1.165543e+000 1.512708e+002 -9.472510e+001 -1.313014e+002 -1.732832e+001 -3.208726e+001
3075468750 -2.209640e+001 4.801461e+001 1.180814e+000 9.114083e+001 -1.096636e+002 -4.128636e+001 -1.806273e+001 -2.805911e+001
3076562500 -2.323864e+001 5.484208e+001 1.243579e+000 3.092733e+001 -9.213821e+001 1.749144e+002 -1.897857e+001 -2.489871e+001
3077656250 -2.475005e+001 6.091962e+001 1.341317e+000 -2.945366e+001 -8.638997e+001 -3.646992e+001 -2.008889e+001 -2.275982e+001
3078750000 -2.683294e+001 6.563219e+001 1.446661e+000 -9.013421e+001 -8.124967e+001 -1.735094e+002 -2.136326e+001 -2.237653e+001
3079843750 -2.968864e+001 6.670506e+001 1.546210e+000 -1.511130e+002 -8.691299e+001 7.966524e+001 -2.280621e+001 -2.430959e+001
3080937500 -3.373511e+001 5.834658e+001 1.595073e+000 1.477264e+002 -9.573990e+001 -7.881821e+001 -2.429204e+001 -2.975918e+001
3082031250 -3.745105e+001 2.104160e+001 1.602152e+000 8.672067e+001 -8.971854e+001 1.482454e+002 -2.552593e+001 -3.961115e+001
3083125000 -3.427360e+001 -2.092187e+001 1.612872e+000 2.585348e+001 -9.142947e+001 -1.566655e+002 -2.600792e+001 -5.278065e+001
3084218750 -3.008011e+001 -3.180151e+001 1.605912e+000 -3.492685e+001 -9.060490e+001 -1.025166e+002 -2.558976e+001 -6.572290e+001
3085312500 -2.710549e+001 -3.124470e+001 1.613213e+000 -9.546511e+001 -9.166259e+001 -3.010940e+001 -2.454524e+001 -7.464157e+001
3086406250 -2.499639e+001 -2.703788e+001 1.634795e+000 -1.560607e+002 -8.437108e+001 2.292315e+000 -2.337078e+001 -7.961902e+001
3087500000 -2.341582e+001 -2.138131e+001 1.660488e+000 1.434231e+002 -9.495213e+001 1.714187e+002 -2.227120e+001 -8.139238e+001
3088593750 -2.226447e+001 -1.471341e+001 1.700233e+000 8.294711e+001 -8.356357e+001 -7.800421e+001 -2.129987e+001 -8.133064e+001
3089687500 -2.139091e+001 -7.527802e+000 1.765316e+000 2.260734e+001 -8.389374e+001 -6.740129e+000 -2.057227e+001 -7.972847e+001
3090781250 -2.075974e+001 -9.119694e-002 1.872829e+000 -3.765876e+001 -8.734721e+001 4.607184e+001 -1.996448e+001 -7.771815e+001
3091875000 -2.038478e+001 7.383653e+000 2.021400e+000 -9.808156e+001 -7.993969e+001 1.336879e+002 -1.955210e+001 -7.517762e+001
3092968750 -2.020725e+001 1.528196e+001 2.199567e+000 -1.587465e+002 -8.429421e+001 1.163613e+002 -1.926669e+001 -7.231925e+001
3094062500 -2.020889e+001 2.325882e+001 2.371498e+000 1.402164e+002 -1.038226e+002 -9.493074e+001 -1.911536e+001 -6.956891e+001
3095156250 -2.041590e+001 3.124267e+001 2.543524e+000 7.888689e+001 -8.970646e+001 4.728692e+001 -1.906789e+001 -6.681068e+001
3096250000 -2.079050e+001 3.949200e+001 2.684497e+000 1.745550e+001 -9.603246e+001 -1.235557e+002 -1.912182e+001 -6.443385e+001
3097343750 -2.141742e+001 4.793830e+001 2.799826e+000 -4.397307e+001 -8.620709e+001 1.158116e+001 -1.926134e+001 -6.237019e+001
3098437500 -2.229298e+001 5.657375e+001 2.892064e+000 -1.055535e+002 -1.020485e+002 -1.617509e+002 -1.946667e+001 -6.070155e+001
3099531250 -2.343724e+001 6.545718e+001 2.963228e+000 -1.671030e+002 -8.372189e+001 8.023965e+000 -1.970755e+001 -5.950732e+001
3100625000 -2.499510e+001 7.489390e+001 2.998971e+000 1.313615e+002 -8.176398e+001 1.264538e+002 -1.996023e+001 -5.889869e+001
3101718750 -2.703950e+001 8.505257e+001 3.026775e+000 6.992661e+001 -9.143760e+001 -5.100836e+001 -2.021546e+001 -5.878127e+001
3102812500 -2.996040e+001 9.792512e+001 3.057879e+000 8.650148e+000 -9.502125e+001 -1.603570e+002 -2.043791e+001 -5.924673e+001
3103906250 -3.435932e+001 1.168370e+002 3.070962e+000 -5.253753e+001 -8.095496e+001 7.491898e+001 -2.059897e+001 -5.975780e+001
3105000000 -4.046166e+001 1.659386e+002 3.109622e+000 -1.136115e+002 -9.048449e+001 9.949210e+001 -2.071782e+001 -6.059966e+001
3106093750 -3.749081e+001 -1.156761e+002 3.174957e+000 -1.747368e+002 -8.102846e+001 1.782064e+002 -2.075191e+001 -6.121750e+001
3107187500 -3.224037e+001 -8.739021e+001 3.260190e+000 1.240884e+002 -9.996548e+001 -5.993829e+001 -2.078763e+001 -6.167173e+001
3108281250 -2.886878e+001 -7.242036e+001 3.341221e+000 6.279778e+001 -8.642646e+001 -1.939697e+001 -2.078524e+001 -6.176327e+001
3109375000 -2.656716e+001 -6.103399e+001 3.419255e+000 1.344241e+000 -9.246832e+001 5.404728e+001 -2.077553e+001 -6.158982e+001
3110468750 -2.498541e+001 -5.120494e+001 3.494689e+000 -6.016284e+001 -9.057722e+001 -5.854169e+001 -2.080094e+001 -6.116376e+001
3111562500 -2.382518e+001 -4.218959e+001 3.563985e+000 -1.216798e+002 -9.474223e+001 4.129512e+000 -2.089416e+001 -6.039605e+001
3112656250 -2.301772e+001 -3.354918e+001 3.620607e+000 1.767826e+002 -8.302356e+001 4.382828e+001 -2.099238e+001 -5.963245e+001
3113750000 -2.250274e+001 -2.504735e+001 3.679567e+000 1.152644e+002 -8.432934e+001 9.796949e+001 -2.121133e+001 -5.873719e+001
3114843750 -2.222793e+001 -1.685241e+001 3.727382e+000 5.365863e+001 -9.061121e+001 -9.366419e+001 -2.147129e+001 -5.810646e+001
3115937500 -2.217236e+001 -8.784734e+000 3.764644e+000 -7.962462e+000 -8.060771e+001 1.034791e+002 -2.183693e+001 -5.785265e+001
3117031250 -2.234068e+001 -1.006858e+000 3.804493e+000 -6.950615e+001 -8.786989e+001 9.379457e+000 -2.224455e+001 -5.826334e+001
3118125000 -2.276297e+001 6.886660e+000 3.836866e+000 -1.311186e+002 -8.796747e+001 -4.433275e+001 -2.269695e+001 -5.922997e+001
3119218750 -2.342963e+001 1.439230e+001 3.860336e+000 1.671709e+002 -8.746214e+001 7.349285e+001 -2.312920e+001 -6.140807e+001
3120312500 -2.439237e+001 2.170758e+001 3.870519e+000 1.053731e+002 -7.995596e+001 -1.431460e+001 -2.348303e+001 -6.450920e+001
3121406250 -2.572789e+001 2.873795e+001 3.849703e+000 4.352847e+001 -8.523650e+001 1.665547e+002 -2.368896e+001 -6.833353e+001
3122500000 -2.758903e+001 3.460550e+001 3.815882e+000 -1.831678e+001 -8.666642e+001 1.560489e+001 -2.372042e+001 -7.255772e+001
3123593750 -3.017436e+001 3.955231e+001 3.745711e+000 -8.007049e+001 -9.586636e+001 4.989318e+001 -2.351523e+001 -7.657185e+001
3124687500 -3.411215e+001 3.981713e+001 3.664762e+000 -1.415911e+002 -8.399330e+001 -7.413116e+001 -2.313272e+001 -7.953786e+001
3125781250 -4.094421e+001 2.167094e+001 3.577091e+000 1.569768e+002 -8.167715e+001 -9.553896e+001 -2.265463e+001 -8.153013e+001
3126875000 -4.105922e+001 -5.860389e+001 3.516106e+000 9.576587e+001 -9.003059e+001 4.296396e+001 -2.214512e+001 -8.227856e+001
3127968750 -3.413325e+001 -7.828516e+001 3.465548e+000 3.458214e+001 -9.043576e+001 1.329679e+002 -2.168215e+001 -8.165910e+001
3129062500 -3.019204e+001 -7.745712e+001 3.446092e+000 -2.669451e+001 -8.384985e+001 1.098736e+002 -2.125694e+001 -8.028424e+001
3130156250 -2.756652e+001 -7.295427e+001 3.423054e+000 -8.789018e+001 -8.954999e+001 -1.088570e+002 -2.094500e+001 -7.800147e+001
3131250000 -2.572425e+001 -6.707370e+001 3.387496e+000 -1.491734e+002 -8.999685e+001 3.778188e+000 -2.073040e+001 -7.499744e+001
3132343750 -2.438182e+001 -6.027557e+001 3.351891e+000 1.495159e+002 -8.246608e+001 -8.419632e+001 -2.065062e+001 -7.154068e+001
3133437500 -2.340382e+001 -5.337638e+001 3.309293e+000 8.821780e+001 -8.683053e+001 7.731483e+001 -2.071983e+001 -6.773824e+001
3134531250 -2.272273e+001 -4.625210e+001 3.233752e+000 2.699496e+001 -8.479825e+001 4.103159e+001 -2.094510e+001 -6.390264e+001
3135625000 -2.227461e+001 -3.899242e+001 3.161183e+000 -3.402569e+001 -9.328246e+001 -1.693643e+002 -2.133415e+001 -5.980027e+001
3136718750 -2.208863e+001 -3.178114e+001 3.086161e+000 -9.481823e+001 -8.846133e+001 -1.088280e+002 -2.192401e+001 -5.590686e+001
3137812500 -2.208677e+001 -2.453160e+001 3.038460e+000 -1.554759e+002 -9.723999e+001 -1.737304e+002 -2.274065e+001 -5.248987e+001
3138906250 -2.230717e+001 -1.750422e+001 3.030146e+000 1.438512e+002 -8.182310e+001 1.291664e+002 -2.386891e+001 -4.958602e+001
3140000000 -2.275705e+001 -1.040697e+001 3.041524e+000 8.315582e+001 -8.581419e+001 9.783608e+001 -2.530370e+001 -4.778713e+001
3141093750 -2.345395e+001 -3.604603e+000 3.075446e+000 2.228692e+001 -8.283379e+001 1.055241e+002 -2.722421e+001 -4.872846e+001
3142187500 -2.446095e+001 2.829875e+000 3.118882e+000 -3.889363e+001 -8.191418e+001 1.355352e+002 -2.953641e+001 -5.460207e+001
3143281250 -2.582474e+001 8.677501e+000 3.135756e+000 -1.001837e+002 -8.334602e+001 4.927919e+001 -3.194740e+001 -7.076668e+001
3144375000 -2.765894e+001 1.323922e+001 3.143229e+000 -1.614538e+002 -9.106618e+001 -1.289975e+002 -3.259941e+001 -9.853968e+001
3145468750 -3.032606e+001 1.556440e+001 3.125305e+000 1.373691e+002 -8.522707e+001 -4.703393e+001 -3.054750e+001 -1.211679e+002
3146562500 -3.411034e+001 1.121506e+001 3.122888e+000 7.630481e+001 -8.176367e+001 9.522429e+001 -2.790641e+001 -1.309576e+002
3147656250 -3.886146e+001 -1.660667e+001 3.124333e+000 1.528746e+001 -8.413119e+001 8.151491e+001 -2.565643e+001 -1.335747e+002
3148750000 -3.745269e+001 -7.004680e+001 3.153534e+000 -4.577940e+001 -8.534489e+001 1.397917e+002 -2.387020e+001 -1.324602e+002
3149843750 -3.267976e+001 -8.669366e+001 3.183475e+000 -1.069396e+002 -8.409959e+001 -4.662374e+001 -2.249081e+001 -1.295133e+002
3150937500 -2.925258e+001 -8.836129e+001 3.224968e+000 -1.681753e+002 -9.002338e+001 5.014458e+001 -2.138937e+001 -1.253192e+002
3152031250 -2.685898e+001 -8.505086e+001 3.255388e+000 1.305687e+002 -8.275111e+001 -4.781681e+001 -2.055050e+001 -1.205402e+002
3153125000 -2.512188e+001 -7.989611e+001 3.292277e+000 6.921423e+001 -9.107214e+001 1.676095e+002 -1.993007e+001 -1.153353e+002
3154218750 -2.384015e+001 -7.378568e+001 3.297203e+000 7.751944e+000 -1.022704e+002 -7.095728e+001 -1.950271e+001 -1.100275e+002
3155312500 -2.288090e+001 -6.706166e+001 3.304861e+000 -5.364829e+001 -8.437377e+001 -1.414934e+002 -1.924226e+001 -1.044916e+002
3156406250 -2.218971e+001 -6.012314e+001 3.281099e+000 -1.151722e+002 -8.367266e+001 -7.796742e+000 -1.918741e+001 -9.899133e+001
3157500000 -2.173490e+001 -5.293095e+001 3.243471e+000 -1.766014e+002 -9.187618e+001 -1.738706e+002 -1.926202e+001 -9.365856e+001
3158593750 -2.147404e+001 -4.559279e+001 3.199495e+000 1.222169e+002 -8.639894e+001 -8.491844e+001 -1.952961e+001 -8.847416e+001
3159687500 -2.143277e+001 -3.829312e+001 3.158711e+000 6.104773e+001 -8.675522e+001 -1.135914e+002 -1.996618e+001 -8.370013e+001
3160781250 -2.157530e+001 -3.084939e+001 3.143981e+000 -5.201207e-003 -8.854292e+001 7.946811e+000 -2.059188e+001 -7.952648e+001
3161875000 -2.193925e+001 -2.306569e+001 3.148941e+000 -6.103103e+001 -8.296508e+001 1.231336e+001 -2.145625e+001 -7.615457e+001
3162968750 -2.247424e+001 -1.550382e+001 3.187363e+000 -1.222355e+002 -7.885050e+001 -1.573460e+002 -2.250118e+001 -7.429372e+001
3164062500 -2.329008e+001 -8.007707e+000 3.236873e+000 1.763309e+002 -9.393246e+001 1.450194e+002 -2.376481e+001 -7.450470e+001
3165156250 -2.434727e+001 -3.155164e-001 3.276170e+000 1.147837e+002 -9.221152e+001 -1.672309e+002 -2.518234e+001 -7.783901e+001
