!Agilent Technologies,E8363B,MY43030572,A.06.04.32
!Agilent E8363B: A.06.04.32
!Date: Monday, June 06, 2011 14:35:03
!Correction: S11(Full 2 Port(1,2)) S21(Full 2 Port(1,2)) S12(Full 2 Port(1,2)) S22(Full 2 Port(1,2)) 
!S2P File: Measurements: S11, S21, S12, S22:
# Hz S  dB   R 50
3000000000 -2.080779e+001 5.480800e+001 -1.211034e+000 -6.084677e+001 -9.615644e+001 -7.537957e+001 -1.648016e+001 -2.359408e+001
3001093750 -2.030935e+001 6.309000e+001 -2.080020e+000 -1.231012e+002 -9.758083e+001 9.753800e+001 -1.677257e+001 -1.983146e+001
3002187500 -2.002418e+001 7.171723e+001 -2.108654e+000 1.776240e+002 -8.510811e+001 1.704843e+002 -1.715723e+001 -1.608363e+001
3003281250 -1.993674e+001 8.052438e+001 -2.125473e+000 1.179834e+002 -9.195652e+001 7.706525e+001 -1.767633e+001 -1.267603e+001
3004375000 -2.004620e+001 8.923689e+001 -2.112735e+000 5.832732e+001 -8.407894e+001 5.231971e+001 -1.834421e+001 -1.012978e+001
3005468750 -2.037216e+001 9.809376e+001 -2.102226e+000 -1.446803e+000 -7.926360e+001 3.197284e+001 -1.914548e+001 -8.483569e+000
3006562500 -2.090229e+001 1.070331e+002 -2.090006e+000 -6.133875e+001 -8.313480e+001 -6.328807e+000 -2.010759e+001 -8.412524e+000
3007656250 -2.171164e+001 1.161823e+002 -2.079346e+000 -1.211947e+002 -9.419313e+001 -8.708274e+001 -2.114163e+001 -1.061043e+001
3008750000 -2.283784e+001 1.258653e+002 -2.063581e+000 1.788687e+002 -9.268443e+001 9.030448e+001 -2.211916e+001 -1.507904e+001
3009843750 -2.434737e+001 1.362744e+002 -2.043990e+000 1.189574e+002 -8.540665e+001 7.478005e+001 -2.282934e+001 -2.251931e+001
3010937500 -2.647409e+001 1.478844e+002 -2.029540e+000 5.898304e+001 -8.340901e+001 1.250268e+002 -2.304717e+001 -3.137103e+001
3012031250 -2.941972e+001 1.627156e+002 -2.004714e+000 -8.889750e-001 -8.439822e+001 6.972881e+001 -2.267895e+001 -4.010688e+001
3013125000 -3.383761e+001 -1.726386e+002 -1.972300e+000 -6.059320e+001 -8.987150e+001 1.157137e+002 -2.187717e+001 -4.644222e+001
3014218750 -3.807742e+001 -1.127257e+002 -1.914192e+000 -1.202761e+002 -8.908401e+001 1.782119e+002 -2.093846e+001 -4.997807e+001
3015312500 -3.375436e+001 -5.184907e+001 -1.827449e+000 -1.799760e+002 -9.530935e+001 -1.765100e+002 -2.001031e+001 -5.116698e+001
3016406250 -2.925990e+001 -2.741973e+001 -1.719767e+000 1.201878e+002 -8.923652e+001 -1.319716e+002 -1.918921e+001 -5.050174e+001
3017500000 -2.617622e+001 -1.270884e+001 -1.591137e+000 6.022451e+001 -8.707542e+001 -1.257562e+002 -1.850416e+001 -4.842409e+001
3018593750 -2.397204e+001 -1.118691e+000 -1.437252e+000 1.413718e-001 -8.413144e+001 1.438180e+002 -1.797278e+001 -4.532138e+001
3019687500 -2.236263e+001 9.002814e+000 -1.278780e+000 -6.010202e+001 -8.213628e+001 9.582144e+001 -1.759339e+001 -4.185009e+001
3020781250 -2.113188e+001 1.865499e+001 -1.117206e+000 -1.205472e+002 -8.534193e+001 7.900967e+001 -1.736702e+001 -3.773680e+001
3021875000 -2.023680e+001 2.791724e+001 -9.654081e-001 1.787775e+002 -8.462623e+001 -2.592458e+001 -1.728026e+001 -3.349480e+001
3022968750 -1.956970e+001 3.675714e+001 -8.262298e-001 1.180095e+002 -8.613983e+001 -9.296909e+001 -1.736123e+001 -2.922717e+001
3024062500 -1.912505e+001 4.558041e+001 -7.055795e-001 5.716488e+001 -8.895135e+001 1.252276e+002 -1.760238e+001 -2.507422e+001
3025156250 -1.886308e+001 5.407465e+001 -6.170359e-001 -3.697483e+000 -8.621316e+001 -1.432762e+002 -1.799174e+001 -2.110619e+001
3026250000 -1.881016e+001 6.261157e+001 -5.396491e-001 -6.446922e+001 -9.336107e+001 1.233989e+002 -1.856506e+001 -1.760696e+001
3027343750 -1.891212e+001 7.108100e+001 -4.718176e-001 -1.252849e+002 -1.009292e+002 4.904875e+001 -1.931885e+001 -1.494253e+001
3028437500 -1.920775e+001 7.953096e+001 -3.997318e-001 1.740881e+002 -8.092765e+001 -1.505072e+002 -2.025444e+001 -1.321391e+001
3029531250 -1.971583e+001 8.777126e+001 -3.253793e-001 1.134667e+002 -8.933994e+001 7.322271e-002 -2.137731e+001 -1.308850e+001
3030625000 -2.044185e+001 9.598486e+001 -2.550044e-001 5.287582e+001 -8.464740e+001 6.944516e+001 -2.264796e+001 -1.551892e+001
3031718750 -2.141540e+001 1.041064e+002 -1.772532e-001 -7.624075e+000 -8.269185e+001 -1.762694e+002 -2.389438e+001 -2.165483e+001
3032812500 -2.273137e+001 1.121375e+002 -7.763216e-002 -6.803054e+001 -7.911446e+001 -7.014266e+001 -2.479172e+001 -3.181416e+001
3033906250 -2.446091e+001 1.200234e+002 3.885980e-002 -1.284623e+002 -8.543742e+001 1.173243e+002 -2.490447e+001 -4.417668e+001
3035000000 -2.688832e+001 1.272653e+002 1.870276e-001 1.710226e+002 -8.187010e+001 1.565699e+002 -2.417306e+001 -5.506020e+001
3036093750 -3.050390e+001 1.333187e+002 3.595954e-001 1.102942e+002 -8.990027e+001 -7.888431e+001 -2.301956e+001 -6.229737e+001
3037187500 -3.689919e+001 1.358239e+002 5.330844e-001 4.936804e+001 -8.355310e+001 1.778345e+001 -2.177451e+001 -6.555364e+001
3038281250 -4.917926e+001 3.173940e+001 7.060448e-001 -1.186186e+001 -9.770229e+001 -2.146928e+001 -2.062075e+001 -6.596998e+001
3039375000 -3.493736e+001 -6.747842e+000 8.614639e-001 -7.326129e+001 -8.262103e+001 5.783418e+001 -1.966441e+001 -6.439655e+001
3040468750 -2.970698e+001 -2.351291e+000 1.007419e+000 -1.347903e+002 -8.079356e+001 1.641267e+002 -1.888945e+001 -6.161736e+001
3041562500 -2.662218e+001 4.378984e+000 1.109784e+000 1.635366e+002 -1.019911e+002 1.637728e+002 -1.829160e+001 -5.799605e+001
3042656250 -2.453081e+001 1.207828e+001 1.186291e+000 1.018350e+002 -8.238428e+001 1.781583e+001 -1.788542e+001 -5.365787e+001
3043750000 -2.303829e+001 2.026578e+001 1.224716e+000 4.005173e+001 -8.368670e+001 -1.556529e+002 -1.764884e+001 -4.929244e+001
3044843750 -2.197794e+001 2.852178e+001 1.227434e+000 -2.153223e+001 -8.193853e+001 -5.761881e+001 -1.758237e+001 -4.455558e+001
3045937500 -2.118598e+001 3.712190e+001 1.214462e+000 -8.297578e+001 -9.391338e+001 1.784016e+002 -1.768077e+001 -3.976593e+001
3047031250 -2.068874e+001 4.574487e+001 1.184706e+000 -1.441133e+002 -9.164202e+001 -7.772432e+001 -1.796952e+001 -3.493092e+001
3048125000 -2.042125e+001 5.463692e+001 1.166362e+000 1.549331e+002 -8.977856e+001 6.027500e+001 -1.842781e+001 -3.053208e+001
3049218750 -2.034040e+001 6.369574e+001 1.167601e+000 9.407840e+001 -8.000162e+001 1.133114e+002 -1.908356e+001 -2.648918e+001
3050312500 -2.049596e+001 7.309243e+001 1.195502e+000 3.333664e+001 -7.840090e+001 5.626980e+001 -1.998592e+001 -2.308770e+001
3051406250 -2.082110e+001 8.276189e+001 1.245439e+000 -2.762721e+001 -8.811343e+001 9.316668e+001 -2.112298e+001 -2.107579e+001
3052500000 -2.137149e+001 9.294440e+001 1.297313e+000 -8.853672e+001 -7.809725e+001 -7.823512e+001 -2.256777e+001 -2.093052e+001
3053593750 -2.217085e+001 1.038308e+002 1.356234e+000 -1.494836e+002 -8.337960e+001 -1.753745e+002 -2.429624e+001 -2.429151e+001
3054687500 -2.320748e+001 1.155740e+002 1.414028e+000 1.495618e+002 -8.739188e+001 4.651743e+001 -2.610210e+001 -3.380455e+001
3055781250 -2.455294e+001 1.292964e+002 1.486748e+000 8.844267e+001 -8.795784e+001 -5.841736e+001 -2.723007e+001 -5.049909e+001
3056875000 -2.618579e+001 1.456393e+002 1.570521e+000 2.724268e+001 -8.280790e+001 -2.571108e+001 -2.680351e+001 -6.980461e+001
3057968750 -2.801309e+001 1.670400e+002 1.631420e+000 -3.418795e+001 -9.093971e+001 7.549937e+001 -2.512907e+001 -8.331224e+001
3059062500 -2.951774e+001 -1.644963e+002 1.673776e+000 -9.571680e+001 -8.623141e+001 1.260712e+002 -2.315694e+001 -8.967349e+001
3060156250 -2.976855e+001 -1.310234e+002 1.669186e+000 -1.573170e+002 -8.436105e+001 -1.388985e+002 -2.142980e+001 -9.115382e+001
3061250000 -2.853891e+001 -1.004240e+002 1.643817e+000 1.412494e+002 -9.249133e+001 -1.539441e+000 -1.999853e+001 -8.982999e+001
3062343750 -2.668936e+001 -7.706461e+001 1.598219e+000 8.000388e+001 -8.921413e+001 4.323111e+001 -1.882467e+001 -8.684763e+001
3063437500 -2.493257e+001 -5.937477e+001 1.548520e+000 1.893901e+001 -8.099000e+001 1.755741e+002 -1.788619e+001 -8.297662e+001
3064531250 -2.349691e+001 -4.524287e+001 1.522332e+000 -4.205681e+001 -8.947150e+001 1.502045e+002 -1.714157e+001 -7.854378e+001
3065625000 -2.235386e+001 -3.310693e+001 1.479667e+000 -1.029337e+002 -8.512646e+001 -7.673502e+001 -1.658482e+001 -7.345442e+001
3066718750 -2.148869e+001 -2.220621e+001 1.448873e+000 -1.636750e+002 -8.819724e+001 -4.703954e+001 -1.619930e+001 -6.829324e+001
3067812500 -2.085208e+001 -1.199408e+001 1.424906e+000 1.356801e+002 -8.213534e+001 1.197752e+002 -1.596682e+001 -6.289679e+001
3068906250 -2.041066e+001 -2.428738e+000 1.433025e+000 7.513094e+001 -8.979880e+001 -4.264466e+001 -1.585597e+001 -5.741236e+001
3070000000 -2.019692e+001 6.758657e+000 1.455810e+000 1.457459e+001 -8.289067e+001 -8.269902e+001 -1.588456e+001 -5.204426e+001
3071093750 -2.015564e+001 1.557999e+001 1.510473e+000 -4.595831e+001 -8.606320e+001 -1.488706e+001 -1.604326e+001 -4.668509e+001
3072187500 -2.031251e+001 2.412762e+001 1.573224e+000 -1.066355e+002 -8.421185e+001 1.189378e+002 -1.634147e+001 -4.146201e+001
3073281250 -2.065443e+001 3.230466e+001 1.644528e+000 -1.672780e+002 -8.217462e+001 1.351596e+002 -1.677259e+001 -3.656371e+001
3074375000 -2.121505e+001 4.013443e+001 1.737368e+000 1.320118e+002 -8.740155e+001 1.517100e+002 -1.735102e+001 -3.203604e+001
3075468750 -2.202997e+001 4.756108e+001 1.835474e+000 7.128023e+001 -9.132793e+001 -6.639312e+001 -1.808910e+001 -2.804018e+001
3076562500 -2.316060e+001 5.454881e+001 1.978174e+000 1.045481e+001 -9.058411e+001 -1.179465e+002 -1.900873e+001 -2.482389e+001
3077656250 -2.466990e+001 6.061277e+001 2.133873e+000 -5.065965e+001 -9.161717e+001 1.093622e+002 -2.011262e+001 -2.268331e+001
3078750000 -2.669757e+001 6.526694e+001 2.290256e+000 -1.121628e+002 -8.924791e+001 -7.010919e+001 -2.139878e+001 -2.224875e+001
3079843750 -2.953205e+001 6.646984e+001 2.420800e+000 -1.739634e+002 -8.744048e+001 1.792212e+002 -2.284190e+001 -2.421369e+001
3080937500 -3.353944e+001 5.865008e+001 2.499960e+000 1.239384e+002 -8.089011e+001 -1.746555e+002 -2.433700e+001 -2.972160e+001
3082031250 -3.734595e+001 2.343058e+001 2.518588e+000 6.193867e+001 -7.966413e+001 -1.347245e+000 -2.555982e+001 -3.942043e+001
3083125000 -3.444353e+001 -1.995205e+001 2.506571e+000 6.546910e-002 -9.540684e+001 -7.726656e+000 -2.606890e+001 -5.283534e+001
3084218750 -3.018984e+001 -3.147438e+001 2.473785e+000 -6.170055e+001 -8.064505e+001 6.922607e+001 -2.563292e+001 -6.581748e+001
3085312500 -2.718803e+001 -3.115078e+001 2.430830e+000 -1.232310e+002 -7.924905e+001 -1.766084e+002 -2.458001e+001 -7.488411e+001
3086406250 -2.505570e+001 -2.717648e+001 2.378534e+000 1.751621e+002 -8.130190e+001 4.506187e+001 -2.340499e+001 -7.973914e+001
3087500000 -2.346361e+001 -2.156355e+001 2.315196e+000 1.137102e+002 -8.979909e+001 -7.416840e+001 -2.229352e+001 -8.148455e+001
3088593750 -2.229752e+001 -1.500310e+001 2.241942e+000 5.239386e+001 -8.032168e+001 3.604205e+001 -2.133989e+001 -8.141918e+001
3089687500 -2.142515e+001 -7.933415e+000 2.179090e+000 -8.690209e+000 -8.917430e+001 -5.221978e+001 -2.058826e+001 -7.983747e+001
3090781250 -2.077801e+001 -4.833544e-001 2.134855e+000 -6.960136e+001 -9.067947e+001 -6.357288e+001 -1.999792e+001 -7.771457e+001
3091875000 -2.040959e+001 6.958658e+000 2.105426e+000 -1.305316e+002 -9.331845e+001 1.782607e+002 -1.959047e+001 -7.511449e+001
3092968750 -2.023105e+001 1.481188e+001 2.099951e+000 1.684835e+002 -7.904959e+001 -1.268817e+002 -1.929576e+001 -7.229690e+001
3094062500 -2.022259e+001 2.277487e+001 2.081973e+000 1.073253e+002 -8.692052e+001 7.959290e+001 -1.915034e+001 -6.950600e+001
3095156250 -2.042371e+001 3.083871e+001 2.059185e+000 4.610115e+001 -8.055720e+001 3.477008e+000 -1.909868e+001 -6.677499e+001
3096250000 -2.080436e+001 3.905229e+001 2.010451e+000 -1.505095e+001 -8.722678e+001 2.543401e+001 -1.914916e+001 -6.440047e+001
3097343750 -2.142810e+001 4.737328e+001 1.958513e+000 -7.604488e+001 -8.736835e+001 -7.980474e+001 -1.929786e+001 -6.227893e+001
3098437500 -2.228855e+001 5.603033e+001 1.898157e+000 -1.370260e+002 -8.229990e+001 7.967446e+001 -1.950348e+001 -6.074420e+001
3099531250 -2.343115e+001 6.490794e+001 1.839887e+000 1.620588e+002 -9.206851e+001 -1.086051e+002 -1.974264e+001 -5.952082e+001
3100625000 -2.500245e+001 7.425742e+001 1.767488e+000 1.012479e+002 -9.191288e+001 -1.771183e+002 -2.000041e+001 -5.887175e+001
3101718750 -2.704977e+001 8.433726e+001 1.711380e+000 4.051588e+001 -8.643571e+001 1.731074e+002 -2.026139e+001 -5.888132e+001
3102812500 -3.000233e+001 9.706705e+001 1.671761e+000 -1.995612e+001 -8.041773e+001 -4.745070e+001 -2.047781e+001 -5.920528e+001
3103906250 -3.440616e+001 1.158734e+002 1.642670e+000 -8.041323e+001 -9.036573e+001 1.086843e+002 -2.064124e+001 -5.973991e+001
3105000000 -4.078479e+001 1.649516e+002 1.643678e+000 -1.407143e+002 -8.402970e+001 -5.408766e+000 -2.074494e+001 -6.054597e+001
3106093750 -3.764902e+001 -1.152101e+002 1.689238e+000 1.588994e+002 -8.333133e+001 -1.058509e+002 -2.079760e+001 -6.131507e+001
3107187500 -3.222154e+001 -8.702241e+001 1.765739e+000 9.848890e+001 -8.655944e+001 -1.704932e+002 -2.080815e+001 -6.165820e+001
3108281250 -2.885825e+001 -7.222950e+001 1.852171e+000 3.790734e+001 -8.418990e+001 1.633995e+002 -2.080842e+001 -6.181376e+001
3109375000 -2.657538e+001 -6.094294e+001 1.954016e+000 -2.283116e+001 -8.903191e+001 1.341210e+002 -2.079084e+001 -6.160212e+001
3110468750 -2.497666e+001 -5.124986e+001 2.073377e+000 -8.370397e+001 -8.430770e+001 2.226524e+001 -2.083378e+001 -6.108692e+001
3111562500 -2.380935e+001 -4.222420e+001 2.191335e+000 -1.447381e+002 -7.872208e+001 -1.183112e+002 -2.090818e+001 -6.031050e+001
3112656250 -2.300032e+001 -3.357828e+001 2.309197e+000 1.541216e+002 -8.069936e+001 5.626669e+001 -2.101919e+001 -5.961371e+001
3113750000 -2.248267e+001 -2.519476e+001 2.421595e+000 9.269299e+001 -8.519081e+001 4.755293e+001 -2.123301e+001 -5.867589e+001
3114843750 -2.220556e+001 -1.689659e+001 2.513619e+000 3.113743e+001 -8.726366e+001 -1.722708e+002 -2.150083e+001 -5.801443e+001
3115937500 -2.215184e+001 -8.901705e+000 2.574019e+000 -3.051333e+001 -8.726112e+001 -1.278207e+002 -2.186771e+001 -5.778046e+001
3117031250 -2.232401e+001 -1.043267e+000 2.616920e+000 -9.215733e+001 -8.691764e+001 -5.027935e+001 -2.227345e+001 -5.811444e+001
3118125000 -2.275023e+001 6.848796e+000 2.649390e+000 -1.538281e+002 -8.323703e+001 1.077601e+002 -2.273723e+001 -5.921977e+001
3119218750 -2.340325e+001 1.434667e+001 2.681668e+000 1.444235e+002 -9.099759e+001 -1.236377e+001 -2.317161e+001 -6.135867e+001
3120312500 -2.438958e+001 2.165788e+001 2.679789e+000 8.264530e+001 -9.039967e+001 1.085488e+002 -2.352628e+001 -6.436456e+001
3121406250 -2.570614e+001 2.876483e+001 2.666917e+000 2.072684e+001 -7.986852e+001 3.453196e+001 -2.373620e+001 -6.811409e+001
3122500000 -2.756892e+001 3.494968e+001 2.625566e+000 -4.115726e+001 -8.669104e+001 -2.075205e+001 -2.376861e+001 -7.247884e+001
3123593750 -3.018059e+001 3.984162e+001 2.543027e+000 -1.029843e+002 -9.192195e+001 8.360685e+001 -2.356831e+001 -7.661631e+001
3124687500 -3.420887e+001 4.049224e+001 2.438574e+000 -1.645140e+002 -8.802987e+001 1.750441e+002 -2.317711e+001 -7.957314e+001
3125781250 -4.133305e+001 2.192135e+001 2.326273e+000 1.340389e+002 -8.400290e+001 2.725729e+001 -2.269931e+001 -8.158266e+001
3126875000 -4.104896e+001 -6.109430e+001 2.232462e+000 7.284489e+001 -8.393431e+001 1.443263e+002 -2.218304e+001 -8.236213e+001
3127968750 -3.402007e+001 -7.925893e+001 2.153835e+000 1.170563e+001 -8.424248e+001 1.524672e+002 -2.171163e+001 -8.179182e+001
3129062500 -3.009696e+001 -7.829747e+001 2.073751e+000 -4.954428e+001 -8.977261e+001 -5.192062e+001 -2.128327e+001 -8.029506e+001
3130156250 -2.747293e+001 -7.342370e+001 1.984682e+000 -1.105875e+002 -8.793855e+001 1.268562e+002 -2.097148e+001 -7.801891e+001
3131250000 -2.563796e+001 -6.744241e+001 1.874946e+000 -1.716314e+002 -7.965984e+001 -2.659348e+001 -2.075215e+001 -7.504018e+001
3132343750 -2.430116e+001 -6.065154e+001 1.781713e+000 1.274658e+002 -9.133922e+001 -9.752027e+001 -2.067403e+001 -7.159093e+001
3133437500 -2.331129e+001 -5.366191e+001 1.683782e+000 6.670506e+001 -8.594845e+001 -1.173215e+002 -2.074854e+001 -6.762145e+001
3134531250 -2.263997e+001 -4.651761e+001 1.581702e+000 6.011917e+000 -8.532296e+001 -1.368002e+000 -2.097230e+001 -6.383316e+001
3135625000 -2.218344e+001 -3.917153e+001 1.501655e+000 -5.448913e+001 -8.232706e+001 -1.739112e+002 -2.135459e+001 -5.970336e+001
3136718750 -2.200788e+001 -3.187173e+001 1.429927e+000 -1.148955e+002 -8.262467e+001 -1.415631e+001 -2.194599e+001 -5.571141e+001
3137812500 -2.200108e+001 -2.465027e+001 1.388873e+000 -1.752459e+002 -9.456979e+001 3.373495e+001 -2.278227e+001 -5.228804e+001
3138906250 -2.223244e+001 -1.754284e+001 1.389725e+000 1.244144e+002 -8.429921e+001 -1.274693e+002 -2.389101e+001 -4.939345e+001
3140000000 -2.267726e+001 -1.036199e+001 1.412437e+000 6.401036e+001 -8.176895e+001 1.221807e+002 -2.534079e+001 -4.759298e+001
3141093750 -2.338497e+001 -3.465856e+000 1.446084e+000 3.421052e+000 -8.419984e+001 6.372669e+000 -2.725302e+001 -4.829818e+001
3142187500 -2.437649e+001 3.118170e+000 1.497450e+000 -5.744421e+001 -8.468579e+001 9.244582e+001 -2.959898e+001 -5.442023e+001
3143281250 -2.577300e+001 9.069346e+000 1.522043e+000 -1.184306e+002 -8.621236e+001 -5.974722e+001 -3.203745e+001 -7.046958e+001
3144375000 -2.761321e+001 1.370687e+001 1.536608e+000 -1.793501e+002 -8.471886e+001 -1.045184e+002 -3.270449e+001 -9.848812e+001
3145468750 -3.029082e+001 1.654692e+001 1.539920e+000 1.197943e+002 -8.088500e+001 -1.730139e+002 -3.066122e+001 -1.215834e+002
3146562500 -3.415125e+001 1.285269e+001 1.561464e+000 5.907883e+001 -9.087566e+001 -4.983915e+001 -2.799953e+001 -1.313131e+002
3147656250 -3.928400e+001 -1.556006e+001 1.583932e+000 -1.690425e+000 -9.082200e+001 -1.565735e+002 -2.570050e+001 -1.339661e+002
3148750000 -3.768950e+001 -7.185974e+001 1.637999e+000 -6.250251e+001 -8.348820e+001 -4.510625e+001 -2.391073e+001 -1.327039e+002
3149843750 -3.268690e+001 -8.842345e+001 1.690358e+000 -1.235098e+002 -8.305582e+001 -1.460843e+002 -2.253288e+001 -1.296671e+002
3150937500 -2.923908e+001 -8.940757e+001 1.748183e+000 1.753547e+002 -8.722492e+001 -1.156666e+002 -2.141329e+001 -1.254441e+002
3152031250 -2.680713e+001 -8.596846e+001 1.783553e+000 1.141584e+002 -8.264974e+001 -9.902551e+001 -2.058353e+001 -1.206380e+002
3153125000 -2.507145e+001 -8.058659e+001 1.805099e+000 5.293944e+001 -8.785770e+001 4.775650e+001 -1.995644e+001 -1.153982e+002
3154218750 -2.378288e+001 -7.443247e+001 1.802581e+000 -8.435763e+000 -7.974995e+001 -1.228133e+002 -1.952919e+001 -1.101061e+002
3155312500 -2.281815e+001 -6.754413e+001 1.788146e+000 -6.967988e+001 -8.622507e+001 -8.151656e+001 -1.927668e+001 -1.045069e+002
3156406250 -2.212210e+001 -6.058393e+001 1.760480e+000 -1.309820e+002 -8.733360e+001 6.966914e+001 -1.921612e+001 -9.900361e+001
3157500000 -2.165915e+001 -5.329520e+001 1.713334e+000 1.678275e+002 -8.489687e+001 -1.130918e+002 -1.928355e+001 -9.369970e+001
3158593750 -2.140408e+001 -4.598460e+001 1.674459e+000 1.068926e+002 -9.342709e+001 1.440876e+002 -1.956129e+001 -8.842203e+001
3159687500 -2.136145e+001 -3.859715e+001 1.631842e+000 4.601438e+001 -7.950159e+001 5.726385e+001 -2.000567e+001 -8.371676e+001
3160781250 -2.150892e+001 -3.101555e+001 1.633541e+000 -1.473502e+001 -8.400701e+001 -4.594327e+001 -2.062100e+001 -7.946458e+001
3161875000 -2.186427e+001 -2.329312e+001 1.650865e+000 -7.546394e+001 -1.029179e+002 -1.607954e+002 -2.149294e+001 -7.603436e+001
3162968750 -2.242036e+001 -1.571608e+001 1.704061e+000 -1.363547e+002 -8.100955e+001 -9.298883e+001 -2.254960e+001 -7.417293e+001
3164062500 -2.322996e+001 -8.040959e+000 1.771780e+000 1.625202e+002 -8.912849e+001 -6.630307e+001 -2.382950e+001 -7.429691e+001
3165156250 -2.429449e+001 -4.191259e-001 1.821179e+000 1.013072e+002 -9.102479e+001 -8.036493e+001 -2.525775e+001 -7.786180e+001
