!Agilent Technologies,E8363B,MY43030572,A.06.04.32
!Agilent E8363B: A.06.04.32
!Date: Monday, June 06, 2011 14:34:36
!Correction: S11(Full 2 Port(1,2)) S21(Full 2 Port(1,2)) S12(Full 2 Port(1,2)) S22(Full 2 Port(1,2)) 
!S2P File: Measurements: S11, S21, S12, S22:
# Hz S  dB   R 50
3000000000 -2.078858e+001 5.478628e+001 9.391342e-001 -4.138205e+001 -8.351840e+001 -1.083433e+002 -1.649037e+001 -2.360361e+001
3001093750 -2.030215e+001 6.304359e+001 2.253600e-001 -1.046165e+002 -9.021877e+001 -9.611248e+001 -1.677820e+001 -1.987484e+001
3002187500 -1.999781e+001 7.164610e+001 3.106167e-001 -1.647129e+002 -8.858121e+001 1.045219e+002 -1.715939e+001 -1.606907e+001
3003281250 -1.992205e+001 8.049430e+001 4.107043e-001 1.346190e+002 -8.639110e+001 -1.486254e+002 -1.769182e+001 -1.272112e+001
3004375000 -2.003152e+001 8.920058e+001 4.979554e-001 7.378604e+001 -8.672523e+001 1.032936e+002 -1.835380e+001 -1.002423e+001
3005468750 -2.035395e+001 9.805778e+001 5.672817e-001 1.277147e+001 -8.812611e+001 1.623501e+002 -1.916879e+001 -8.485954e+000
3006562500 -2.090219e+001 1.070601e+002 6.040979e-001 -4.847612e+001 -8.555412e+001 -8.379996e+001 -2.009926e+001 -8.384194e+000
3007656250 -2.170109e+001 1.162375e+002 6.161485e-001 -1.096447e+002 -9.034265e+001 -1.216573e+002 -2.114569e+001 -1.056330e+001
3008750000 -2.282140e+001 1.258499e+002 6.169888e-001 -1.708760e+002 -8.791550e+001 1.735236e+001 -2.212308e+001 -1.501292e+001
3009843750 -2.434143e+001 1.361961e+002 5.846938e-001 1.278921e+002 -8.375349e+001 -3.595116e+001 -2.282459e+001 -2.255092e+001
3010937500 -2.643315e+001 1.477644e+002 5.427120e-001 6.669960e+001 -9.730496e+001 -1.586119e+002 -2.305756e+001 -3.156335e+001
3012031250 -2.942522e+001 1.625894e+002 4.781432e-001 5.638667e+000 -8.655183e+001 1.141508e+002 -2.270022e+001 -4.007647e+001
3013125000 -3.378937e+001 -1.727807e+002 4.093562e-001 -5.527465e+001 -7.785279e+001 -1.333065e+002 -2.188286e+001 -4.643758e+001
3014218750 -3.802060e+001 -1.129395e+002 3.375984e-001 -1.160611e+002 -8.643347e+001 -1.038994e+002 -2.096009e+001 -5.001135e+001
3015312500 -3.379436e+001 -5.223321e+001 2.822063e-001 -1.767798e+002 -8.714108e+001 -1.235699e+002 -2.001877e+001 -5.114949e+001
3016406250 -2.923145e+001 -2.770605e+001 2.335303e-001 1.225253e+002 -8.640526e+001 -9.905004e+001 -1.919122e+001 -5.044513e+001
3017500000 -2.616689e+001 -1.282540e+001 1.932142e-001 6.182460e+001 -8.702943e+001 -3.870261e+001 -1.850706e+001 -4.832923e+001
3018593750 -2.397884e+001 -1.288528e+000 1.658705e-001 1.090573e+000 -8.422680e+001 -3.096728e+001 -1.796836e+001 -4.531177e+001
3019687500 -2.236821e+001 8.873648e+000 1.338951e-001 -5.966083e+001 -8.546651e+001 4.902735e+001 -1.759461e+001 -4.184405e+001
3020781250 -2.114173e+001 1.855089e+001 1.028972e-001 -1.204739e+002 -8.509753e+001 -1.243778e+002 -1.737840e+001 -3.778968e+001
3021875000 -2.023567e+001 2.775849e+001 7.468213e-002 1.785725e+002 -8.151817e+001 -1.319928e+002 -1.729203e+001 -3.355780e+001
3022968750 -1.957133e+001 3.670286e+001 2.348587e-002 1.177550e+002 -9.354942e+001 1.039232e+002 -1.736893e+001 -2.932891e+001
3024062500 -1.912806e+001 4.543507e+001 -4.342355e-002 5.694168e+001 -8.723027e+001 1.433603e+002 -1.760092e+001 -2.508587e+001
3025156250 -1.886596e+001 5.402972e+001 -1.319959e-001 -3.728388e+000 -8.361105e+001 1.631481e+002 -1.800635e+001 -2.107861e+001
3026250000 -1.881006e+001 6.254369e+001 -2.203682e-001 -6.423406e+001 -8.072681e+001 -9.768072e+001 -1.856873e+001 -1.749571e+001
3027343750 -1.892156e+001 7.102017e+001 -3.011066e-001 -1.247022e+002 -9.065829e+001 -1.194244e+002 -1.930952e+001 -1.487826e+001
3028437500 -1.922008e+001 7.940203e+001 -3.714067e-001 1.751152e+002 -8.351157e+001 1.343698e+002 -2.026357e+001 -1.309023e+001
3029531250 -1.972006e+001 8.768576e+001 -4.169585e-001 1.149872e+002 -1.106094e+002 5.302428e+001 -2.140046e+001 -1.312936e+001
3030625000 -2.042569e+001 9.584156e+001 -4.546574e-001 5.485271e+001 -8.378755e+001 1.607681e+002 -2.266962e+001 -1.553337e+001
3031718750 -2.141258e+001 1.041024e+002 -4.594162e-001 -5.122144e+000 -8.624957e+001 -1.171202e+002 -2.391323e+001 -2.162962e+001
3032812500 -2.272452e+001 1.120040e+002 -4.417036e-001 -6.519511e+001 -9.184212e+001 -6.670841e+001 -2.479559e+001 -3.170647e+001
3033906250 -2.445276e+001 1.197496e+002 -4.037082e-001 -1.252723e+002 -8.940960e+001 8.362038e+001 -2.492899e+001 -4.417858e+001
3035000000 -2.687259e+001 1.269952e+002 -3.411240e-001 1.744664e+002 -8.960155e+001 -7.207203e+000 -2.418516e+001 -5.499062e+001
3036093750 -3.051928e+001 1.331721e+002 -2.622181e-001 1.140133e+002 -8.496877e+001 7.102267e+001 -2.301704e+001 -6.220558e+001
3037187500 -3.692148e+001 1.357128e+002 -1.877209e-001 5.338019e+001 -9.419411e+001 -1.439424e+002 -2.178729e+001 -6.556512e+001
3038281250 -4.910479e+001 3.174442e+001 -1.181375e-001 -7.453604e+000 -8.633921e+001 1.459675e+002 -2.061595e+001 -6.600739e+001
3039375000 -3.497964e+001 -6.221103e+000 -6.377922e-002 -6.841423e+001 -9.209199e+001 1.770411e+002 -1.967109e+001 -6.444905e+001
3040468750 -2.973083e+001 -2.280864e+000 -2.262745e-002 -1.294457e+002 -8.669525e+001 -1.476165e+002 -1.888369e+001 -6.162529e+001
3041562500 -2.664401e+001 4.478677e+000 -3.797931e-003 1.694787e+002 -8.318806e+001 1.653493e+002 -1.829779e+001 -5.803643e+001
3042656250 -2.453216e+001 1.209113e+001 -5.643647e-003 1.084390e+002 -8.975212e+001 -9.825740e+000 -1.790217e+001 -5.373042e+001
3043750000 -2.302913e+001 2.030037e+001 -4.123932e-002 4.735175e+001 -7.826126e+001 5.859010e+001 -1.765530e+001 -4.927878e+001
3044843750 -2.199186e+001 2.853500e+001 -9.860940e-002 -1.348228e+001 -8.628043e+001 7.126083e+001 -1.760140e+001 -4.450435e+001
3045937500 -2.120419e+001 3.700254e+001 -1.554834e-001 -7.412695e+001 -8.702927e+001 1.039775e+002 -1.768715e+001 -3.979501e+001
3047031250 -2.069512e+001 4.581526e+001 -2.136987e-001 -1.345571e+002 -7.836835e+001 -1.539901e+001 -1.796633e+001 -3.493530e+001
3048125000 -2.042832e+001 5.454679e+001 -2.571389e-001 1.651782e+002 -9.372253e+001 1.231446e+002 -1.842533e+001 -3.053760e+001
3049218750 -2.034172e+001 6.366585e+001 -2.762152e-001 1.049576e+002 -1.116994e+002 6.187331e+001 -1.908734e+001 -2.647791e+001
3050312500 -2.051440e+001 7.305557e+001 -2.801681e-001 4.477689e+001 -8.453075e+001 -6.319725e+001 -1.999478e+001 -2.312932e+001
3051406250 -2.083312e+001 8.272759e+001 -2.676312e-001 -1.562854e+001 -7.911044e+001 9.046089e+001 -2.113705e+001 -2.102052e+001
3052500000 -2.137277e+001 9.287717e+001 -2.686313e-001 -7.579653e+001 -8.840816e+001 4.777080e+001 -2.256758e+001 -2.092824e+001
3053593750 -2.217689e+001 1.038043e+002 -2.528743e-001 -1.359922e+002 -9.220478e+001 -5.387912e+001 -2.430478e+001 -2.430857e+001
3054687500 -2.322423e+001 1.155861e+002 -2.236469e-001 1.639705e+002 -8.784670e+001 -1.147578e+002 -2.611438e+001 -3.362759e+001
3055781250 -2.457138e+001 1.291057e+002 -1.480240e-001 1.038758e+002 -8.334540e+001 -1.495665e+002 -2.723161e+001 -5.049450e+001
3056875000 -2.621470e+001 1.456772e+002 -3.173360e-002 4.365747e+001 -8.748167e+001 -7.943452e+001 -2.679560e+001 -6.966107e+001
3057968750 -2.805310e+001 1.670501e+002 8.918603e-002 -1.700630e+001 -8.294166e+001 1.525732e+001 -2.511724e+001 -8.336285e+001
3059062500 -2.955015e+001 -1.642228e+002 2.222975e-001 -7.789529e+001 -9.360045e+001 -1.771915e+002 -2.317423e+001 -8.971189e+001
3060156250 -2.982229e+001 -1.305329e+002 3.003640e-001 -1.390194e+002 -8.679668e+001 -5.413605e+001 -2.143808e+001 -9.127579e+001
3061250000 -2.854499e+001 -1.001165e+002 3.458251e-001 1.598379e+002 -8.084875e+001 6.950606e+001 -1.999793e+001 -8.985856e+001
3062343750 -2.668711e+001 -7.691138e+001 3.467386e-001 9.876298e+001 -8.001539e+001 1.685969e+002 -1.883327e+001 -8.693970e+001
3063437500 -2.492214e+001 -5.929234e+001 3.225085e-001 3.783295e+001 -8.741801e+001 3.050169e+001 -1.789174e+001 -8.302626e+001
3064531250 -2.349890e+001 -4.509706e+001 2.966388e-001 -2.293582e+001 -8.565330e+001 3.812876e+001 -1.715357e+001 -7.849879e+001
3065625000 -2.236239e+001 -3.299669e+001 2.536865e-001 -8.341735e+001 -8.319276e+001 -1.028865e+002 -1.660114e+001 -7.345638e+001
3066718750 -2.148222e+001 -2.211393e+001 2.267770e-001 -1.436990e+002 -8.473109e+001 -5.799709e+001 -1.620771e+001 -6.833872e+001
3067812500 -2.084347e+001 -1.193298e+001 2.243702e-001 1.562251e+002 -8.867832e+001 1.083918e+002 -1.597642e+001 -6.291921e+001
3068906250 -2.040829e+001 -2.296102e+000 2.648152e-001 9.621159e+001 -8.505380e+001 -7.357892e+001 -1.585560e+001 -5.745390e+001
3070000000 -2.019232e+001 6.888259e+000 3.393558e-001 3.616084e+001 -8.379565e+001 1.531685e+002 -1.589398e+001 -5.202818e+001
3071093750 -2.015539e+001 1.562530e+001 4.425776e-001 -2.395042e+001 -8.586920e+001 6.898027e+001 -1.604460e+001 -4.669596e+001
3072187500 -2.031828e+001 2.421904e+001 5.555356e-001 -8.431564e+001 -8.274680e+001 -3.091718e+001 -1.634893e+001 -4.149303e+001
3073281250 -2.065547e+001 3.231203e+001 6.845428e-001 -1.446222e+002 -8.542216e+001 -1.179496e+001 -1.678868e+001 -3.660252e+001
3074375000 -2.123240e+001 4.024228e+001 8.246722e-001 1.549763e+002 -9.571725e+001 -1.090668e+001 -1.736113e+001 -3.200634e+001
3075468750 -2.204843e+001 4.767914e+001 9.867895e-001 9.458791e+001 -9.132721e+001 -1.031691e+002 -1.808741e+001 -2.808121e+001
3076562500 -2.317748e+001 5.466894e+001 1.186761e+000 3.404255e+001 -9.615628e+001 4.034029e+001 -1.900764e+001 -2.485077e+001
3077656250 -2.468618e+001 6.061988e+001 1.410751e+000 -2.683795e+001 -8.592406e+001 1.292251e+002 -2.012180e+001 -2.265930e+001
3078750000 -2.673854e+001 6.533375e+001 1.629953e+000 -8.811128e+001 -8.436524e+001 7.332649e+001 -2.140515e+001 -2.223010e+001
3079843750 -2.959378e+001 6.654300e+001 1.820599e+000 -1.497631e+002 -8.038988e+001 -4.278517e+001 -2.285619e+001 -2.420271e+001
3080937500 -3.360475e+001 5.844105e+001 1.956217e+000 1.483149e+002 -1.025848e+002 -7.453940e+001 -2.434443e+001 -2.960414e+001
3082031250 -3.741608e+001 2.228404e+001 2.029305e+000 8.646539e+001 -8.437848e+001 -9.941182e+001 -2.556215e+001 -3.940662e+001
3083125000 -3.441463e+001 -2.045591e+001 2.072533e+000 2.473872e+001 -8.123118e+001 4.241029e+001 -2.606114e+001 -5.276420e+001
3084218750 -3.014250e+001 -3.178134e+001 2.075784e+000 -3.690051e+001 -8.590762e+001 -7.979222e+001 -2.565016e+001 -6.573456e+001
3085312500 -2.716449e+001 -3.150499e+001 2.070973e+000 -9.829533e+001 -8.159921e+001 1.594910e+002 -2.460457e+001 -7.472101e+001
3086406250 -2.501217e+001 -2.738193e+001 2.058183e+000 -1.596359e+002 -8.464877e+001 5.578290e+001 -2.339073e+001 -7.975804e+001
3087500000 -2.344886e+001 -2.173047e+001 2.041665e+000 1.392605e+002 -8.681882e+001 -3.766091e+001 -2.230158e+001 -8.153835e+001
3088593750 -2.227635e+001 -1.499959e+001 2.028177e+000 7.830223e+001 -8.288742e+001 -1.463610e+002 -2.134100e+001 -8.136719e+001
3089687500 -2.139582e+001 -7.928157e+000 2.053522e+000 1.749691e+001 -9.870264e+001 -1.001566e+002 -2.058820e+001 -7.990718e+001
3090781250 -2.076617e+001 -5.459931e-001 2.108910e+000 -4.319144e+001 -9.636776e+001 -1.517896e+002 -2.000826e+001 -7.769423e+001
3091875000 -2.038651e+001 6.898308e+000 2.201593e+000 -1.040762e+002 -8.328374e+001 1.697300e+002 -1.959220e+001 -7.522254e+001
3092968750 -2.021105e+001 1.477477e+001 2.307692e+000 -1.651801e+002 -7.812774e+001 -1.093010e+002 -1.931640e+001 -7.231891e+001
3094062500 -2.021146e+001 2.277292e+001 2.398922e+000 1.334254e+002 -8.625311e+001 3.388230e+000 -1.915413e+001 -6.950500e+001
3095156250 -2.040879e+001 3.079932e+001 2.473417e+000 7.189548e+001 -9.567770e+001 4.306602e+001 -1.910407e+001 -6.682126e+001
3096250000 -2.078676e+001 3.903706e+001 2.507289e+000 1.036112e+001 -8.445709e+001 6.649038e+001 -1.915828e+001 -6.441907e+001
3097343750 -2.141323e+001 4.735740e+001 2.517904e+000 -5.106558e+001 -8.068108e+001 -1.871993e+001 -1.929830e+001 -6.231794e+001
3098437500 -2.227456e+001 5.602127e+001 2.510817e+000 -1.123677e+002 -9.251662e+001 1.015146e+002 -1.950737e+001 -6.068562e+001
3099531250 -2.341435e+001 6.494046e+001 2.498472e+000 -1.735945e+002 -8.998233e+001 -1.219285e+002 -1.974263e+001 -5.951276e+001
3100625000 -2.498382e+001 7.431058e+001 2.467193e+000 1.253078e+002 -8.275944e+001 -6.807743e+001 -2.000563e+001 -5.889529e+001
3101718750 -2.702313e+001 8.440990e+001 2.460093e+000 6.437043e+001 -7.910136e+001 -1.140755e+002 -2.025746e+001 -5.874780e+001
3102812500 -2.995247e+001 9.724604e+001 2.468813e+000 3.547031e+000 -9.019073e+001 -1.623740e+002 -2.048142e+001 -5.917326e+001
3103906250 -3.434996e+001 1.158158e+002 2.489020e+000 -5.723483e+001 -8.657385e+001 -1.019060e+002 -2.064671e+001 -5.970451e+001
3105000000 -4.067647e+001 1.657715e+002 2.526940e+000 -1.180137e+002 -8.843072e+001 9.495148e+001 -2.074734e+001 -6.051925e+001
3106093750 -3.766745e+001 -1.158667e+002 2.597653e+000 -1.789138e+002 -8.171666e+001 -5.686002e-001 -2.079463e+001 -6.126967e+001
3107187500 -3.223343e+001 -8.758970e+001 2.694757e+000 1.201203e+002 -9.142244e+001 6.184581e+001 -2.083116e+001 -6.165620e+001
3108281250 -2.885480e+001 -7.252331e+001 2.776241e+000 5.893921e+001 -8.306023e+001 5.357164e+001 -2.082895e+001 -6.180344e+001
3109375000 -2.656859e+001 -6.123730e+001 2.851059e+000 -2.386757e+000 -8.580994e+001 4.394073e+000 -2.083197e+001 -6.162365e+001
3110468750 -2.496440e+001 -5.147190e+001 2.927945e+000 -6.367684e+001 -8.437228e+001 -1.495511e+002 -2.082990e+001 -6.115565e+001
3111562500 -2.380781e+001 -4.239421e+001 2.998596e+000 -1.250626e+002 -8.439641e+001 -9.294682e+001 -2.091240e+001 -6.028924e+001
3112656250 -2.299106e+001 -3.368090e+001 3.057695e+000 1.735662e+002 -8.662219e+001 2.039484e+001 -2.102847e+001 -5.955448e+001
3113750000 -2.247252e+001 -2.533396e+001 3.129564e+000 1.122324e+002 -9.123335e+001 2.684953e+001 -2.122808e+001 -5.871003e+001
3114843750 -2.220440e+001 -1.717127e+001 3.194216e+000 5.076100e+001 -8.687318e+001 2.565466e+001 -2.151679e+001 -5.806430e+001
3115937500 -2.214012e+001 -9.106617e+000 3.251184e+000 -1.076929e+001 -8.717798e+001 1.742370e+002 -2.186956e+001 -5.768696e+001
3117031250 -2.231213e+001 -1.228081e+000 3.306210e+000 -7.231625e+001 -8.724775e+001 -1.636166e+002 -2.229410e+001 -5.820942e+001
3118125000 -2.273702e+001 6.727563e+000 3.354516e+000 -1.339832e+002 -8.208669e+001 1.060730e+002 -2.274439e+001 -5.918627e+001
3119218750 -2.338704e+001 1.420616e+001 3.391681e+000 1.642186e+002 -8.605338e+001 -3.991636e+001 -2.317646e+001 -6.130298e+001
3120312500 -2.435304e+001 2.160364e+001 3.391714e+000 1.023980e+002 -8.226934e+001 8.464178e+001 -2.354117e+001 -6.440940e+001
3121406250 -2.571142e+001 2.857864e+001 3.359785e+000 4.048947e+001 -8.294279e+001 -1.082622e+002 -2.374011e+001 -6.809736e+001
3122500000 -2.756019e+001 3.458365e+001 3.316428e+000 -2.135866e+001 -8.387419e+001 -5.587647e+001 -2.377560e+001 -7.241967e+001
3123593750 -3.014183e+001 3.964694e+001 3.236351e+000 -8.302504e+001 -8.895878e+001 -4.110279e+001 -2.356761e+001 -7.660374e+001
3124687500 -3.416494e+001 4.027016e+001 3.150472e+000 -1.444583e+002 -8.602392e+001 2.532350e+001 -2.317622e+001 -7.960640e+001
3125781250 -4.117535e+001 2.203166e+001 3.069799e+000 1.542379e+002 -8.134782e+001 3.653322e+000 -2.270411e+001 -8.153657e+001
3126875000 -4.108239e+001 -6.084011e+001 3.015334e+000 9.309938e+001 -9.867869e+001 2.563204e+001 -2.220291e+001 -8.237640e+001
3127968750 -3.407367e+001 -7.904676e+001 2.986882e+000 3.192706e+001 -8.376044e+001 1.571257e+002 -2.171769e+001 -8.179181e+001
3129062500 -3.012304e+001 -7.819195e+001 2.978079e+000 -2.937075e+001 -8.385808e+001 -1.570203e+002 -2.130580e+001 -8.035611e+001
3130156250 -2.750597e+001 -7.333076e+001 2.959805e+000 -9.071258e+001 -9.005135e+001 -1.636772e+002 -2.096876e+001 -7.793865e+001
3131250000 -2.564783e+001 -6.741225e+001 2.930862e+000 -1.521012e+002 -9.480502e+001 1.720219e+002 -2.075195e+001 -7.495264e+001
3132343750 -2.431830e+001 -6.073192e+001 2.888427e+000 1.464405e+002 -9.151775e+001 -1.207378e+001 -2.068331e+001 -7.153494e+001
3133437500 -2.333993e+001 -5.368788e+001 2.835351e+000 8.501138e+001 -9.657460e+001 1.336476e+002 -2.075408e+001 -6.767422e+001
3134531250 -2.264919e+001 -4.656528e+001 2.747676e+000 2.363418e+001 -1.010097e+002 -1.483762e+002 -2.096561e+001 -6.383026e+001
3135625000 -2.220374e+001 -3.919138e+001 2.649647e+000 -3.748866e+001 -8.419203e+001 -4.298938e+001 -2.134680e+001 -5.973397e+001
3136718750 -2.201784e+001 -3.198175e+001 2.549379e+000 -9.844756e+001 -8.520869e+001 -5.555826e+001 -2.195892e+001 -5.577693e+001
3137812500 -2.201358e+001 -2.471342e+001 2.461846e+000 -1.592424e+002 -8.353577e+001 -8.613436e+001 -2.277671e+001 -5.220654e+001
3138906250 -2.224661e+001 -1.757953e+001 2.408449e+000 1.401037e+002 -8.097502e+001 -5.524501e+001 -2.389950e+001 -4.935159e+001
3140000000 -2.267789e+001 -1.038274e+001 2.383916e+000 7.947005e+001 -8.538352e+001 1.404223e+002 -2.535264e+001 -4.749478e+001
3141093750 -2.340424e+001 -3.622519e+000 2.373040e+000 1.870889e+001 -8.047504e+001 -7.090876e+001 -2.726212e+001 -4.830552e+001
3142187500 -2.439167e+001 3.002972e+000 2.381284e+000 -4.226206e+001 -8.366992e+001 1.058437e+002 -2.958597e+001 -5.416279e+001
3143281250 -2.577281e+001 8.828534e+000 2.376595e+000 -1.032964e+002 -8.053306e+001 -8.717060e+000 -3.204487e+001 -7.029511e+001
3144375000 -2.764250e+001 1.351127e+001 2.375356e+000 -1.643519e+002 -9.052317e+001 -1.458786e+002 -3.271657e+001 -9.837516e+001
3145468750 -3.032551e+001 1.610560e+001 2.364510e+000 1.346615e+002 -9.588165e+001 -1.162648e+002 -3.069264e+001 -1.214931e+002
3146562500 -3.415907e+001 1.240991e+001 2.388319e+000 7.369698e+001 -9.056418e+001 -1.968029e+001 -2.799740e+001 -1.312452e+002
3147656250 -3.918504e+001 -1.608937e+001 2.412847e+000 1.257783e+001 -8.758673e+001 5.024186e+001 -2.572084e+001 -1.339946e+002
3148750000 -3.753595e+001 -7.171614e+001 2.441236e+000 -4.864785e+001 -8.896912e+001 -1.798138e+002 -2.392994e+001 -1.327847e+002
3149843750 -3.266465e+001 -8.821725e+001 2.468723e+000 -1.100839e+002 -8.269048e+001 -1.745347e+002 -2.254072e+001 -1.296942e+002
3150937500 -2.922125e+001 -8.934615e+001 2.480934e+000 -1.716238e+002 -8.850979e+001 -1.401815e+002 -2.143516e+001 -1.254670e+002
3152031250 -2.679905e+001 -8.599734e+001 2.454351e+000 1.268538e+002 -8.020406e+001 -9.599245e+001 -2.058787e+001 -1.206766e+002
3153125000 -2.506423e+001 -8.054359e+001 2.422699e+000 6.541061e+001 -8.817084e+001 -1.693172e+002 -1.996562e+001 -1.153901e+002
3154218750 -2.376922e+001 -7.439363e+001 2.345645e+000 3.897299e+000 -8.058315e+001 -4.865815e+001 -1.953037e+001 -1.101308e+002
3155312500 -2.281792e+001 -6.756656e+001 2.259020e+000 -5.741412e+001 -8.516824e+001 1.419422e+001 -1.927955e+001 -1.045685e+002
3156406250 -2.211850e+001 -6.055005e+001 2.156938e+000 -1.187055e+002 -8.061266e+001 3.077395e+001 -1.922025e+001 -9.899163e+001
3157500000 -2.165499e+001 -5.336606e+001 2.045517e+000 -1.797300e+002 -8.409441e+001 2.166434e+001 -1.928673e+001 -9.365350e+001
3158593750 -2.141460e+001 -4.592397e+001 1.943315e+000 1.195289e+002 -9.581421e+001 -5.433804e+001 -1.955883e+001 -8.846873e+001
3159687500 -2.137400e+001 -3.854128e+001 1.855698e+000 5.894865e+001 -8.818260e+001 -5.203465e+001 -2.001778e+001 -8.362601e+001
3160781250 -2.151903e+001 -3.105387e+001 1.822160e+000 -1.613476e+000 -8.272845e+001 -1.198568e+002 -2.062363e+001 -7.943475e+001
3161875000 -2.188114e+001 -2.322375e+001 1.824461e+000 -6.211902e+001 -1.041602e+002 -1.228310e+002 -2.149056e+001 -7.607770e+001
3162968750 -2.243536e+001 -1.568992e+001 1.875075e+000 -1.229178e+002 -9.100491e+001 -3.263000e+001 -2.254931e+001 -7.412288e+001
3164062500 -2.323079e+001 -8.063716e+000 1.934245e+000 1.760199e+002 -9.766967e+001 -1.502262e+002 -2.380606e+001 -7.433646e+001
