!Agilent Technologies,E8363B,MY43030572,A.06.04.32
!Agilent E8363B: A.06.04.32
!Date: Monday, June 06, 2011 14:42:31
!Correction: S11(Full 2 Port(1,2)) S21(Full 2 Port(1,2)) S12(Full 2 Port(1,2)) S22(Full 2 Port(1,2)) 
!S2P File: Measurements: S11, S21, S12, S22:
# Hz S  dB   R 50
3000000000 -2.079231e+001 5.496945e+001 -2.167066e+000 1.063740e+002 -9.819313e+001 3.297371e+001 -1.644865e+001 -2.366757e+001
3001093750 -2.029142e+001 6.324820e+001 -2.852912e+000 4.091712e+001 -8.714619e+001 -1.535957e+002 -1.673279e+001 -2.002214e+001
3002187500 -2.000279e+001 7.183950e+001 -2.780357e+000 -2.121999e+001 -8.822349e+001 -6.883800e+001 -1.711596e+001 -1.617108e+001
3003281250 -1.991489e+001 8.063601e+001 -2.699154e+000 -8.372555e+001 -8.678082e+001 -1.159478e+002 -1.764069e+001 -1.285172e+001
3004375000 -2.001598e+001 8.943264e+001 -2.608282e+000 -1.461751e+002 -8.383334e+001 9.818998e+001 -1.830534e+001 -1.021776e+001
3005468750 -2.034031e+001 9.830286e+001 -2.529231e+000 1.513665e+002 -9.871109e+001 -1.385208e+002 -1.911900e+001 -8.686151e+000
3006562500 -2.088093e+001 1.073490e+002 -2.446593e+000 8.884358e+001 -8.195337e+001 1.473905e+002 -2.006410e+001 -8.645001e+000
3007656250 -2.166193e+001 1.165681e+002 -2.351868e+000 2.646334e+001 -8.406360e+001 -1.092730e+002 -2.109904e+001 -1.080696e+001
3008750000 -2.276502e+001 1.262813e+002 -2.246139e+000 -3.600681e+001 -9.352968e+001 4.124349e+001 -2.208237e+001 -1.534525e+001
3009843750 -2.426061e+001 1.366587e+002 -2.124349e+000 -9.860271e+001 -8.858505e+001 8.245470e+001 -2.276828e+001 -2.276769e+001
3010937500 -2.635717e+001 1.483094e+002 -1.993373e+000 -1.613489e+002 -8.221953e+001 -5.193288e+001 -2.297608e+001 -3.171162e+001
3012031250 -2.929541e+001 1.635891e+002 -1.880342e+000 1.357658e+002 -8.546149e+001 6.005300e+001 -2.259864e+001 -4.030103e+001
3013125000 -3.354212e+001 -1.721868e+002 -1.772048e+000 7.274686e+001 -8.941390e+001 -1.052896e+002 -2.181514e+001 -4.654154e+001
3014218750 -3.764638e+001 -1.147473e+002 -1.701112e+000 9.640871e+000 -8.881344e+001 7.652331e+001 -2.088703e+001 -5.014818e+001
3015312500 -3.373320e+001 -5.399725e+001 -1.642681e+000 -5.337757e+001 -8.322964e+001 6.819833e+001 -1.996083e+001 -5.124768e+001
3016406250 -2.926657e+001 -2.853120e+001 -1.607792e+000 -1.162872e+002 -8.255001e+001 -1.199658e+002 -1.914708e+001 -5.049905e+001
3017500000 -2.619302e+001 -1.346578e+001 -1.578685e+000 -1.791495e+002 -8.703825e+001 1.528342e+001 -1.845114e+001 -4.843295e+001
3018593750 -2.399564e+001 -1.654908e+000 -1.532925e+000 1.181664e+002 -8.373435e+001 -1.792955e+002 -1.791695e+001 -4.539101e+001
3019687500 -2.237659e+001 8.574015e+000 -1.481263e+000 5.551379e+001 -9.084683e+001 1.292052e+002 -1.754118e+001 -4.192417e+001
3020781250 -2.114843e+001 1.834310e+001 -1.408302e+000 -7.147334e+000 -9.994038e+001 1.398527e+002 -1.732408e+001 -3.794716e+001
3021875000 -2.023752e+001 2.766659e+001 -1.318204e+000 -6.991444e+001 -8.113056e+001 -1.606619e+002 -1.725049e+001 -3.371569e+001
3022968750 -1.956258e+001 3.662386e+001 -1.227582e+000 -1.327170e+002 -8.432256e+001 7.509707e+001 -1.732418e+001 -2.942994e+001
3024062500 -1.911742e+001 4.537670e+001 -1.136825e+000 1.643400e+002 -8.908913e+001 5.292332e+001 -1.756625e+001 -2.521027e+001
3025156250 -1.884368e+001 5.395517e+001 -1.072326e+000 1.013904e+002 -8.183679e+001 -1.604433e+002 -1.796746e+001 -2.127740e+001
3026250000 -1.878924e+001 6.257285e+001 -1.020869e+000 3.838766e+001 -8.914469e+001 3.575948e+001 -1.853699e+001 -1.779464e+001
3027343750 -1.888246e+001 7.102534e+001 -9.802825e-001 -2.472791e+001 -8.793995e+001 1.352320e+002 -1.926274e+001 -1.511983e+001
3028437500 -1.918997e+001 7.952152e+001 -9.603238e-001 -8.758474e+001 -8.420152e+001 4.528987e+001 -2.020911e+001 -1.340772e+001
3029531250 -1.967324e+001 8.782175e+001 -9.508510e-001 -1.504769e+002 -9.017514e+001 1.566263e+002 -2.133356e+001 -1.346667e+001
3030625000 -2.037399e+001 9.610622e+001 -9.752139e-001 1.467935e+002 -7.812632e+001 -1.782735e+002 -2.257963e+001 -1.598670e+001
3031718750 -2.136412e+001 1.042478e+002 -9.878249e-001 8.434925e+001 -7.996136e+001 -8.270774e+000 -2.384632e+001 -2.208695e+001
3032812500 -2.265010e+001 1.123439e+002 -9.892640e-001 2.203475e+001 -8.515123e+001 -1.261390e+002 -2.472396e+001 -3.218483e+001
3033906250 -2.434799e+001 1.201297e+002 -9.463468e-001 -4.013082e+001 -8.844244e+001 -1.417870e+002 -2.482876e+001 -4.453232e+001
3035000000 -2.673007e+001 1.275229e+002 -8.649342e-001 -1.023288e+002 -8.369757e+001 8.739655e+001 -2.413302e+001 -5.520868e+001
3036093750 -3.029564e+001 1.341153e+002 -7.594757e-001 -1.647146e+002 -8.059743e+001 1.212698e+000 -2.295743e+001 -6.224319e+001
3037187500 -3.649815e+001 1.378071e+002 -6.392426e-001 1.326015e+002 -8.702119e+001 2.930186e+001 -2.170652e+001 -6.557580e+001
3038281250 -5.106575e+001 4.271431e+001 -5.345153e-001 6.972649e+001 -8.802081e+001 -1.244809e+002 -2.055602e+001 -6.596416e+001
3039375000 -3.534210e+001 -7.433233e+000 -4.326976e-001 6.686890e+000 -8.965182e+001 1.118474e+002 -1.960371e+001 -6.445366e+001
3040468750 -2.993487e+001 -3.092132e+000 -3.682427e-001 -5.640803e+001 -8.470045e+001 5.602812e+001 -1.882402e+001 -6.167038e+001
3041562500 -2.676889e+001 3.957417e+000 -3.185546e-001 -1.194456e+002 -8.295813e+001 -8.114957e+000 -1.824682e+001 -5.806769e+001
3042656250 -2.462363e+001 1.170828e+001 -2.975594e-001 1.775975e+002 -9.069651e+001 -9.908258e+001 -1.784542e+001 -5.397762e+001
3043750000 -2.310958e+001 2.009195e+001 -2.972805e-001 1.147559e+002 -8.645177e+001 -6.428025e+001 -1.760966e+001 -4.940636e+001
3044843750 -2.203684e+001 2.829552e+001 -3.035021e-001 5.216671e+001 -8.246437e+001 -1.447597e+002 -1.754450e+001 -4.469619e+001
3045937500 -2.124525e+001 3.691965e+001 -2.913360e-001 -1.019193e+001 -8.225237e+001 -3.409296e+001 -1.764545e+001 -3.992011e+001
3047031250 -2.073434e+001 4.565001e+001 -2.691134e-001 -7.228620e+001 -8.595898e+001 -1.651378e+002 -1.792809e+001 -3.511380e+001
3048125000 -2.045303e+001 5.444275e+001 -1.916616e-001 -1.342987e+002 -8.248709e+001 -1.683114e+002 -1.837021e+001 -3.069056e+001
3049218750 -2.038271e+001 6.355846e+001 -8.269641e-002 1.636458e+002 -9.013363e+001 6.179099e+001 -1.904106e+001 -2.669897e+001
3050312500 -2.052731e+001 7.294661e+001 6.340788e-002 1.014894e+002 -8.779903e+001 1.377935e+002 -1.992035e+001 -2.332122e+001
3051406250 -2.084407e+001 8.269305e+001 2.308923e-001 3.894818e+001 -8.437167e+001 3.127337e+001 -2.108726e+001 -2.148967e+001
3052500000 -2.139099e+001 9.277667e+001 3.844056e-001 -2.366797e+001 -7.733469e+001 -1.338028e+002 -2.250220e+001 -2.137247e+001
3053593750 -2.219654e+001 1.037221e+002 5.381296e-001 -8.642209e+001 -9.739360e+001 1.338145e+002 -2.423164e+001 -2.491844e+001
3054687500 -2.322464e+001 1.155452e+002 7.016080e-001 -1.492562e+002 -8.897826e+001 1.603989e+002 -2.603141e+001 -3.422748e+001
3055781250 -2.457061e+001 1.289963e+002 8.723555e-001 1.477396e+002 -8.520947e+001 1.232612e+002 -2.714855e+001 -5.078952e+001
3056875000 -2.620701e+001 1.454460e+002 1.048653e+000 8.457583e+001 -9.662790e+001 5.297475e+001 -2.670129e+001 -6.979483e+001
3057968750 -2.808347e+001 1.667570e+002 1.210640e+000 2.101321e+001 -8.806179e+001 1.333672e+002 -2.504007e+001 -8.313879e+001
3059062500 -2.959550e+001 -1.644800e+002 1.358779e+000 -4.274704e+001 -8.587396e+001 1.229574e+002 -2.308419e+001 -8.940542e+001
3060156250 -2.988866e+001 -1.308574e+002 1.443635e+000 -1.066392e+002 -8.510581e+001 -1.337896e+000 -2.135237e+001 -9.106308e+001
3061250000 -2.864497e+001 -1.002194e+002 1.478515e+000 -1.705436e+002 -8.559429e+001 -1.162264e+002 -1.993529e+001 -8.977830e+001
3062343750 -2.677742e+001 -7.671172e+001 1.470790e+000 1.257461e+002 -8.628603e+001 -2.696432e+001 -1.875665e+001 -8.690927e+001
3063437500 -2.499597e+001 -5.909522e+001 1.447771e+000 6.224365e+001 -8.422648e+001 1.615286e+002 -1.783989e+001 -8.307770e+001
3064531250 -2.356808e+001 -4.494383e+001 1.405229e+000 -1.126634e+000 -8.742169e+001 1.414521e+002 -1.711394e+001 -7.854738e+001
3065625000 -2.241311e+001 -3.280230e+001 1.342808e+000 -6.420788e+001 -9.381930e+001 1.601763e+002 -1.656816e+001 -7.348362e+001
3066718750 -2.154462e+001 -2.183179e+001 1.277728e+000 -1.271008e+002 -8.782449e+001 1.758832e+002 -1.616536e+001 -6.829089e+001
3067812500 -2.088907e+001 -1.158721e+001 1.212922e+000 1.702664e+002 -8.155112e+001 9.306679e-001 -1.592295e+001 -6.301309e+001
3068906250 -2.045684e+001 -2.013594e+000 1.167425e+000 1.077732e+002 -8.789325e+001 2.315557e+001 -1.581228e+001 -5.752922e+001
3070000000 -2.023572e+001 7.193210e+000 1.148912e+000 4.544882e+001 -8.839635e+001 -1.995668e+001 -1.584154e+001 -5.213573e+001
3071093750 -2.019928e+001 1.595563e+001 1.166499e+000 -1.679544e+001 -8.560772e+001 -3.597267e+001 -1.600727e+001 -4.683361e+001
3072187500 -2.036619e+001 2.456190e+001 1.194747e+000 -7.914409e+001 -8.327651e+001 4.965354e+001 -1.630597e+001 -4.158861e+001
3073281250 -2.070949e+001 3.267706e+001 1.247255e+000 -1.414333e+002 -8.161570e+001 -3.603583e+001 -1.674796e+001 -3.679552e+001
3074375000 -2.128094e+001 4.054683e+001 1.320231e+000 1.562393e+002 -8.808893e+001 -1.192222e+002 -1.733491e+001 -3.219886e+001
3075468750 -2.210702e+001 4.800098e+001 1.416855e+000 9.398752e+001 -8.610479e+001 2.574661e+000 -1.806165e+001 -2.825605e+001
3076562500 -2.325707e+001 5.497725e+001 1.554340e+000 3.169278e+001 -8.256425e+001 8.760918e+001 -1.897987e+001 -2.512836e+001
3077656250 -2.477719e+001 6.094404e+001 1.735556e+000 -3.084634e+001 -8.807484e+001 1.364970e+002 -2.007220e+001 -2.297917e+001
3078750000 -2.683522e+001 6.556126e+001 1.932808e+000 -9.372778e+001 -8.587995e+001 7.927901e+001 -2.136087e+001 -2.261880e+001
3079843750 -2.972871e+001 6.665999e+001 2.128774e+000 -1.570510e+002 -8.208900e+001 2.922216e+001 -2.280728e+001 -2.459755e+001
3080937500 -3.377059e+001 5.801928e+001 2.283141e+000 1.393197e+002 -1.103373e+002 1.509547e+002 -2.426754e+001 -3.015559e+001
3082031250 -3.748288e+001 2.043470e+001 2.375154e+000 7.563078e+001 -8.668530e+001 -1.261222e+002 -2.550484e+001 -4.008892e+001
3083125000 -3.426427e+001 -2.110648e+001 2.433799e+000 1.204375e+001 -8.991147e+001 1.357305e+002 -2.597722e+001 -5.311935e+001
3084218750 -3.005358e+001 -3.182349e+001 2.450628e+000 -5.151520e+001 -8.232858e+001 -7.813651e+001 -2.554973e+001 -6.608704e+001
3085312500 -2.711082e+001 -3.121042e+001 2.454124e+000 -1.147709e+002 -7.968720e+001 1.509938e+002 -2.451722e+001 -7.494123e+001
3086406250 -2.497422e+001 -2.700162e+001 2.456082e+000 -1.779984e+002 -8.316400e+001 -1.173971e+002 -2.332041e+001 -7.980096e+001
3087500000 -2.340805e+001 -2.130409e+001 2.457595e+000 1.189620e+002 -8.886783e+001 1.786576e+002 -2.223080e+001 -8.156230e+001
3088593750 -2.226107e+001 -1.454245e+001 2.472287e+000 5.600225e+001 -8.919627e+001 -9.407950e+001 -2.126515e+001 -8.140064e+001
3089687500 -2.138882e+001 -7.503758e+000 2.509118e+000 -6.875942e+000 -8.384363e+001 -4.176507e+001 -2.053265e+001 -7.999483e+001
3090781250 -2.075214e+001 -8.806729e-002 2.576850e+000 -6.965962e+001 -9.062733e+001 -8.311716e+001 -1.994054e+001 -7.784095e+001
3091875000 -2.037792e+001 7.466408e+000 2.665851e+000 -1.326481e+002 -8.428459e+001 -4.401864e+001 -1.952484e+001 -7.526713e+001
3092968750 -2.021378e+001 1.536776e+001 2.782006e+000 1.641963e+002 -8.156155e+001 -1.111895e+002 -1.925220e+001 -7.245412e+001
3094062500 -2.021330e+001 2.323710e+001 2.885267e+000 1.007501e+002 -8.092097e+001 9.075621e+001 -1.910478e+001 -6.968553e+001
3095156250 -2.041541e+001 3.131302e+001 2.971313e+000 3.710109e+001 -8.718551e+001 9.063216e+001 -1.904823e+001 -6.696823e+001
3096250000 -2.080160e+001 3.950198e+001 3.021669e+000 -2.660843e+001 -9.457046e+001 5.420921e+001 -1.910260e+001 -6.463022e+001
3097343750 -2.142250e+001 4.794487e+001 3.042621e+000 -9.031362e+001 -9.999714e+001 -1.212789e+002 -1.924842e+001 -6.250635e+001
3098437500 -2.228112e+001 5.651061e+001 3.027595e+000 -1.540161e+002 -8.439553e+001 1.418476e+001 -1.945312e+001 -6.091086e+001
3099531250 -2.343942e+001 6.547665e+001 2.994071e+000 1.423103e+002 -1.000473e+002 1.568668e+002 -1.968286e+001 -5.966209e+001
3100625000 -2.499104e+001 7.478138e+001 2.915140e+000 7.873511e+001 -8.818290e+001 1.790452e+002 -1.993863e+001 -5.911542e+001
3101718750 -2.704791e+001 8.501620e+001 2.833628e+000 1.529524e+001 -8.309446e+001 -1.620086e+002 -2.019772e+001 -5.897711e+001
3102812500 -2.995073e+001 9.769753e+001 2.732018e+000 -4.789264e+001 -8.918492e+001 -1.043619e+001 -2.041883e+001 -5.946389e+001
3103906250 -3.435118e+001 1.166318e+002 2.610901e+000 -1.109538e+002 -9.725807e+001 -1.286722e+000 -2.057853e+001 -6.003210e+001
3105000000 -4.059676e+001 1.659807e+002 2.505257e+000 -1.737201e+002 -8.216990e+001 -8.205672e+001 -2.069544e+001 -6.075549e+001
3106093750 -3.760409e+001 -1.157769e+002 2.420571e+000 1.236042e+002 -8.639649e+001 -3.706635e+001 -2.074072e+001 -6.143563e+001
3107187500 -3.223637e+001 -8.717719e+001 2.360454e+000 6.118320e+001 -8.396642e+001 -2.914707e+001 -2.076544e+001 -6.190160e+001
3108281250 -2.888614e+001 -7.211652e+001 2.320627e+000 -1.252342e+000 -9.523879e+001 1.840207e+001 -2.075995e+001 -6.191957e+001
3109375000 -2.658459e+001 -6.091249e+001 2.305082e+000 -6.363538e+001 -8.276988e+001 -1.469456e+002 -2.075767e+001 -6.177147e+001
3110468750 -2.500017e+001 -5.116092e+001 2.328881e+000 -1.259681e+002 -8.996565e+001 1.417883e+002 -2.078542e+001 -6.135944e+001
3111562500 -2.383615e+001 -4.207996e+001 2.376712e+000 1.716395e+002 -9.689456e+001 7.212457e+001 -2.087161e+001 -6.056485e+001
3112656250 -2.302288e+001 -3.346137e+001 2.443429e+000 1.091210e+002 -8.083935e+001 -1.027067e+002 -2.097218e+001 -5.992258e+001
3113750000 -2.250336e+001 -2.496043e+001 2.524962e+000 4.634647e+001 -9.371331e+001 -6.347882e+001 -2.118455e+001 -5.897315e+001
3114843750 -2.223688e+001 -1.673303e+001 2.593446e+000 -1.661731e+001 -7.826920e+001 -4.763125e+001 -2.145374e+001 -5.833711e+001
3115937500 -2.218517e+001 -8.792788e+000 2.636078e+000 -7.972934e+001 -9.644610e+001 1.401963e+002 -2.182654e+001 -5.802283e+001
3117031250 -2.235216e+001 -9.518742e-001 2.659754e+000 -1.428457e+002 -7.936922e+001 -3.642547e+001 -2.222242e+001 -5.845543e+001
3118125000 -2.277722e+001 6.900557e+000 2.667432e+000 1.540440e+002 -9.139187e+001 1.624232e+002 -2.267939e+001 -5.961923e+001
3119218750 -2.345212e+001 1.452151e+001 2.660555e+000 9.095428e+001 -8.088385e+001 1.550054e+002 -2.310944e+001 -6.160260e+001
3120312500 -2.440557e+001 2.173836e+001 2.647501e+000 2.795920e+001 -8.206102e+001 1.770524e+002 -2.345513e+001 -6.475574e+001
3121406250 -2.573521e+001 2.876169e+001 2.627587e+000 -3.502509e+001 -8.450656e+001 2.354469e+001 -2.366707e+001 -6.850395e+001
3122500000 -2.759721e+001 3.480778e+001 2.627650e+000 -9.796813e+001 -8.810181e+001 1.591341e+002 -2.369324e+001 -7.278771e+001
3123593750 -3.019474e+001 3.951826e+001 2.610617e+000 -1.607757e+002 -8.435404e+001 1.716869e+002 -2.347552e+001 -7.691386e+001
3124687500 -3.416029e+001 4.000705e+001 2.620768e+000 1.365320e+002 -9.096626e+001 7.511517e+001 -2.309673e+001 -7.981570e+001
3125781250 -4.091537e+001 2.087674e+001 2.641747e+000 7.380495e+001 -8.538963e+001 6.144069e+001 -2.260346e+001 -8.172601e+001
3126875000 -4.093458e+001 -5.956093e+001 2.687694e+000 1.110878e+001 -8.711145e+001 -1.674486e+002 -2.212811e+001 -8.249267e+001
3127968750 -3.408035e+001 -7.798506e+001 2.754487e+000 -5.177644e+001 -7.712130e+001 -4.585805e+001 -2.164658e+001 -8.194950e+001
3129062500 -3.019002e+001 -7.733035e+001 2.810800e+000 -1.148767e+002 -9.603410e+001 2.884687e+001 -2.122065e+001 -8.046612e+001
3130156250 -2.755992e+001 -7.266518e+001 2.846620e+000 -1.780148e+002 -8.002256e+001 1.683921e+001 -2.091499e+001 -7.815941e+001
3131250000 -2.572237e+001 -6.692355e+001 2.849448e+000 1.188444e+002 -8.371232e+001 -4.308025e+001 -2.071211e+001 -7.515588e+001
3132343750 -2.436641e+001 -6.022479e+001 2.837359e+000 5.569276e+001 -8.383142e+001 1.226163e+002 -2.062678e+001 -7.178753e+001
3133437500 -2.339746e+001 -5.326822e+001 2.818680e+000 -7.403467e+000 -8.598116e+001 3.775188e+001 -2.070071e+001 -6.792848e+001
3134531250 -2.270396e+001 -4.620107e+001 2.779014e+000 -7.039060e+001 -9.816296e+001 6.271564e+000 -2.092975e+001 -6.411018e+001
3135625000 -2.227415e+001 -3.884940e+001 2.750963e+000 -1.331518e+002 -9.156908e+001 -1.220781e+002 -2.132483e+001 -5.999569e+001
3136718750 -2.208664e+001 -3.162242e+001 2.733346e+000 1.641249e+002 -7.702127e+001 -4.436881e+001 -2.191285e+001 -5.606628e+001
3137812500 -2.209000e+001 -2.448837e+001 2.741009e+000 1.015162e+002 -8.016378e+001 2.639287e+001 -2.274900e+001 -5.267632e+001
3138906250 -2.231685e+001 -1.736082e+001 2.780749e+000 3.882962e+001 -1.008444e+002 3.051843e+001 -2.385696e+001 -4.981863e+001
3140000000 -2.277099e+001 -1.029353e+001 2.844635e+000 -2.389397e+001 -9.056370e+001 7.717318e+000 -2.530112e+001 -4.820341e+001
3141093750 -2.347004e+001 -3.577190e+000 2.929167e+000 -8.673384e+001 -7.830727e+001 1.235662e+002 -2.723305e+001 -4.915229e+001
3142187500 -2.448646e+001 2.957288e+000 3.013302e+000 -1.499905e+002 -8.716393e+001 1.614466e+002 -2.949838e+001 -5.549364e+001
3143281250 -2.584203e+001 8.631401e+000 3.083306e+000 1.466452e+002 -7.999188e+001 4.415696e+000 -3.189054e+001 -7.158897e+001
3144375000 -2.769107e+001 1.326267e+001 3.135015e+000 8.323804e+001 -8.713496e+001 1.133515e+002 -3.247848e+001 -9.903558e+001
3145468750 -3.033308e+001 1.526925e+001 3.152464e+000 1.972533e+001 -8.404935e+001 1.659729e+002 -3.041553e+001 -1.213384e+002
3146562500 -3.414464e+001 1.103505e+001 3.162117e+000 -4.371742e+001 -8.194237e+001 -5.507166e+001 -2.785157e+001 -1.309628e+002
3147656250 -3.887644e+001 -1.745500e+001 3.142588e+000 -1.073386e+002 -8.547686e+001 5.471104e+001 -2.559659e+001 -1.335417e+002
3148750000 -3.735144e+001 -7.018613e+001 3.101489e+000 -1.709813e+002 -8.925179e+001 -1.861044e+001 -2.381430e+001 -1.325276e+002
3149843750 -3.260588e+001 -8.676008e+001 3.025876e+000 1.252381e+002 -8.629058e+001 9.559865e+001 -2.244083e+001 -1.294822e+002
3150937500 -2.923253e+001 -8.819694e+001 2.913962e+000 6.156898e+001 -8.718484e+001 -1.557413e+002 -2.134523e+001 -1.253021e+002
3152031250 -2.681105e+001 -8.499267e+001 2.755517e+000 -1.817037e+000 -8.421398e+001 -8.239158e+001 -2.051883e+001 -1.206965e+002
3153125000 -2.510787e+001 -7.985341e+001 2.585565e+000 -6.490064e+001 -9.158721e+001 -1.274318e+002 -1.990481e+001 -1.154122e+002
3154218750 -2.381995e+001 -7.369807e+001 2.389505e+000 -1.277021e+002 -9.164346e+001 -1.799267e+002 -1.948244e+001 -1.101266e+002
3155312500 -2.286594e+001 -6.696291e+001 2.233582e+000 1.699533e+002 -8.765822e+001 -1.515797e+002 -1.922228e+001 -1.045261e+002
3156406250 -2.218247e+001 -5.999133e+001 2.101519e+000 1.078102e+002 -8.791637e+001 7.944383e+001 -1.915451e+001 -9.910229e+001
3157500000 -2.172101e+001 -5.280739e+001 2.018113e+000 4.593832e+001 -8.367562e+001 -1.049009e+002 -1.923311e+001 -9.375918e+001
3158593750 -2.147386e+001 -4.551191e+001 1.988424e+000 -1.579974e+001 -8.687410e+001 -5.217335e+001 -1.950323e+001 -8.860287e+001
3159687500 -2.142396e+001 -3.814924e+001 2.008924e+000 -7.762409e+001 -8.239137e+001 -1.754112e+002 -1.996545e+001 -8.394520e+001
3160781250 -2.157190e+001 -3.064665e+001 2.076352e+000 -1.396115e+002 -8.252501e+001 -7.099958e+001 -2.058398e+001 -7.976271e+001
3161875000 -2.194033e+001 -2.296648e+001 2.171175e+000 1.581498e+002 -1.030656e+002 1.544283e+002 -2.144180e+001 -7.638694e+001
3162968750 -2.247911e+001 -1.546501e+001 2.291699e+000 9.552692e+001 -8.708723e+001 6.977471e+001 -2.250760e+001 -7.456071e+001
3164062500 -2.328448e+001 -7.789253e+000 2.396538e+000 3.259485e+001 -9.961951e+001 -3.048009e+000 -2.375601e+001 -7.477435e+001
