!Agilent Technologies,E8363B,MY43030572,A.06.04.32
!Agilent E8363B: A.06.04.32
!Date: Monday, June 06, 2011 14:41:43
!Correction: S11(Full 2 Port(1,2)) S21(Full 2 Port(1,2)) S12(Full 2 Port(1,2)) S22(Full 2 Port(1,2)) 
!S2P File: Measurements: S11, S21, S12, S22:
# Hz S  dB   R 50
3000000000 -2.078596e+001 5.493290e+001 -2.730258e+000 6.981085e+001 -8.267550e+001 1.319612e+002 -1.645078e+001 -2.363364e+001
3001093750 -2.029547e+001 6.325901e+001 -3.499058e+000 4.231729e+000 -8.703963e+001 -2.521089e+001 -1.674557e+001 -2.005825e+001
3002187500 -1.998962e+001 7.186053e+001 -3.466365e+000 -5.815412e+001 -8.670302e+001 -1.590276e+002 -1.711919e+001 -1.620980e+001
3003281250 -1.991631e+001 8.063705e+001 -3.429605e+000 -1.207494e+002 -8.887108e+001 -1.167496e+001 -1.765726e+001 -1.284735e+001
3004375000 -2.003289e+001 8.940929e+001 -3.402964e+000 1.768172e+002 -8.405247e+001 -6.862826e+001 -1.831295e+001 -1.022933e+001
3005468750 -2.034223e+001 9.831329e+001 -3.373886e+000 1.144212e+002 -8.778071e+001 -8.951163e+000 -1.911897e+001 -8.612359e+000
3006562500 -2.088065e+001 1.073402e+002 -3.323389e+000 5.206633e+001 -8.294230e+001 1.121289e+002 -2.005907e+001 -8.616399e+000
3007656250 -2.167460e+001 1.165025e+002 -3.263743e+000 -1.023699e+001 -8.775676e+001 1.375059e+002 -2.110174e+001 -1.083805e+001
3008750000 -2.279016e+001 1.261964e+002 -3.171647e+000 -7.266203e+001 -8.962165e+001 -8.134103e+001 -2.207063e+001 -1.530883e+001
3009843750 -2.427908e+001 1.367079e+002 -3.055419e+000 -1.352380e+002 -8.327657e+001 8.677745e+001 -2.275486e+001 -2.286186e+001
3010937500 -2.635530e+001 1.482947e+002 -2.937736e+000 1.619019e+002 -8.539542e+001 2.515710e+001 -2.297768e+001 -3.177387e+001
3012031250 -2.927916e+001 1.634008e+002 -2.823599e+000 9.885858e+001 -8.202821e+001 1.152410e+002 -2.262111e+001 -4.030463e+001
3013125000 -3.358083e+001 -1.722188e+002 -2.747453e+000 3.573755e+001 -7.695586e+001 8.786691e+000 -2.182461e+001 -4.653092e+001
3014218750 -3.768633e+001 -1.145952e+002 -2.697251e+000 -2.743716e+001 -8.150114e+001 7.244301e+000 -2.089377e+001 -5.006112e+001
3015312500 -3.373148e+001 -5.393595e+001 -2.662094e+000 -9.051344e+001 -8.770463e+001 -1.049913e+001 -1.995809e+001 -5.116464e+001
3016406250 -2.926504e+001 -2.849763e+001 -2.658839e+000 -1.534346e+002 -9.392046e+001 1.370271e+002 -1.914042e+001 -5.049189e+001
3017500000 -2.619969e+001 -1.347364e+001 -2.644773e+000 1.438263e+002 -8.931496e+001 1.130511e+002 -1.845870e+001 -4.839658e+001
3018593750 -2.399538e+001 -1.606253e+000 -2.623926e+000 8.127338e+001 -8.881731e+001 8.721127e+001 -1.792130e+001 -4.541655e+001
3019687500 -2.237187e+001 8.574389e+000 -2.575733e+000 1.877873e+001 -9.157358e+001 5.951026e+001 -1.755022e+001 -4.191282e+001
3020781250 -2.114391e+001 1.840003e+001 -2.524068e+000 -4.373502e+001 -8.148354e+001 -1.854058e+001 -1.732974e+001 -3.787782e+001
3021875000 -2.023421e+001 2.762276e+001 -2.449380e+000 -1.064143e+002 -8.101765e+001 -2.464119e+001 -1.725264e+001 -3.373390e+001
3022968750 -1.956163e+001 3.654425e+001 -2.381326e+000 -1.690473e+002 -9.193872e+001 5.486298e+000 -1.734403e+001 -2.938507e+001
3024062500 -1.912111e+001 4.537679e+001 -2.305009e+000 1.281740e+002 -8.116374e+001 1.325731e+002 -1.757113e+001 -2.521601e+001
3025156250 -1.885243e+001 5.394678e+001 -2.239673e+000 6.539745e+001 -8.576850e+001 -1.571302e+002 -1.796305e+001 -2.123578e+001
3026250000 -1.878543e+001 6.254944e+001 -2.169747e+000 2.588975e+000 -7.960542e+001 4.445490e+000 -1.852893e+001 -1.774858e+001
3027343750 -1.888705e+001 7.105558e+001 -2.108527e+000 -6.045649e+001 -9.185970e+001 6.612450e+001 -1.926956e+001 -1.510005e+001
3028437500 -1.917981e+001 7.948019e+001 -2.061886e+000 -1.233617e+002 -9.290572e+001 -1.077162e+002 -2.021788e+001 -1.340549e+001
3029531250 -1.968050e+001 8.776639e+001 -2.033434e+000 1.736582e+002 -8.799056e+001 -1.634047e+002 -2.132917e+001 -1.342839e+001
3030625000 -2.037947e+001 9.603503e+001 -2.022977e+000 1.108138e+002 -8.081207e+001 -5.208256e+001 -2.260723e+001 -1.594703e+001
3031718750 -2.135894e+001 1.042353e+002 -2.017877e+000 4.826405e+001 -8.291176e+001 9.158279e+001 -2.384210e+001 -2.201994e+001
3032812500 -2.265571e+001 1.123058e+002 -1.989040e+000 -1.422395e+001 -7.941505e+001 4.437188e+001 -2.471593e+001 -3.212378e+001
3033906250 -2.436630e+001 1.202288e+002 -1.934286e+000 -7.658009e+001 -8.653905e+001 5.255903e+001 -2.484951e+001 -4.433996e+001
3035000000 -2.674195e+001 1.275392e+002 -1.848255e+000 -1.389392e+002 -8.582240e+001 -1.497591e+002 -2.411772e+001 -5.509936e+001
3036093750 -3.029481e+001 1.344387e+002 -1.737548e+000 1.584504e+002 -8.381171e+001 1.767409e+002 -2.296010e+001 -6.232505e+001
3037187500 -3.650199e+001 1.378781e+002 -1.624196e+000 9.562140e+001 -8.580906e+001 6.098120e+001 -2.171018e+001 -6.554680e+001
3038281250 -5.118021e+001 3.865207e+001 -1.518464e+000 3.256201e+001 -8.212965e+001 1.681599e+002 -2.056149e+001 -6.599446e+001
3039375000 -3.534058e+001 -7.680016e+000 -1.426253e+000 -3.065960e+001 -8.176839e+001 1.235930e+002 -1.960648e+001 -6.446891e+001
3040468750 -2.990118e+001 -2.814120e+000 -1.346313e+000 -9.397585e+001 -8.379146e+001 1.695039e+002 -1.883265e+001 -6.175148e+001
3041562500 -2.674755e+001 3.884651e+000 -1.301718e+000 -1.573694e+002 -8.729797e+001 -6.353923e+001 -1.824429e+001 -5.809362e+001
3042656250 -2.463434e+001 1.180511e+001 -1.276664e+000 1.391891e+002 -9.250767e+001 -1.696253e+002 -1.785263e+001 -5.392973e+001
3043750000 -2.310630e+001 1.994507e+001 -1.276028e+000 7.571301e+001 -7.907402e+001 -2.751642e+001 -1.761031e+001 -4.936133e+001
3044843750 -2.204421e+001 2.830237e+001 -1.315995e+000 1.246695e+001 -8.909910e+001 -2.916089e+001 -1.754482e+001 -4.466592e+001
3045937500 -2.124760e+001 3.703672e+001 -1.370075e+000 -5.058982e+001 -9.614709e+001 -1.282079e+002 -1.765212e+001 -3.994533e+001
3047031250 -2.072917e+001 4.564000e+001 -1.433228e+000 -1.132898e+002 -8.721246e+001 -2.158151e+001 -1.792522e+001 -3.506633e+001
3048125000 -2.045044e+001 5.453003e+001 -1.475307e+000 -1.757472e+002 -8.296222e+001 4.712200e+001 -1.837341e+001 -3.069855e+001
3049218750 -2.037639e+001 6.350168e+001 -1.496396e+000 1.219672e+002 -8.599778e+001 -6.858010e+000 -1.904582e+001 -2.678092e+001
3050312500 -2.052394e+001 7.294433e+001 -1.492585e+000 5.971660e+001 -7.969830e+001 3.381261e+001 -1.992995e+001 -2.330326e+001
3051406250 -2.084006e+001 8.262181e+001 -1.453215e+000 -2.648436e+000 -8.542710e+001 1.684207e+002 -2.109727e+001 -2.139615e+001
3052500000 -2.140421e+001 9.275562e+001 -1.412810e+000 -6.488087e+001 -8.015174e+001 -1.544032e+002 -2.251837e+001 -2.133113e+001
3053593750 -2.218797e+001 1.037769e+002 -1.346135e+000 -1.272256e+002 -8.821281e+001 1.704592e+002 -2.424689e+001 -2.473374e+001
3054687500 -2.322368e+001 1.153284e+002 -1.264130e+000 1.703987e+002 -8.586024e+001 -4.413512e+001 -2.601551e+001 -3.425434e+001
3055781250 -2.457334e+001 1.290622e+002 -1.143373e+000 1.077815e+002 -8.758305e+001 -1.171906e+002 -2.713158e+001 -5.073628e+001
3056875000 -2.621028e+001 1.454494e+002 -1.006109e+000 4.494004e+001 -9.371870e+001 1.022669e+002 -2.669568e+001 -6.963567e+001
3057968750 -2.808038e+001 1.666704e+002 -8.841730e-001 -1.840267e+001 -8.606865e+001 -4.817296e+000 -2.501841e+001 -8.320261e+001
3059062500 -2.958445e+001 -1.645449e+002 -7.858794e-001 -8.194567e+001 -8.119421e+001 -1.633419e+002 -2.308455e+001 -8.958270e+001
3060156250 -2.986769e+001 -1.309368e+002 -7.487331e-001 -1.456504e+002 -9.346864e+001 5.015489e+001 -2.137081e+001 -9.109655e+001
3061250000 -2.860951e+001 -1.002866e+002 -7.568285e-001 1.507258e+002 -8.530206e+001 8.635218e+001 -1.993540e+001 -8.984359e+001
3062343750 -2.676985e+001 -7.680138e+001 -8.081731e-001 8.730207e+001 -8.466539e+001 -1.714299e+002 -1.876481e+001 -8.692156e+001
3063437500 -2.500021e+001 -5.916729e+001 -8.809860e-001 2.417574e+001 -1.095831e+002 -6.956731e+001 -1.784126e+001 -8.301675e+001
3064531250 -2.355770e+001 -4.491202e+001 -9.462683e-001 -3.878484e+001 -8.610602e+001 -2.452579e+001 -1.710856e+001 -7.857078e+001
3065625000 -2.241841e+001 -3.280161e+001 -1.027645e+000 -1.014988e+002 -8.073963e+001 -5.674404e+001 -1.655925e+001 -7.344573e+001
3066718750 -2.153593e+001 -2.185590e+001 -1.097731e+000 -1.640234e+002 -8.295857e+001 -1.455333e+002 -1.616766e+001 -6.825072e+001
3067812500 -2.090140e+001 -1.157306e+001 -1.161102e+000 1.336312e+002 -1.075951e+002 -1.237679e+002 -1.592752e+001 -6.301765e+001
3068906250 -2.045277e+001 -2.053059e+000 -1.204992e+000 7.136635e+001 -9.275413e+001 -1.778971e+002 -1.581654e+001 -5.752404e+001
3070000000 -2.023476e+001 7.163688e+000 -1.221680e+000 9.248252e+000 -9.226869e+001 9.986234e+001 -1.585640e+001 -5.218578e+001
3071093750 -2.019417e+001 1.592908e+001 -1.214112e+000 -5.287947e+001 -8.403340e+001 -8.747466e+001 -1.601077e+001 -4.678482e+001
3072187500 -2.036521e+001 2.457533e+001 -1.178296e+000 -1.151800e+002 -8.790977e+001 1.246336e+002 -1.631286e+001 -4.166926e+001
3073281250 -2.071940e+001 3.264174e+001 -1.130054e+000 -1.774697e+002 -8.949626e+001 7.872270e+001 -1.675068e+001 -3.680262e+001
3074375000 -2.127928e+001 4.050170e+001 -1.057714e+000 1.201264e+002 -9.800749e+001 5.969205e+000 -1.732964e+001 -3.215046e+001
3075468750 -2.210468e+001 4.798513e+001 -9.753075e-001 5.771190e+001 -8.495339e+001 -7.355890e+001 -1.806628e+001 -2.823422e+001
3076562500 -2.325156e+001 5.495090e+001 -8.687119e-001 -4.810004e+000 -8.659769e+001 1.217728e+002 -1.898156e+001 -2.502328e+001
3077656250 -2.476607e+001 6.092799e+001 -7.392691e-001 -6.750899e+001 -8.765536e+001 1.004295e+002 -2.007705e+001 -2.295847e+001
3078750000 -2.683665e+001 6.565340e+001 -6.062139e-001 -1.304700e+002 -8.559349e+001 6.085562e+001 -2.136726e+001 -2.252625e+001
3079843750 -2.971714e+001 6.651936e+001 -4.827510e-001 1.662572e+002 -8.741844e+001 -2.646022e+000 -2.280022e+001 -2.460690e+001
3080937500 -3.376715e+001 5.794027e+001 -4.044090e-001 1.027981e+002 -9.440675e+001 -1.556231e+002 -2.428988e+001 -3.020936e+001
3082031250 -3.748827e+001 2.057822e+001 -3.851334e-001 3.937009e+001 -8.606961e+001 -3.459103e+001 -2.551099e+001 -4.004940e+001
3083125000 -3.425874e+001 -2.087012e+001 -3.903181e-001 -2.393917e+001 -8.014020e+001 1.386573e+002 -2.596390e+001 -5.322576e+001
3084218750 -3.005966e+001 -3.184758e+001 -4.212627e-001 -8.718325e+001 -8.786515e+001 -9.137830e+001 -2.557825e+001 -6.606373e+001
3085312500 -2.709195e+001 -3.115169e+001 -4.736856e-001 -1.501012e+002 -9.542124e+001 1.443387e+002 -2.451394e+001 -7.490903e+001
3086406250 -2.497918e+001 -2.706907e+001 -5.226115e-001 1.469178e+002 -8.753833e+001 5.533442e+001 -2.333563e+001 -7.993125e+001
3087500000 -2.341835e+001 -2.129363e+001 -5.746526e-001 8.414292e+001 -8.459408e+001 -1.780612e+002 -2.224699e+001 -8.149053e+001
3088593750 -2.226361e+001 -1.460683e+001 -6.225888e-001 2.137724e+001 -9.055700e+001 9.403988e+001 -2.128000e+001 -8.145634e+001
3089687500 -2.138662e+001 -7.512760e+000 -6.506989e-001 -4.123082e+001 -9.293283e+001 -1.718349e+001 -2.052905e+001 -7.999785e+001
3090781250 -2.075744e+001 -1.032033e-001 -6.710948e-001 -1.037125e+002 -8.781178e+001 -7.919088e+001 -1.995230e+001 -7.785667e+001
3091875000 -2.038937e+001 7.397280e+000 -6.516075e-001 -1.661613e+002 -8.591280e+001 -9.886325e+001 -1.953625e+001 -7.525332e+001
3092968750 -2.020317e+001 1.531009e+001 -6.181402e-001 1.313064e+002 -8.884546e+001 -1.119104e+002 -1.926025e+001 -7.249119e+001
3094062500 -2.022047e+001 2.326825e+001 -5.708902e-001 6.860184e+001 -8.254306e+001 -5.723874e+000 -1.910718e+001 -6.975690e+001
3095156250 -2.040459e+001 3.128366e+001 -5.087681e-001 5.718539e+000 -9.191501e+001 7.569531e+000 -1.905536e+001 -6.699992e+001
3096250000 -2.080399e+001 3.951993e+001 -4.711101e-001 -5.721609e+001 -9.892003e+001 -7.833951e+001 -1.911058e+001 -6.457195e+001
3097343750 -2.143009e+001 4.787750e+001 -4.380962e-001 -1.201740e+002 -9.193396e+001 6.743151e+001 -1.924639e+001 -6.251927e+001
3098437500 -2.230183e+001 5.658203e+001 -4.403888e-001 1.767190e+002 -7.921011e+001 -1.695476e+002 -1.945529e+001 -6.088839e+001
3099531250 -2.343836e+001 6.548788e+001 -4.550541e-001 1.136048e+002 -8.021880e+001 -9.022406e+001 -1.969217e+001 -5.965108e+001
3100625000 -2.499804e+001 7.491467e+001 -5.164879e-001 5.057156e+001 -8.786349e+001 -1.221412e+002 -1.995199e+001 -5.913094e+001
3101718750 -2.704343e+001 8.502268e+001 -5.829930e-001 -1.242197e+001 -7.879675e+001 -5.666802e+001 -2.020879e+001 -5.901768e+001
3102812500 -2.997165e+001 9.786450e+001 -6.668368e-001 -7.513224e+001 -8.164301e+001 8.597437e+001 -2.041475e+001 -5.942418e+001
3103906250 -3.436258e+001 1.166339e+002 -7.580724e-001 -1.378002e+002 -8.696407e+001 1.713483e+001 -2.059718e+001 -5.994171e+001
3105000000 -4.062032e+001 1.661578e+002 -8.472533e-001 1.597638e+002 -9.018426e+001 -3.123289e+001 -2.070237e+001 -6.072276e+001
3106093750 -3.765335e+001 -1.153705e+002 -9.133213e-001 9.741597e+001 -8.970568e+001 -1.565696e+002 -2.075195e+001 -6.146738e+001
3107187500 -3.222036e+001 -8.721995e+001 -9.553240e-001 3.520620e+001 -8.866622e+001 -3.144272e+001 -2.077721e+001 -6.183919e+001
3108281250 -2.887844e+001 -7.228249e+001 -9.820322e-001 -2.693110e+001 -8.304492e+001 1.552255e+002 -2.076203e+001 -6.192179e+001
3109375000 -2.659111e+001 -6.091877e+001 -9.912648e-001 -8.907689e+001 -8.353224e+001 -1.437364e+002 -2.076330e+001 -6.185071e+001
3110468750 -2.499734e+001 -5.119230e+001 -9.659125e-001 -1.511882e+002 -8.677842e+001 9.094340e+001 -2.078459e+001 -6.126480e+001
3111562500 -2.382609e+001 -4.213204e+001 -9.303249e-001 1.466531e+002 -8.423267e+001 -1.129224e+002 -2.085961e+001 -6.058990e+001
3112656250 -2.303036e+001 -3.342443e+001 -8.845053e-001 8.448700e+001 -9.740063e+001 -1.728273e+002 -2.097822e+001 -5.983129e+001
3113750000 -2.250342e+001 -2.498166e+001 -8.179341e-001 2.216012e+001 -9.785931e+001 8.757305e+001 -2.118497e+001 -5.898877e+001
3114843750 -2.223149e+001 -1.681868e+001 -7.681084e-001 -4.024904e+001 -9.505256e+001 1.303995e+002 -2.146949e+001 -5.832187e+001
3115937500 -2.218107e+001 -8.788567e+000 -7.269710e-001 -1.028008e+002 -8.293387e+001 -1.264464e+002 -2.182607e+001 -5.800032e+001
3117031250 -2.235548e+001 -9.863496e-001 -6.837475e-001 -1.653544e+002 -8.108649e+001 1.401612e+002 -2.223365e+001 -5.845993e+001
3118125000 -2.278022e+001 6.944130e+000 -6.526864e-001 1.320649e+002 -8.178247e+001 1.488379e+002 -2.268722e+001 -5.952534e+001
3119218750 -2.344374e+001 1.442975e+001 -6.301134e-001 6.943678e+001 -8.210003e+001 1.007681e+001 -2.311539e+001 -6.160304e+001
3120312500 -2.440210e+001 2.169108e+001 -6.263586e-001 6.791133e+000 -8.119939e+001 -1.028340e+002 -2.346713e+001 -6.470204e+001
3121406250 -2.574220e+001 2.866565e+001 -6.401575e-001 -5.576599e+001 -1.067403e+002 5.774827e+001 -2.366893e+001 -6.847408e+001
3122500000 -2.758874e+001 3.463976e+001 -6.349533e-001 -1.182250e+002 -9.111951e+001 -1.495024e+002 -2.367704e+001 -7.280476e+001
3123593750 -3.019907e+001 3.922630e+001 -6.460009e-001 1.795984e+002 -9.123507e+001 1.151354e+002 -2.348937e+001 -7.682234e+001
3124687500 -3.417815e+001 3.958080e+001 -6.278188e-001 1.175793e+002 -8.028980e+001 -8.343997e+001 -2.309745e+001 -7.985970e+001
3125781250 -4.101144e+001 2.111961e+001 -5.610980e-001 5.564369e+001 -9.788855e+001 -1.083771e+002 -2.263462e+001 -8.184653e+001
3126875000 -4.088233e+001 -5.916537e+001 -4.493051e-001 -6.256524e+000 -9.111522e+001 -2.294600e+001 -2.213636e+001 -8.256001e+001
3127968750 -3.409516e+001 -7.790339e+001 -2.884170e-001 -6.830310e+001 -8.643867e+001 -3.433913e+001 -2.166117e+001 -8.182970e+001
3129062500 -3.020050e+001 -7.724683e+001 -1.002073e-001 -1.308470e+002 -9.627461e+001 1.306624e+002 -2.123954e+001 -8.040371e+001
3130156250 -2.757515e+001 -7.270525e+001 8.703919e-002 1.664253e+002 -8.042460e+001 -1.414988e+002 -2.091368e+001 -7.822128e+001
3131250000 -2.570639e+001 -6.693346e+001 2.473090e-001 1.033641e+002 -8.228818e+001 1.616693e+002 -2.071152e+001 -7.514663e+001
3132343750 -2.437503e+001 -6.018890e+001 3.808441e-001 4.003772e+001 -8.304305e+001 8.581285e+001 -2.062640e+001 -7.177718e+001
3133437500 -2.337951e+001 -5.325135e+001 4.787127e-001 -2.338640e+001 -8.375289e+001 -1.346088e+002 -2.070900e+001 -6.796599e+001
3134531250 -2.271994e+001 -4.616901e+001 5.232772e-001 -8.685569e+001 -8.670039e+001 4.165051e+001 -2.094674e+001 -6.410507e+001
3135625000 -2.227018e+001 -3.882275e+001 5.341669e-001 -1.502012e+002 -8.301999e+001 9.051891e+001 -2.133029e+001 -6.004253e+001
3136718750 -2.208315e+001 -3.160709e+001 5.290844e-001 1.466283e+002 -8.382758e+001 -8.294084e+001 -2.191424e+001 -5.602272e+001
3137812500 -2.209192e+001 -2.444956e+001 5.113003e-001 8.365280e+001 -9.160354e+001 -9.845397e+001 -2.274154e+001 -5.259393e+001
3138906250 -2.232545e+001 -1.741746e+001 5.158440e-001 2.081075e+001 -8.565619e+001 7.398026e+000 -2.386047e+001 -4.983002e+001
3140000000 -2.274354e+001 -1.027644e+001 5.343490e-001 -4.185627e+001 -8.598080e+001 -1.472173e+002 -2.529631e+001 -4.816966e+001
3141093750 -2.347316e+001 -3.560727e+000 5.782965e-001 -1.045437e+002 -8.432988e+001 1.121868e+002 -2.720818e+001 -4.918249e+001
3142187500 -2.447111e+001 2.895448e+000 6.462563e-001 -1.674139e+002 -8.514554e+001 -5.912755e+001 -2.951617e+001 -5.552742e+001
3143281250 -2.584054e+001 8.674056e+000 7.122755e-001 1.296711e+002 -9.043247e+001 -5.129201e+001 -3.193719e+001 -7.180990e+001
3144375000 -2.771004e+001 1.315966e+001 7.647344e-001 6.668644e+001 -8.492059e+001 -1.342303e+002 -3.251288e+001 -9.914116e+001
3145468750 -3.036659e+001 1.544121e+001 8.065225e-001 3.641858e+000 -8.958354e+001 1.498095e+002 -3.046711e+001 -1.212607e+002
3146562500 -3.413077e+001 1.112975e+001 8.546888e-001 -5.937347e+001 -8.523399e+001 1.087785e+002 -2.785777e+001 -1.310448e+002
3147656250 -3.891022e+001 -1.778675e+001 8.914163e-001 -1.225903e+002 -8.316099e+001 -1.564569e+001 -2.558990e+001 -1.335975e+002
3148750000 -3.732078e+001 -7.027824e+001 9.221137e-001 1.741340e+002 -8.820840e+001 3.201643e+001 -2.382710e+001 -1.324529e+002
3149843750 -3.259597e+001 -8.670869e+001 9.235049e-001 1.106096e+002 -8.338705e+001 -1.678723e+002 -2.244966e+001 -1.294207e+002
3150937500 -2.922421e+001 -8.837000e+001 9.014296e-001 4.709876e+001 -9.540475e+001 -1.229637e+002 -2.134034e+001 -1.254447e+002
3152031250 -2.681651e+001 -8.510506e+001 8.279961e-001 -1.632062e+001 -9.316559e+001 1.409137e+001 -2.051522e+001 -1.206517e+002
3153125000 -2.509689e+001 -7.990874e+001 7.365282e-001 -7.955892e+001 -8.127841e+001 1.663263e+002 -1.990412e+001 -1.154466e+002
3154218750 -2.382522e+001 -7.373824e+001 5.953763e-001 -1.425755e+002 -9.140302e+001 -1.327494e+002 -1.949302e+001 -1.101576e+002
3155312500 -2.285699e+001 -6.697081e+001 4.710818e-001 1.548723e+002 -8.761251e+001 -9.502334e+001 -1.923889e+001 -1.045931e+002
3156406250 -2.217844e+001 -6.004310e+001 3.617324e-001 9.252032e+001 -8.272458e+001 -6.880127e+001 -1.916521e+001 -9.911443e+001
3157500000 -2.172023e+001 -5.282904e+001 2.858043e-001 3.050342e+001 -9.259242e+001 1.377550e+002 -1.924607e+001 -9.376199e+001
3158593750 -2.146538e+001 -4.554004e+001 2.736083e-001 -3.131328e+001 -8.457249e+001 -1.363802e+002 -1.951152e+001 -8.861797e+001
3159687500 -2.142630e+001 -3.817168e+001 2.967723e-001 -9.318344e+001 -8.822917e+001 -1.187386e+002 -1.997069e+001 -8.393692e+001
3160781250 -2.156695e+001 -3.068097e+001 3.679715e-001 -1.552109e+002 -9.423824e+001 -1.771862e+002 -2.056785e+001 -7.968075e+001
3161875000 -2.193689e+001 -2.293896e+001 4.611173e-001 1.425481e+002 -8.289521e+001 1.664388e+002 -2.144172e+001 -7.648854e+001
3162968750 -2.247933e+001 -1.556308e+001 5.716292e-001 7.995489e+001 -7.798843e+001 1.972443e+000 -2.249047e+001 -7.447832e+001
3164062500 -2.328775e+001 -7.823359e+000 6.790605e-001 1.710977e+001 -8.767962e+001 -1.334874e+002 -2.375530e+001 -7.479327e+001
