!Agilent Technologies,E8363B,MY43030572,A.06.04.32
!Agilent E8363B: A.06.04.32
!Date: Monday, June 06, 2011 14:46:56
!Correction: S11(Full 2 Port(1,2)) S21(Full 2 Port(1,2)) S12(Full 2 Port(1,2)) S22(Full 2 Port(1,2)) 
!S2P File: Measurements: S11, S21, S12, S22:
# Hz S  dB   R 50
3000000000 -2.084569e+001 5.485893e+001 -1.230091e+000 8.904825e+001 -8.661501e+001 4.431348e+001 -1.642905e+001 -2.361059e+001
3001093750 -2.036034e+001 6.310378e+001 -1.840991e+000 2.245448e+001 -9.625433e+001 1.536105e+002 -1.671425e+001 -1.995124e+001
3002187500 -2.004344e+001 7.168153e+001 -1.713049e+000 -4.076307e+001 -9.170890e+001 -1.102224e+002 -1.708929e+001 -1.614128e+001
3003281250 -1.996261e+001 8.050604e+001 -1.599882e+000 -1.044166e+002 -8.527824e+001 -3.594872e+001 -1.761816e+001 -1.282355e+001
3004375000 -2.006693e+001 8.931428e+001 -1.518983e+000 -1.680219e+002 -8.387910e+001 -1.726473e+002 -1.829200e+001 -1.024874e+001
3005468750 -2.036516e+001 9.811481e+001 -1.472820e+000 1.284425e+002 -8.083818e+001 -6.680632e+001 -1.908893e+001 -8.688462e+000
3006562500 -2.091179e+001 1.070332e+002 -1.442765e+000 6.494698e+001 -8.782442e+001 1.961779e+001 -2.003748e+001 -8.592255e+000
3007656250 -2.168904e+001 1.162416e+002 -1.424966e+000 1.628713e+000 -8.554478e+001 -4.807803e+001 -2.107044e+001 -1.077046e+001
3008750000 -2.280316e+001 1.257796e+002 -1.402507e+000 -6.156974e+001 -8.399619e+001 1.502687e+002 -2.203183e+001 -1.528372e+001
3009843750 -2.429775e+001 1.362185e+002 -1.376565e+000 -1.247390e+002 -8.345117e+001 6.594826e+001 -2.272567e+001 -2.264948e+001
3010937500 -2.637045e+001 1.475793e+002 -1.349985e+000 1.720704e+002 -7.942448e+001 -1.473701e+002 -2.294108e+001 -3.153663e+001
3012031250 -2.927724e+001 1.623918e+002 -1.324485e+000 1.090031e+002 -1.037086e+002 -9.293391e+001 -2.258365e+001 -4.015316e+001
3013125000 -3.364539e+001 -1.743875e+002 -1.290862e+000 4.590297e+001 -9.093269e+001 -6.292926e+001 -2.180225e+001 -4.640974e+001
3014218750 -3.815625e+001 -1.165323e+002 -1.253324e+000 -1.717390e+001 -8.167110e+001 1.722463e+002 -2.086547e+001 -4.996292e+001
3015312500 -3.408509e+001 -5.323985e+001 -1.205378e+000 -8.032478e+001 -8.764458e+001 1.557042e+002 -1.993513e+001 -5.116369e+001
3016406250 -2.946852e+001 -2.765669e+001 -1.166735e+000 -1.434862e+002 -8.520756e+001 1.499270e+002 -1.913043e+001 -5.037385e+001
3017500000 -2.632003e+001 -1.282620e+001 -1.121911e+000 1.532398e+002 -8.807275e+001 1.862207e+001 -1.843984e+001 -4.832325e+001
3018593750 -2.411029e+001 -1.191735e+000 -1.086551e+000 8.997571e+001 -8.613832e+001 2.138289e+001 -1.790108e+001 -4.527528e+001
3019687500 -2.247449e+001 8.996864e+000 -1.044814e+000 2.668222e+001 -8.572118e+001 -4.007139e+001 -1.753058e+001 -4.181561e+001
3020781250 -2.123552e+001 1.875529e+001 -1.007243e+000 -3.668486e+001 -8.619499e+001 1.435742e+002 -1.729597e+001 -3.781276e+001
3021875000 -2.029672e+001 2.798730e+001 -9.692172e-001 -1.002194e+002 -8.366744e+001 7.347420e+000 -1.722206e+001 -3.358520e+001
3022968750 -1.963022e+001 3.689223e+001 -9.565106e-001 -1.637906e+002 -9.548651e+001 1.037500e+002 -1.730818e+001 -2.936014e+001
3024062500 -1.919067e+001 4.570021e+001 -9.686301e-001 1.325146e+002 -9.506022e+001 1.331168e+002 -1.755062e+001 -2.516253e+001
3025156250 -1.891063e+001 5.422094e+001 -1.027704e+000 6.881886e+001 -8.379888e+001 -5.964808e+001 -1.793222e+001 -2.120193e+001
3026250000 -1.884852e+001 6.283924e+001 -1.116410e+000 5.322144e+000 -8.280238e+001 7.912917e+001 -1.850698e+001 -1.771302e+001
3027343750 -1.895153e+001 7.132637e+001 -1.237652e+000 -5.814518e+001 -8.320391e+001 -1.172396e+002 -1.925622e+001 -1.504968e+001
3028437500 -1.924827e+001 7.974247e+001 -1.385639e+000 -1.213032e+002 -8.429333e+001 1.596570e+002 -2.018816e+001 -1.340659e+001
3029531250 -1.973432e+001 8.806773e+001 -1.529959e+000 1.757952e+002 -9.185573e+001 -1.086664e+002 -2.130131e+001 -1.334196e+001
3030625000 -2.045811e+001 9.626409e+001 -1.703635e+000 1.131136e+002 -8.611739e+001 -1.748840e+002 -2.256035e+001 -1.596375e+001
3031718750 -2.142120e+001 1.044958e+002 -1.851594e+000 5.076301e+001 -8.541678e+001 1.473859e+002 -2.379580e+001 -2.196948e+001
3032812500 -2.272688e+001 1.125816e+002 -1.976944e+000 -1.121889e+001 -9.236391e+001 -8.703207e+001 -2.467916e+001 -3.200245e+001
3033906250 -2.445866e+001 1.203435e+002 -2.052943e+000 -7.298840e+001 -7.745232e+001 -1.015652e+002 -2.479592e+001 -4.437832e+001
3035000000 -2.686470e+001 1.277984e+002 -2.061502e+000 -1.347665e+002 -8.110530e+001 9.122783e+001 -2.409844e+001 -5.511540e+001
3036093750 -3.044247e+001 1.343899e+002 -2.004575e+000 1.632430e+002 -8.123396e+001 1.094784e+002 -2.292954e+001 -6.213298e+001
3037187500 -3.681091e+001 1.379426e+002 -1.932817e+000 1.009182e+002 -8.102437e+001 -4.444934e+000 -2.169418e+001 -6.540744e+001
3038281250 -5.079699e+001 3.442399e+001 -1.857685e+000 3.820449e+001 -8.352808e+001 4.251238e+001 -2.054957e+001 -6.586430e+001
3039375000 -3.517436e+001 -7.449848e+000 -1.802813e+000 -2.482697e+001 -9.314384e+001 1.532212e+002 -1.958475e+001 -6.432793e+001
3040468750 -2.981664e+001 -2.753532e+000 -1.785256e+000 -8.799482e+001 -8.295279e+001 1.051316e+002 -1.880876e+001 -6.156733e+001
3041562500 -2.669516e+001 4.234732e+000 -1.822087e+000 -1.511435e+002 -8.555609e+001 6.574261e+001 -1.822560e+001 -5.800040e+001
3042656250 -2.458842e+001 1.195906e+001 -1.892124e+000 1.457442e+002 -8.598288e+001 -1.711363e+002 -1.782104e+001 -5.380071e+001
3043750000 -2.307744e+001 2.019916e+001 -1.996830e+000 8.280898e+001 -8.648956e+001 -1.733823e+002 -1.759309e+001 -4.934826e+001
3044843750 -2.200813e+001 2.854303e+001 -2.133381e+000 2.027629e+001 -8.547600e+001 1.188625e+002 -1.753531e+001 -4.458262e+001
3045937500 -2.123224e+001 3.715933e+001 -2.263141e+000 -4.193287e+001 -8.850875e+001 1.750827e+002 -1.763274e+001 -3.990718e+001
3047031250 -2.070849e+001 4.586907e+001 -2.381328e+000 -1.037514e+002 -8.160979e+001 7.424785e+001 -1.790987e+001 -3.500496e+001
3048125000 -2.042332e+001 5.474145e+001 -2.442246e+000 -1.653190e+002 -9.692535e+001 9.097436e+001 -1.835724e+001 -3.066148e+001
3049218750 -2.035781e+001 6.386528e+001 -2.466950e+000 1.332147e+002 -8.759077e+001 -1.531412e+001 -1.901250e+001 -2.665603e+001
3050312500 -2.050047e+001 7.322130e+001 -2.426416e+000 7.173229e+001 -8.034111e+001 -1.518506e+002 -1.989837e+001 -2.337314e+001
3051406250 -2.081982e+001 8.299888e+001 -2.347298e+000 9.888050e+000 -8.723083e+001 -1.467707e+001 -2.105637e+001 -2.142140e+001
3052500000 -2.135372e+001 9.309193e+001 -2.260395e+000 -5.189906e+001 -9.290020e+001 4.199858e+001 -2.248070e+001 -2.138810e+001
3053593750 -2.214873e+001 1.040779e+002 -2.153256e+000 -1.139407e+002 -8.512035e+001 4.261383e+001 -2.418908e+001 -2.476985e+001
3054687500 -2.318825e+001 1.159351e+002 -2.037929e+000 -1.759388e+002 -8.005096e+001 -1.320261e+002 -2.601103e+001 -3.407119e+001
3055781250 -2.452283e+001 1.295374e+002 -1.887233e+000 1.217820e+002 -8.462933e+001 -1.343798e+002 -2.709566e+001 -5.065257e+001
3056875000 -2.612517e+001 1.459589e+002 -1.719847e+000 5.925278e+001 -8.847580e+001 -1.047670e+002 -2.663868e+001 -6.950289e+001
3057968750 -2.795171e+001 1.671768e+002 -1.565263e+000 -3.754547e+000 -7.668157e+001 -1.563825e+002 -2.499894e+001 -8.292758e+001
3059062500 -2.943279e+001 -1.643767e+002 -1.423208e+000 -6.703761e+001 -8.396869e+001 -6.947356e+001 -2.306670e+001 -8.923730e+001
3060156250 -2.973221e+001 -1.311947e+002 -1.352919e+000 -1.305701e+002 -7.961007e+001 3.715542e+001 -2.134250e+001 -9.089511e+001
3061250000 -2.852905e+001 -1.007441e+002 -1.344981e+000 1.659227e+002 -8.636396e+001 1.682229e+000 -1.991786e+001 -8.959502e+001
3062343750 -2.669181e+001 -7.715887e+001 -1.372289e+000 1.026187e+002 -8.292827e+001 -4.320514e+001 -1.873907e+001 -8.675613e+001
3063437500 -2.496100e+001 -5.938635e+001 -1.430271e+000 3.951032e+001 -9.546835e+001 1.087262e+002 -1.782314e+001 -8.300558e+001
3064531250 -2.352337e+001 -4.521024e+001 -1.501330e+000 -2.346722e+001 -9.974034e+001 1.961692e+001 -1.708688e+001 -7.846928e+001
3065625000 -2.237980e+001 -3.297951e+001 -1.597700e+000 -8.619350e+001 -9.017168e+001 -6.469263e+001 -1.654406e+001 -7.341754e+001
3066718750 -2.150942e+001 -2.204727e+001 -1.708617e+000 -1.487517e+002 -7.915557e+001 -1.114366e+002 -1.615690e+001 -6.821881e+001
3067812500 -2.086908e+001 -1.169806e+001 -1.817626e+000 1.490325e+002 -8.553670e+001 -8.941124e+001 -1.591909e+001 -6.287618e+001
3068906250 -2.043011e+001 -2.088378e+000 -1.919565e+000 8.707608e+001 -8.523180e+001 -1.371398e+002 -1.580147e+001 -5.744185e+001
3070000000 -2.019288e+001 7.094478e+000 -1.983930e+000 2.537549e+001 -8.654797e+001 1.062634e+002 -1.582839e+001 -5.206941e+001
3071093750 -2.016829e+001 1.589150e+001 -2.012946e+000 -3.617359e+001 -8.895093e+001 1.361584e+002 -1.599060e+001 -4.677166e+001
3072187500 -2.032074e+001 2.449131e+001 -2.014472e+000 -9.782288e+001 -8.040075e+001 2.210421e+001 -1.629049e+001 -4.152364e+001
3073281250 -2.067344e+001 3.265099e+001 -1.979018e+000 -1.593065e+002 -8.959821e+001 -1.170004e+002 -1.673357e+001 -3.669312e+001
3074375000 -2.123555e+001 4.059925e+001 -1.905837e+000 1.391963e+002 -8.979462e+001 1.251095e+002 -1.731747e+001 -3.216099e+001
3075468750 -2.204390e+001 4.807551e+001 -1.802459e+000 7.777966e+001 -8.697986e+001 1.434717e+002 -1.804247e+001 -2.823773e+001
3076562500 -2.318144e+001 5.510550e+001 -1.635143e+000 1.622276e+001 -8.622407e+001 -4.989613e+001 -1.895905e+001 -2.505723e+001
3077656250 -2.467633e+001 6.113478e+001 -1.413988e+000 -4.559432e+001 -9.295175e+001 -1.343075e+001 -2.005232e+001 -2.291836e+001
3078750000 -2.670758e+001 6.572829e+001 -1.173836e+000 -1.078901e+002 -8.816754e+001 1.450470e+002 -2.133531e+001 -2.258104e+001
3079843750 -2.951223e+001 6.711046e+001 -9.317737e-001 -1.706524e+002 -8.509096e+001 7.290852e+001 -2.277721e+001 -2.463441e+001
3080937500 -3.349725e+001 5.952356e+001 -7.349125e-001 1.262324e+002 -8.481682e+001 -1.376854e+002 -2.423410e+001 -3.009986e+001
3082031250 -3.744421e+001 2.386069e+001 -6.032227e-001 6.302212e+001 -8.345293e+001 -8.254910e+001 -2.546960e+001 -4.007893e+001
3083125000 -3.452227e+001 -1.906663e+001 -4.991408e-001 -1.425305e-001 -8.857832e+001 1.350199e+002 -2.593967e+001 -5.306147e+001
3084218750 -3.025762e+001 -3.114580e+001 -4.214267e-001 -6.333762e+001 -8.331678e+001 -1.175630e+002 -2.551295e+001 -6.587571e+001
3085312500 -2.726452e+001 -3.077288e+001 -3.636892e-001 -1.262678e+002 -8.912724e+001 -1.340799e+002 -2.447087e+001 -7.473928e+001
3086406250 -2.510055e+001 -2.670996e+001 -3.134441e-001 1.706684e+002 -8.168472e+001 7.437115e+001 -2.330854e+001 -7.958941e+001
3087500000 -2.353432e+001 -2.110769e+001 -2.812458e-001 1.077539e+002 -7.972146e+001 -2.964500e+001 -2.220743e+001 -8.141565e+001
3088593750 -2.234285e+001 -1.447868e+001 -2.586704e-001 4.490856e+001 -9.459854e+001 1.635498e+002 -2.125787e+001 -8.121357e+001
3089687500 -2.146395e+001 -7.373385e+000 -2.312771e-001 -1.764911e+001 -8.177821e+001 7.427213e+001 -2.050411e+001 -7.981315e+001
3090781250 -2.084308e+001 1.553233e-002 -1.791092e-001 -8.010208e+001 -8.647974e+001 1.252846e+002 -1.992426e+001 -7.770879e+001
3091875000 -2.045409e+001 7.502112e+000 -9.295994e-002 -1.424745e+002 -8.801089e+001 -8.221064e+001 -1.950867e+001 -7.518124e+001
3092968750 -2.028121e+001 1.535447e+001 2.945424e-002 1.550229e+002 -1.003531e+002 1.788696e+002 -1.923767e+001 -7.233597e+001
3094062500 -2.028478e+001 2.335094e+001 1.612006e-001 9.231608e+001 -7.885273e+001 -8.627645e+001 -1.909005e+001 -6.961133e+001
3095156250 -2.046740e+001 3.136407e+001 3.053372e-001 2.940466e+001 -8.530435e+001 -1.106108e+002 -1.903003e+001 -6.685481e+001
3096250000 -2.086398e+001 3.957122e+001 4.229795e-001 -3.364901e+001 -9.021655e+001 1.382595e+002 -1.909060e+001 -6.455897e+001
3097343750 -2.148816e+001 4.789965e+001 5.322816e-001 -9.669749e+001 -8.789797e+001 1.070835e+002 -1.923384e+001 -6.233325e+001
3098437500 -2.234789e+001 5.658000e+001 6.319630e-001 -1.598394e+002 -7.944144e+001 -1.140978e+002 -1.943820e+001 -6.081432e+001
3099531250 -2.349201e+001 6.538831e+001 7.183807e-001 1.368382e+002 -8.110804e+001 -6.438588e+001 -1.967976e+001 -5.962377e+001
3100625000 -2.506441e+001 7.477496e+001 7.687618e-001 7.349009e+001 -8.906700e+001 1.012795e+002 -1.992481e+001 -5.905743e+001
3101718750 -2.713544e+001 8.492504e+001 8.017440e-001 1.016763e+001 -9.020276e+001 8.348861e+001 -2.018021e+001 -5.901107e+001
3102812500 -3.005373e+001 9.760459e+001 8.239508e-001 -5.309416e+001 -8.953525e+001 3.899759e+001 -2.039438e+001 -5.942914e+001
3103906250 -3.450211e+001 1.161922e+002 8.099257e-001 -1.162674e+002 -8.075654e+001 1.405124e+002 -2.056462e+001 -5.995815e+001
3105000000 -4.083214e+001 1.658147e+002 8.021533e-001 -1.792826e+002 -9.360964e+001 1.606058e+002 -2.067972e+001 -6.076994e+001
3106093750 -3.768141e+001 -1.145145e+002 7.975223e-001 1.176783e+002 -8.267780e+001 -1.761672e+002 -2.071659e+001 -6.137983e+001
3107187500 -3.228218e+001 -8.667722e+001 8.011320e-001 5.481928e+001 -8.709478e+001 9.863460e+001 -2.074411e+001 -6.186853e+001
3108281250 -2.892464e+001 -7.173065e+001 8.057482e-001 -8.010055e+000 -8.566386e+001 1.261555e+002 -2.072876e+001 -6.193368e+001
3109375000 -2.663423e+001 -6.054417e+001 8.085875e-001 -7.080447e+001 -8.118737e+001 -1.209315e+002 -2.073865e+001 -6.181108e+001
3110468750 -2.504838e+001 -5.070724e+001 8.400211e-001 -1.334760e+002 -8.720076e+001 1.558899e+002 -2.075230e+001 -6.131619e+001
3111562500 -2.387226e+001 -4.185876e+001 8.858478e-001 1.638193e+002 -8.935087e+001 -9.495068e+001 -2.082853e+001 -6.049819e+001
3112656250 -2.307762e+001 -3.326806e+001 9.413719e-001 1.010672e+002 -8.473665e+001 3.794441e+001 -2.092809e+001 -5.976139e+001
3113750000 -2.255911e+001 -2.486434e+001 1.013952e+000 3.821120e+001 -9.363663e+001 -8.378967e+001 -2.115608e+001 -5.887093e+001
3114843750 -2.227515e+001 -1.662989e+001 1.070001e+000 -2.483930e+001 -8.667348e+001 4.476645e+001 -2.143018e+001 -5.822897e+001
3115937500 -2.223672e+001 -8.659483e+000 1.102739e+000 -8.796783e+001 -8.330927e+001 7.383632e+001 -2.178299e+001 -5.796178e+001
3117031250 -2.239824e+001 -8.480260e-001 1.123857e+000 -1.510102e+002 -8.972628e+001 -1.128070e+002 -2.220036e+001 -5.839227e+001
3118125000 -2.282956e+001 6.940880e+000 1.136061e+000 1.459177e+002 -8.882357e+001 -7.677168e+001 -2.265083e+001 -5.949237e+001
3119218750 -2.350075e+001 1.439917e+001 1.137313e+000 8.287904e+001 -9.239853e+001 -9.787334e+001 -2.307898e+001 -6.165542e+001
3120312500 -2.444519e+001 2.159913e+001 1.135621e+000 1.990633e+001 -9.284875e+001 5.641419e+001 -2.342147e+001 -6.464509e+001
3121406250 -2.577545e+001 2.853349e+001 1.114769e+000 -4.307350e+001 -8.733160e+001 1.294181e+002 -2.362874e+001 -6.838960e+001
3122500000 -2.763628e+001 3.434454e+001 1.116882e+000 -1.058814e+002 -9.007146e+001 -1.178742e+002 -2.366277e+001 -7.263329e+001
3123593750 -3.023225e+001 3.877444e+001 1.102519e+000 -1.686113e+002 -8.853800e+001 2.055623e+001 -2.345153e+001 -7.673611e+001
3124687500 -3.417135e+001 3.881707e+001 1.118731e+000 1.288421e+002 -8.612375e+001 -1.119577e+002 -2.308602e+001 -7.970835e+001
3125781250 -4.074226e+001 1.920849e+001 1.161001e+000 6.625659e+001 -9.445452e+001 4.726557e+001 -2.259572e+001 -8.164639e+001
3126875000 -4.054767e+001 -5.703857e+001 1.238308e+000 3.568897e+000 -9.488609e+001 -1.391398e+002 -2.211253e+001 -8.246497e+001
3127968750 -3.405583e+001 -7.633928e+001 1.331117e+000 -5.935179e+001 -8.252456e+001 -6.629030e+001 -2.163409e+001 -8.189122e+001
3129062500 -3.018750e+001 -7.633707e+001 1.402934e+000 -1.225533e+002 -7.945565e+001 1.124493e+002 -2.120986e+001 -8.037446e+001
3130156250 -2.761222e+001 -7.183486e+001 1.449140e+000 1.741699e+002 -9.167793e+001 -7.357410e+001 -2.090068e+001 -7.812058e+001
3131250000 -2.574695e+001 -6.620208e+001 1.442090e+000 1.108535e+002 -8.165616e+001 2.707350e+001 -2.068251e+001 -7.518668e+001
3132343750 -2.441341e+001 -5.958188e+001 1.422202e+000 4.758323e+001 -8.097034e+001 1.575988e+002 -2.059578e+001 -7.176850e+001
3133437500 -2.344625e+001 -5.269602e+001 1.386506e+000 -1.548254e+001 -8.435210e+001 -8.667491e+000 -2.068442e+001 -6.793856e+001
3134531250 -2.276553e+001 -4.567609e+001 1.323885e+000 -7.845036e+001 -8.139926e+001 6.946082e+001 -2.090549e+001 -6.403864e+001
3135625000 -2.232236e+001 -3.836646e+001 1.276063e+000 -1.411270e+002 -8.339322e+001 2.340865e+000 -2.130313e+001 -5.994753e+001
3136718750 -2.214520e+001 -3.113862e+001 1.240530e+000 1.563074e+002 -8.047119e+001 -1.787285e+000 -2.188077e+001 -5.612492e+001
3137812500 -2.215281e+001 -2.397022e+001 1.234050e+000 9.386513e+001 -8.248928e+001 -1.023443e+002 -2.271808e+001 -5.272393e+001
3138906250 -2.237901e+001 -1.691421e+001 1.277603e+000 3.146355e+001 -8.250526e+001 -1.667250e+002 -2.383984e+001 -4.987966e+001
3140000000 -2.283327e+001 -9.855858e+000 1.344105e+000 -3.108490e+001 -8.720556e+001 -1.642932e+002 -2.526595e+001 -4.822192e+001
3141093750 -2.355777e+001 -3.032225e+000 1.417859e+000 -9.371093e+001 -9.591570e+001 -5.257412e+001 -2.717395e+001 -4.921957e+001
3142187500 -2.456003e+001 3.410649e+000 1.506420e+000 -1.566829e+002 -9.865540e+001 3.520821e+001 -2.947866e+001 -5.528825e+001
3143281250 -2.593694e+001 9.188544e+000 1.569000e+000 1.402466e+002 -8.240297e+001 -1.161898e+002 -3.180286e+001 -7.149962e+001
3144375000 -2.784347e+001 1.381849e+001 1.622525e+000 7.721489e+001 -8.946902e+001 9.230628e+001 -3.240723e+001 -9.882398e+001
3145468750 -3.049833e+001 1.578911e+001 1.668107e+000 1.412313e+001 -8.752552e+001 3.167041e+001 -3.041186e+001 -1.209978e+002
3146562500 -3.438519e+001 1.120840e+001 1.728907e+000 -4.894341e+001 -8.978213e+001 -7.777362e+000 -2.783542e+001 -1.307534e+002
3147656250 -3.921820e+001 -1.934692e+001 1.782226e+000 -1.121938e+002 -9.419029e+001 -1.547577e+002 -2.558244e+001 -1.333641e+002
3148750000 -3.726298e+001 -7.184969e+001 1.824638e+000 -1.756336e+002 -8.921986e+001 -3.608435e+000 -2.379734e+001 -1.322326e+002
3149843750 -3.254671e+001 -8.751065e+001 1.841122e+000 1.206867e+002 -9.947891e+001 -2.911103e+001 -2.243025e+001 -1.293669e+002
3150937500 -2.915212e+001 -8.856815e+001 1.819823e+000 5.701805e+001 -9.212937e+001 -2.343260e+001 -2.132848e+001 -1.252823e+002
3152031250 -2.677038e+001 -8.520966e+001 1.748589e+000 -6.564295e+000 -8.461439e+001 -4.603143e+001 -2.050079e+001 -1.205190e+002
3153125000 -2.506765e+001 -7.982041e+001 1.655634e+000 -6.992474e+001 -8.566009e+001 -1.095046e+002 -1.987964e+001 -1.153204e+002
3154218750 -2.378513e+001 -7.374251e+001 1.529983e+000 -1.330553e+002 -8.888948e+001 -1.173226e+002 -1.945419e+001 -1.100811e+002
3155312500 -2.283146e+001 -6.692047e+001 1.423979e+000 1.641642e+002 -8.553165e+001 3.097980e+001 -1.920401e+001 -1.045341e+002
3156406250 -2.215579e+001 -5.996186e+001 1.322835e+000 1.014352e+002 -8.818920e+001 -5.017820e+001 -1.914043e+001 -9.896436e+001
3157500000 -2.170588e+001 -5.278101e+001 1.243642e+000 3.899674e+001 -7.713009e+001 1.573244e+002 -1.921912e+001 -9.369498e+001
3158593750 -2.144832e+001 -4.537248e+001 1.205009e+000 -2.325821e+001 -8.239315e+001 -1.688569e+002 -1.947453e+001 -8.859619e+001
3159687500 -2.140676e+001 -3.805169e+001 1.192336e+000 -8.553097e+001 -8.233123e+001 5.663404e+000 -1.993192e+001 -8.384323e+001
3160781250 -2.155023e+001 -3.056927e+001 1.228562e+000 -1.479205e+002 -8.888982e+001 8.157007e+001 -2.054473e+001 -7.972655e+001
3161875000 -2.191845e+001 -2.285377e+001 1.275109e+000 1.494579e+002 -8.232999e+001 5.622021e+000 -2.141126e+001 -7.634530e+001
3162968750 -2.244733e+001 -1.537782e+001 1.338159e+000 8.659525e+001 -9.812881e+001 -1.539699e+002 -2.246121e+001 -7.449309e+001
3164062500 -2.324714e+001 -7.696573e+000 1.380057e+000 2.346726e+001 -9.465894e+001 1.068456e+002 -2.372291e+001 -7.475980e+001
