!Agilent Technologies,E8363B,MY43030572,A.06.04.32
!Agilent E8363B: A.06.04.32
!Date: Monday, June 06, 2011 14:47:46
!Correction: S11(Full 2 Port(1,2)) S21(Full 2 Port(1,2)) S12(Full 2 Port(1,2)) S22(Full 2 Port(1,2)) 
!S2P File: Measurements: S11, S21, S12, S22:
# Hz S  dB   R 50
3000000000 -2.083540e+001 5.494011e+001 -7.469895e+000 1.544572e+002 -8.515773e+001 1.676410e+002 -1.642354e+001 -2.361720e+001
3001093750 -2.033444e+001 6.317610e+001 -8.018575e+000 8.926913e+001 -8.900179e+001 -1.502182e+002 -1.670842e+001 -1.998001e+001
3002187500 -2.003794e+001 7.181008e+001 -7.763191e+000 2.719820e+001 -8.968800e+001 -1.195682e+001 -1.709351e+001 -1.610301e+001
3003281250 -1.995406e+001 8.057043e+001 -7.510361e+000 -3.539004e+001 -8.503803e+001 1.419046e+002 -1.762508e+001 -1.279967e+001
3004375000 -2.004893e+001 8.933994e+001 -7.275723e+000 -9.807523e+001 -8.990549e+001 -4.837579e+001 -1.828873e+001 -1.011154e+001
3005468750 -2.035981e+001 9.815261e+001 -7.060895e+000 -1.609031e+002 -9.614072e+001 -1.339522e+002 -1.907910e+001 -8.549458e+000
3006562500 -2.089042e+001 1.070739e+002 -6.865732e+000 1.360800e+002 -8.933785e+001 -1.236081e+002 -2.003229e+001 -8.559702e+000
3007656250 -2.168181e+001 1.162899e+002 -6.698238e+000 7.300388e+001 -9.309093e+001 -1.558617e+001 -2.105959e+001 -1.065436e+001
3008750000 -2.278913e+001 1.258784e+002 -6.568820e+000 9.778657e+000 -8.302856e+001 9.408836e+001 -2.202436e+001 -1.533438e+001
3009843750 -2.426743e+001 1.362441e+002 -6.483548e+000 -5.347454e+001 -7.882100e+001 1.651848e+001 -2.272911e+001 -2.264137e+001
3010937500 -2.633982e+001 1.476824e+002 -6.452557e+000 -1.166962e+002 -8.234951e+001 1.463187e+002 -2.294469e+001 -3.147965e+001
3012031250 -2.927695e+001 1.623360e+002 -6.469141e+000 -1.796682e+002 -8.680357e+001 5.900930e+001 -2.258006e+001 -4.018000e+001
3013125000 -3.354863e+001 -1.740200e+002 -6.508070e+000 1.177616e+002 -8.616475e+001 -1.763318e+002 -2.179794e+001 -4.638326e+001
3014218750 -3.803303e+001 -1.171417e+002 -6.533116e+000 5.558178e+001 -8.329412e+001 1.694500e+002 -2.086663e+001 -4.985576e+001
3015312500 -3.407115e+001 -5.335066e+001 -6.519327e+000 -6.246966e+000 -8.542074e+001 -1.584631e+002 -1.993997e+001 -5.106608e+001
3016406250 -2.949537e+001 -2.791574e+001 -6.449523e+000 -6.788894e+001 -8.927280e+001 3.326799e+001 -1.912283e+001 -5.037275e+001
3017500000 -2.634001e+001 -1.302160e+001 -6.307157e+000 -1.295223e+002 -8.297005e+001 1.389535e+002 -1.843140e+001 -4.833200e+001
3018593750 -2.412202e+001 -1.171588e+000 -6.092515e+000 1.687821e+002 -9.725222e+001 -1.305062e+002 -1.790362e+001 -4.534131e+001
3019687500 -2.247780e+001 9.013651e+000 -5.827643e+000 1.067633e+002 -9.176856e+001 -1.754099e+002 -1.752310e+001 -4.176217e+001
3020781250 -2.123091e+001 1.869917e+001 -5.538200e+000 4.431222e+001 -8.521140e+001 3.824330e+001 -1.730548e+001 -3.785450e+001
3021875000 -2.031246e+001 2.803767e+001 -5.252585e+000 -1.856369e+001 -8.835089e+001 3.342869e+001 -1.722139e+001 -3.359576e+001
3022968750 -1.963670e+001 3.696076e+001 -5.008375e+000 -8.173343e+001 -8.503127e+001 -1.946310e+001 -1.730323e+001 -2.932836e+001
3024062500 -1.918902e+001 4.564016e+001 -4.812091e+000 -1.450881e+002 -8.067866e+001 9.894273e+001 -1.754647e+001 -2.513597e+001
3025156250 -1.892515e+001 5.425458e+001 -4.678891e+000 1.516095e+002 -9.170206e+001 -1.427866e+002 -1.792093e+001 -2.121594e+001
3026250000 -1.885298e+001 6.279674e+001 -4.583752e+000 8.844662e+001 -8.499734e+001 4.454352e+001 -1.849679e+001 -1.776542e+001
3027343750 -1.895758e+001 7.133846e+001 -4.522056e+000 2.536306e+001 -8.524065e+001 3.041074e+001 -1.924678e+001 -1.512130e+001
3028437500 -1.924716e+001 7.976956e+001 -4.458261e+000 -3.740441e+001 -8.048502e+001 -5.266652e+000 -2.019125e+001 -1.340579e+001
3029531250 -1.972979e+001 8.806031e+001 -4.379857e+000 -1.000627e+002 -8.541995e+001 1.095495e+001 -2.130958e+001 -1.341430e+001
3030625000 -2.044256e+001 9.629636e+001 -4.303285e+000 -1.626897e+002 -9.193139e+001 -1.473220e+002 -2.256479e+001 -1.584551e+001
3031718750 -2.141715e+001 1.045382e+002 -4.192294e+000 1.348171e+002 -8.133292e+001 -9.407491e+001 -2.379889e+001 -2.188385e+001
3032812500 -2.270765e+001 1.125073e+002 -4.061526e+000 7.224057e+001 -8.649146e+001 1.350735e+002 -2.467197e+001 -3.196859e+001
3033906250 -2.444334e+001 1.204848e+002 -3.911859e+000 9.638519e+000 -8.105206e+001 -1.524191e+002 -2.477482e+001 -4.422323e+001
3035000000 -2.684205e+001 1.277252e+002 -3.729620e+000 -5.313079e+001 -8.619778e+001 7.545497e+001 -2.409429e+001 -5.501450e+001
3036093750 -3.040023e+001 1.345029e+002 -3.544446e+000 -1.161638e+002 -8.045599e+001 6.512771e+000 -2.291684e+001 -6.209003e+001
3037187500 -3.674393e+001 1.378720e+002 -3.370253e+000 -1.794695e+002 -9.685808e+001 8.525268e+001 -2.167864e+001 -6.547955e+001
3038281250 -5.078748e+001 3.559969e+001 -3.228040e+000 1.170810e+002 -9.197158e+001 6.689973e+001 -2.054187e+001 -6.589259e+001
3039375000 -3.517727e+001 -7.304127e+000 -3.119365e+000 5.358509e+001 -9.299355e+001 9.095654e+000 -1.958876e+001 -6.438904e+001
3040468750 -2.984455e+001 -2.731623e+000 -3.051562e+000 -9.892014e+000 -8.641582e+001 1.081377e+001 -1.881870e+001 -6.161932e+001
3041562500 -2.671312e+001 4.146965e+000 -3.009618e+000 -7.320996e+001 -8.786595e+001 1.252725e+002 -1.823313e+001 -5.796792e+001
3042656250 -2.458427e+001 1.207749e+001 -3.008073e+000 -1.364036e+002 -8.379036e+001 -1.001384e+002 -1.782128e+001 -5.376542e+001
3043750000 -2.307471e+001 2.027469e+001 -3.028608e+000 1.605653e+002 -8.019758e+001 1.874014e+001 -1.759864e+001 -4.923598e+001
3044843750 -2.200726e+001 2.857270e+001 -3.061487e+000 9.785456e+001 -8.632259e+001 2.739309e+001 -1.752302e+001 -4.458892e+001
3045937500 -2.122046e+001 3.721785e+001 -3.077248e+000 3.537487e+001 -8.393750e+001 1.316062e+002 -1.761804e+001 -3.982354e+001
3047031250 -2.071312e+001 4.598014e+001 -3.068508e+000 -2.674484e+001 -8.447794e+001 1.376298e+002 -1.789744e+001 -3.508852e+001
3048125000 -2.043127e+001 5.480310e+001 -3.014561e+000 -8.872116e+001 -9.533640e+001 5.850038e+001 -1.834276e+001 -3.070982e+001
3049218750 -2.034988e+001 6.390880e+001 -2.912591e+000 -1.506991e+002 -8.304081e+001 -1.272741e+002 -1.901441e+001 -2.671861e+001
3050312500 -2.050163e+001 7.332825e+001 -2.755059e+000 1.472831e+002 -8.295448e+001 1.057415e+002 -1.992035e+001 -2.335536e+001
3051406250 -2.081655e+001 8.298134e+001 -2.557499e+000 8.492116e+001 -8.197196e+001 -5.013640e+001 -2.106516e+001 -2.131994e+001
3052500000 -2.137115e+001 9.324802e+001 -2.347184e+000 2.245684e+001 -9.866783e+001 8.120065e+000 -2.248137e+001 -2.117724e+001
3053593750 -2.215125e+001 1.041533e+002 -2.120547e+000 -4.037349e+001 -9.177972e+001 -1.590987e+002 -2.418852e+001 -2.466731e+001
3054687500 -2.318142e+001 1.159618e+002 -1.892200e+000 -1.033629e+002 -8.295461e+001 9.201884e+001 -2.594992e+001 -3.404411e+001
3055781250 -2.451682e+001 1.295372e+002 -1.673113e+000 -1.666806e+002 -8.708260e+001 7.540356e+000 -2.703657e+001 -5.047738e+001
3056875000 -2.611260e+001 1.460932e+002 -1.468611e+000 1.297855e+002 -8.478957e+001 1.078750e+001 -2.660609e+001 -6.965824e+001
3057968750 -2.794331e+001 1.673083e+002 -1.316169e+000 6.584752e+001 -9.222438e+001 -8.044380e+001 -2.496701e+001 -8.303319e+001
3059062500 -2.943822e+001 -1.643531e+002 -1.207460e+000 1.885681e+000 -8.405457e+001 -8.231046e+001 -2.304450e+001 -8.929636e+001
3060156250 -2.972882e+001 -1.309780e+002 -1.170989e+000 -6.211438e+001 -9.175240e+001 2.883286e+001 -2.134307e+001 -9.104379e+001
3061250000 -2.851891e+001 -1.006276e+002 -1.177678e+000 -1.259310e+002 -8.441199e+001 -6.078711e+001 -1.991986e+001 -8.964594e+001
3062343750 -2.667735e+001 -7.724788e+001 -1.197326e+000 1.705390e+002 -8.872873e+001 -7.739494e+001 -1.876370e+001 -8.671700e+001
3063437500 -2.494285e+001 -5.941851e+001 -1.243759e+000 1.072131e+002 -8.278249e+001 -2.377362e+001 -1.783179e+001 -8.287012e+001
3064531250 -2.351925e+001 -4.520065e+001 -1.280674e+000 4.402784e+001 -8.609682e+001 -4.141491e+001 -1.709215e+001 -7.844962e+001
3065625000 -2.237192e+001 -3.294443e+001 -1.332235e+000 -1.894349e+001 -8.320995e+001 1.406731e+002 -1.653698e+001 -7.338992e+001
3066718750 -2.150209e+001 -2.203348e+001 -1.380553e+000 -8.174582e+001 -1.032803e+002 6.021684e+001 -1.614070e+001 -6.822356e+001
3067812500 -2.085611e+001 -1.168704e+001 -1.424823e+000 -1.442245e+002 -8.625796e+001 -4.686341e+001 -1.590812e+001 -6.288090e+001
3068906250 -2.041537e+001 -2.094384e+000 -1.439500e+000 1.534947e+002 -8.363235e+001 5.424745e+001 -1.580621e+001 -5.744662e+001
3070000000 -2.019601e+001 7.154087e+000 -1.421345e+000 9.138273e+001 -8.279582e+001 -4.058319e+001 -1.582652e+001 -5.208013e+001
3071093750 -2.015099e+001 1.596006e+001 -1.355359e+000 2.922513e+001 -7.885105e+001 -1.461485e+002 -1.599665e+001 -4.671652e+001
3072187500 -2.031249e+001 2.453693e+001 -1.265075e+000 -3.312941e+001 -8.247038e+001 1.703251e+002 -1.628518e+001 -4.151718e+001
3073281250 -2.065420e+001 3.271727e+001 -1.161250e+000 -9.543859e+001 -8.576310e+001 1.383581e+002 -1.672752e+001 -3.665056e+001
3074375000 -2.123013e+001 4.064328e+001 -1.043843e+000 -1.579785e+002 -8.383694e+001 -1.698322e+002 -1.730304e+001 -3.204969e+001
3075468750 -2.203558e+001 4.812536e+001 -9.082672e-001 1.394231e+002 -8.810608e+001 1.724577e+002 -1.803577e+001 -2.819899e+001
3076562500 -2.315687e+001 5.513022e+001 -7.715966e-001 7.666442e+001 -8.856990e+001 1.190361e+002 -1.895057e+001 -2.508421e+001
3077656250 -2.465189e+001 6.118103e+001 -6.235690e-001 1.364632e+001 -9.274892e+001 -1.252728e+002 -2.004585e+001 -2.290528e+001
3078750000 -2.668931e+001 6.593258e+001 -4.878998e-001 -4.963663e+001 -1.017486e+002 5.686840e+001 -2.133480e+001 -2.264816e+001
3079843750 -2.951459e+001 6.717020e+001 -3.822136e-001 -1.130826e+002 -8.265454e+001 6.498717e+001 -2.278262e+001 -2.461714e+001
3080937500 -3.346553e+001 5.976056e+001 -3.163081e-001 -1.765381e+002 -9.363876e+001 1.163210e+002 -2.425042e+001 -3.017122e+001
3082031250 -3.739335e+001 2.481803e+001 -2.848756e-001 1.201692e+002 -9.181679e+001 -1.481521e+002 -2.547109e+001 -4.006504e+001
3083125000 -3.455999e+001 -1.899065e+001 -2.566155e-001 5.709869e+001 -8.330145e+001 1.431481e+002 -2.591732e+001 -5.304944e+001
3084218750 -3.031251e+001 -3.092941e+001 -2.167085e-001 -5.887096e+000 -9.191351e+001 -1.454472e+002 -2.549294e+001 -6.579880e+001
3085312500 -2.729327e+001 -3.064526e+001 -1.749364e-001 -6.864280e+001 -8.067264e+001 -9.639716e+001 -2.447178e+001 -7.480592e+001
3086406250 -2.512572e+001 -2.669181e+001 -1.165913e-001 -1.315931e+002 -8.821327e+001 -1.705191e+002 -2.328569e+001 -7.962226e+001
3087500000 -2.354298e+001 -2.106870e+001 -6.670570e-002 1.654741e+002 -8.429819e+001 3.217841e+001 -2.220733e+001 -8.140986e+001
3088593750 -2.236551e+001 -1.449985e+001 -1.730708e-002 1.025214e+002 -8.517221e+001 -5.123942e+001 -2.123847e+001 -8.132545e+001
3089687500 -2.148510e+001 -7.329941e+000 3.431576e-002 3.965504e+001 -9.334427e+001 -3.340282e+001 -2.050162e+001 -7.976006e+001
3090781250 -2.084444e+001 5.195353e-002 9.351034e-002 -2.311758e+001 -8.704483e+001 -6.830896e+001 -1.992148e+001 -7.770607e+001
3091875000 -2.045840e+001 7.461423e+000 1.694966e-001 -8.606133e+001 -8.262892e+001 -7.017838e+001 -1.951355e+001 -7.516024e+001
3092968750 -2.029120e+001 1.538462e+001 2.563506e-001 -1.490092e+002 -8.185334e+001 -1.097413e+002 -1.922908e+001 -7.234179e+001
3094062500 -2.029573e+001 2.334993e+001 3.448105e-001 1.477528e+002 -8.834911e+001 8.987592e+001 -1.908331e+001 -6.958491e+001
3095156250 -2.047894e+001 3.138629e+001 4.224603e-001 8.440558e+001 -8.526496e+001 -8.564411e+001 -1.902487e+001 -6.690239e+001
3096250000 -2.086183e+001 3.955300e+001 4.780596e-001 2.095443e+001 -8.942182e+001 1.269452e+002 -1.908352e+001 -6.449379e+001
3097343750 -2.148341e+001 4.794609e+001 5.154616e-001 -4.245315e+001 -8.700557e+001 2.964191e+001 -1.922305e+001 -6.241287e+001
3098437500 -2.235349e+001 5.652992e+001 5.271538e-001 -1.058520e+002 -8.521142e+001 1.571242e+002 -1.943694e+001 -6.088719e+001
3099531250 -2.350210e+001 6.535786e+001 5.355555e-001 -1.691701e+002 -9.225423e+001 1.769348e+001 -1.967225e+001 -5.960240e+001
3100625000 -2.507627e+001 7.468845e+001 5.045889e-001 1.275708e+002 -8.695795e+001 4.774369e+001 -1.991383e+001 -5.904720e+001
3101718750 -2.712876e+001 8.476026e+001 4.775133e-001 6.447211e+001 -8.964152e+001 -7.553386e+001 -2.017751e+001 -5.905682e+001
3102812500 -3.005805e+001 9.758823e+001 4.475008e-001 1.593502e+000 -8.801630e+001 -5.369321e+001 -2.039611e+001 -5.942577e+001
3103906250 -3.451761e+001 1.162842e+002 4.127950e-001 -6.120321e+001 -8.328378e+001 -9.907412e+001 -2.056314e+001 -5.993284e+001
3105000000 -4.081919e+001 1.659925e+002 4.040011e-001 -1.238722e+002 -9.285579e+001 -1.407188e+002 -2.067291e+001 -6.070747e+001
3106093750 -3.774443e+001 -1.142316e+002 4.075050e-001 1.733320e+002 -8.907336e+001 8.495101e-001 -2.071479e+001 -6.131847e+001
3107187500 -3.230947e+001 -8.629639e+001 4.200828e-001 1.104971e+002 -8.210699e+001 1.093396e+002 -2.072598e+001 -6.180321e+001
3108281250 -2.893931e+001 -7.175811e+001 4.193133e-001 4.755996e+001 -8.526717e+001 -1.124801e+002 -2.073103e+001 -6.196338e+001
3109375000 -2.663298e+001 -6.046146e+001 4.035299e-001 -1.538133e+001 -8.554173e+001 -3.517825e+001 -2.071768e+001 -6.177605e+001
3110468750 -2.504074e+001 -5.090582e+001 3.853335e-001 -7.828003e+001 -8.812798e+001 1.116302e+002 -2.075749e+001 -6.130706e+001
3111562500 -2.387814e+001 -4.184184e+001 3.589637e-001 -1.411237e+002 -8.218323e+001 -1.165288e+002 -2.083192e+001 -6.051922e+001
3112656250 -2.307391e+001 -3.315176e+001 3.405706e-001 1.561616e+002 -8.820214e+001 3.385908e+001 -2.095026e+001 -5.981458e+001
3113750000 -2.255093e+001 -2.475125e+001 3.297442e-001 9.359351e+001 -8.222496e+001 -1.035835e+002 -2.115113e+001 -5.883833e+001
3114843750 -2.228227e+001 -1.654002e+001 3.296978e-001 3.101600e+001 -8.979419e+001 9.798962e+001 -2.142047e+001 -5.824757e+001
3115937500 -2.222482e+001 -8.598843e+000 3.303268e-001 -3.145289e+001 -8.250344e+001 1.434593e+002 -2.178008e+001 -5.800912e+001
3117031250 -2.240716e+001 -7.329757e-001 3.538159e-001 -9.383252e+001 -9.042963e+001 4.238013e+001 -2.218758e+001 -5.835152e+001
3118125000 -2.281825e+001 7.044988e+000 3.990691e-001 -1.561790e+002 -8.765970e+001 -1.036191e+002 -2.264621e+001 -5.946312e+001
3119218750 -2.348047e+001 1.451951e+001 4.646402e-001 1.413038e+002 -8.212866e+001 -8.238261e+001 -2.307631e+001 -6.153296e+001
3120312500 -2.445459e+001 2.176155e+001 5.232318e-001 7.880885e+001 -8.170657e+001 8.060300e+001 -2.341893e+001 -6.467514e+001
3121406250 -2.578093e+001 2.858991e+001 5.813375e-001 1.607130e+001 -8.617137e+001 1.318768e+002 -2.363318e+001 -6.850469e+001
3122500000 -2.764301e+001 3.456031e+001 6.320426e-001 -4.670554e+001 -8.052669e+001 -1.602022e+002 -2.365505e+001 -7.269942e+001
3123593750 -3.024594e+001 3.906523e+001 6.590267e-001 -1.094691e+002 -9.680483e+001 -1.262165e+002 -2.344330e+001 -7.670770e+001
3124687500 -3.415536e+001 3.902255e+001 6.984930e-001 -1.721149e+002 -8.844043e+001 1.101844e+001 -2.308657e+001 -7.969201e+001
3125781250 -4.078502e+001 1.939488e+001 7.352782e-001 1.252099e+002 -8.474443e+001 -1.079478e+002 -2.259629e+001 -8.173329e+001
3126875000 -4.063717e+001 -5.688520e+001 7.923734e-001 6.254544e+001 -8.680916e+001 -8.178651e+000 -2.210100e+001 -8.244173e+001
3127968750 -3.403939e+001 -7.650998e+001 8.752806e-001 -2.518121e-001 -8.017711e+001 8.984500e+001 -2.163041e+001 -8.181392e+001
3129062500 -3.017845e+001 -7.618955e+001 9.563399e-001 -6.328430e+001 -8.219062e+001 1.035874e+002 -2.120265e+001 -8.041585e+001
3130156250 -2.760101e+001 -7.188276e+001 1.016493e+000 -1.262369e+002 -8.792892e+001 -8.709549e+000 -2.088991e+001 -7.810977e+001
3131250000 -2.574874e+001 -6.617117e+001 1.051156e+000 1.706988e+002 -8.693584e+001 -5.635530e+001 -2.067472e+001 -7.516313e+001
3132343750 -2.441568e+001 -5.938920e+001 1.080909e+000 1.077618e+002 -8.512529e+001 1.748163e+002 -2.059886e+001 -7.179317e+001
3133437500 -2.344642e+001 -5.258131e+001 1.100955e+000 4.487394e+001 -8.515028e+001 1.536640e+002 -2.067071e+001 -6.797961e+001
3134531250 -2.275768e+001 -4.560218e+001 1.100388e+000 -1.788847e+001 -7.876087e+001 -9.422215e+001 -2.089281e+001 -6.407462e+001
3135625000 -2.231675e+001 -3.835439e+001 1.114882e+000 -8.039342e+001 -8.496613e+001 1.636999e+002 -2.129509e+001 -5.993350e+001
3136718750 -2.213008e+001 -3.112015e+001 1.135874e+000 -1.428202e+002 -7.990572e+001 -5.221987e+001 -2.187444e+001 -5.606303e+001
3137812500 -2.214451e+001 -2.399256e+001 1.188421e+000 1.548235e+002 -8.671886e+001 -1.726086e+002 -2.269656e+001 -5.270950e+001
3138906250 -2.236599e+001 -1.693011e+001 1.288240e+000 9.239411e+001 -8.866385e+001 7.222639e+001 -2.381537e+001 -4.984000e+001
3140000000 -2.281065e+001 -9.860209e+000 1.400085e+000 2.980746e+001 -7.976073e+001 -9.671793e+001 -2.524315e+001 -4.830646e+001
3141093750 -2.352864e+001 -3.093409e+000 1.518126e+000 -3.305104e+001 -8.490685e+001 1.762836e+002 -2.715765e+001 -4.929528e+001
3142187500 -2.455725e+001 3.427458e+000 1.641635e+000 -9.624595e+001 -8.516170e+001 1.550632e+001 -2.946985e+001 -5.550583e+001
3143281250 -2.591236e+001 9.128983e+000 1.735971e+000 -1.596108e+002 -8.763071e+001 1.644198e+002 -3.181833e+001 -7.162458e+001
3144375000 -2.782222e+001 1.380119e+001 1.809741e+000 1.370911e+002 -8.879061e+001 1.320459e+002 -3.243336e+001 -9.877667e+001
3145468750 -3.046486e+001 1.591275e+001 1.862600e+000 7.381295e+001 -8.333778e+001 -4.815327e+001 -3.039256e+001 -1.209942e+002
3146562500 -3.436406e+001 1.112029e+001 1.925687e+000 1.059695e+001 -9.350413e+001 4.824365e+001 -2.781599e+001 -1.308415e+002
3147656250 -3.910968e+001 -1.856930e+001 1.970773e+000 -5.271352e+001 -8.106870e+001 -1.580406e+002 -2.556606e+001 -1.333844e+002
3148750000 -3.730721e+001 -7.140909e+001 2.012640e+000 -1.160477e+002 -9.263991e+001 7.393384e+001 -2.379335e+001 -1.323271e+002
3149843750 -3.256859e+001 -8.730548e+001 2.038187e+000 -1.795226e+002 -8.575661e+001 6.484335e+001 -2.241963e+001 -1.293459e+002
3150937500 -2.920227e+001 -8.833083e+001 2.027453e+000 1.170584e+002 -8.593246e+001 -1.588793e+002 -2.131921e+001 -1.251893e+002
3152031250 -2.679013e+001 -8.491225e+001 1.981827e+000 5.380971e+001 -8.583611e+001 2.842616e+001 -2.048799e+001 -1.205440e+002
3153125000 -2.507488e+001 -7.973592e+001 1.937549e+000 -9.237739e+000 -9.626656e+001 -1.191723e+002 -1.987738e+001 -1.152735e+002
3154218750 -2.381529e+001 -7.361253e+001 1.869355e+000 -7.214572e+001 -8.613944e+001 -6.353473e+001 -1.944634e+001 -1.100549e+002
3155312500 -2.284763e+001 -6.681071e+001 1.831995e+000 -1.348205e+002 -7.993294e+001 4.604496e+001 -1.919823e+001 -1.044833e+002
3156406250 -2.216307e+001 -5.986739e+001 1.804941e+000 1.624921e+002 -8.212421e+001 1.248847e+002 -1.913608e+001 -9.897066e+001
3157500000 -2.170648e+001 -5.261000e+001 1.802336e+000 9.990550e+001 -8.223451e+001 2.437869e+001 -1.920637e+001 -9.374913e+001
3158593750 -2.146129e+001 -4.531067e+001 1.829664e+000 3.733556e+001 -7.936510e+001 -6.140412e+001 -1.947739e+001 -8.858693e+001
3159687500 -2.142096e+001 -3.797326e+001 1.877029e+000 -2.531911e+001 -8.606090e+001 1.773683e+002 -1.993373e+001 -8.387727e+001
3160781250 -2.156170e+001 -3.044823e+001 1.940613e+000 -8.812639e+001 -8.690801e+001 -6.988609e+001 -2.055691e+001 -7.972955e+001
3161875000 -2.192376e+001 -2.270168e+001 2.007451e+000 -1.510013e+002 -8.799902e+001 -1.334543e+002 -2.139686e+001 -7.639487e+001
3162968750 -2.247619e+001 -1.517330e+001 2.076904e+000 1.458944e+002 -8.522843e+001 1.631986e+002 -2.245943e+001 -7.448006e+001
3164062500 -2.327662e+001 -7.615023e+000 2.134325e+000 8.270388e+001 -9.628643e+001 -6.198000e+001 -2.370053e+001 -7.482413e+001
