!Agilent Technologies,E8363B,MY43030572,A.06.04.32
!Agilent E8363B: A.06.04.32
!Date: Monday, June 06, 2011 14:58:18
!Correction: S11(Full 2 Port(1,2)) S21(Full 2 Port(1,2)) S12(Full 2 Port(1,2)) S22(Full 2 Port(1,2)) 
!S2P File: Measurements: S11, S21, S12, S22:
# Hz S  dB   R 50
3000000000 -2.085028e+001 5.526640e+001 -6.758166e+000 -5.537044e+001 -9.673422e+001 1.694522e+002 -1.638829e+001 -2.366674e+001
3001093750 -2.034907e+001 6.353712e+001 -7.672704e+000 -1.236486e+002 -9.781445e+001 -9.561075e+001 -1.667892e+001 -2.005201e+001
3002187500 -2.004031e+001 7.213609e+001 -7.813285e+000 1.711732e+002 -9.066232e+001 -1.076077e+002 -1.705772e+001 -1.626559e+001
3003281250 -1.995229e+001 8.104486e+001 -7.957978e+000 1.057581e+002 -9.147318e+001 5.429158e+001 -1.757378e+001 -1.297730e+001
3004375000 -2.004394e+001 8.972964e+001 -8.104695e+000 4.036417e+001 -9.581293e+001 -6.654532e+000 -1.822885e+001 -1.043541e+001
3005468750 -2.036145e+001 9.857029e+001 -8.272678e+000 -2.515900e+001 -8.458952e+001 1.237492e+002 -1.904006e+001 -8.904837e+000
3006562500 -2.088820e+001 1.076074e+002 -8.472003e+000 -9.094244e+001 -7.904700e+001 8.272196e+001 -1.996308e+001 -8.940653e+000
3007656250 -2.166252e+001 1.167261e+002 -8.721018e+000 -1.569010e+002 -8.536756e+001 -2.231699e+001 -2.097833e+001 -1.106572e+001
3008750000 -2.277129e+001 1.263804e+002 -9.043081e+000 1.370178e+002 -8.016940e+001 1.486548e+002 -2.193777e+001 -1.559086e+001
3009843750 -2.425834e+001 1.367502e+002 -9.445333e+000 7.090483e+001 -8.208422e+001 1.077435e+002 -2.262376e+001 -2.306968e+001
3010937500 -2.630178e+001 1.481274e+002 -9.938854e+000 4.933918e+000 -8.446436e+001 -1.242142e+002 -2.282769e+001 -3.180363e+001
3012031250 -2.921675e+001 1.629104e+002 -1.051448e+001 -6.063165e+001 -8.263097e+001 -2.669999e+000 -2.244845e+001 -4.017966e+001
3013125000 -3.344664e+001 -1.736014e+002 -1.114121e+001 -1.255466e+002 -8.678237e+001 3.534908e+001 -2.168310e+001 -4.634198e+001
3014218750 -3.795781e+001 -1.172104e+002 -1.177982e+001 1.701499e+002 -8.785886e+001 -1.447098e+001 -2.076447e+001 -4.972034e+001
3015312500 -3.405199e+001 -5.367236e+001 -1.237825e+001 1.065096e+002 -8.346645e+001 -6.159822e+001 -1.983518e+001 -5.094281e+001
3016406250 -2.948521e+001 -2.783562e+001 -1.291751e+001 4.327709e+001 -7.910342e+001 1.009621e+002 -1.903825e+001 -5.023837e+001
3017500000 -2.634300e+001 -1.267145e+001 -1.338738e+001 -1.971274e+001 -9.335789e+001 7.507160e+001 -1.834460e+001 -4.824548e+001
3018593750 -2.412027e+001 -9.380668e-001 -1.379110e+001 -8.269743e+001 -7.980560e+001 -8.910575e+001 -1.782605e+001 -4.533229e+001
3019687500 -2.247331e+001 9.297772e+000 -1.416743e+001 -1.457933e+002 -8.171599e+001 -9.840292e+001 -1.745565e+001 -4.179266e+001
3020781250 -2.122868e+001 1.899322e+001 -1.454096e+001 1.509105e+002 -8.294380e+001 -1.787299e+002 -1.724133e+001 -3.782386e+001
3021875000 -2.030974e+001 2.828923e+001 -1.491695e+001 8.745938e+001 -8.510171e+001 -1.741442e+002 -1.715362e+001 -3.358663e+001
3022968750 -1.962249e+001 3.721494e+001 -1.532528e+001 2.391267e+001 -8.368224e+001 6.771911e+001 -1.723111e+001 -2.936451e+001
3024062500 -1.917283e+001 4.595310e+001 -1.575094e+001 -3.963799e+001 -8.681347e+001 1.308663e+002 -1.746420e+001 -2.519899e+001
3025156250 -1.890580e+001 5.458382e+001 -1.619715e+001 -1.032950e+002 -1.040908e+002 -3.196135e+001 -1.785504e+001 -2.131339e+001
3026250000 -1.882718e+001 6.314351e+001 -1.663258e+001 -1.670928e+002 -8.412286e+001 -1.788567e+002 -1.842204e+001 -1.789133e+001
3027343750 -1.891727e+001 7.161896e+001 -1.707948e+001 1.284683e+002 -8.234749e+001 4.421899e+001 -1.916527e+001 -1.521919e+001
3028437500 -1.922493e+001 8.011234e+001 -1.758658e+001 6.372866e+001 -8.109702e+001 -1.421260e+002 -2.010193e+001 -1.360604e+001
3029531250 -1.970570e+001 8.836819e+001 -1.819507e+001 -1.633280e+000 -8.559971e+001 1.777370e+002 -2.120941e+001 -1.361588e+001
3030625000 -2.039023e+001 9.670587e+001 -1.900143e+001 -6.709513e+001 -9.251399e+001 1.697383e+002 -2.246317e+001 -1.615681e+001
3031718750 -2.136657e+001 1.048324e+002 -2.004935e+001 -1.324108e+002 -8.235138e+001 1.612782e+002 -2.368574e+001 -2.212423e+001
3032812500 -2.265264e+001 1.129339e+002 -2.142506e+001 1.633640e+002 -9.171477e+001 -1.517054e+002 -2.454191e+001 -3.206009e+001
3033906250 -2.434060e+001 1.207453e+002 -2.314677e+001 1.010527e+002 -8.361957e+001 8.066646e+001 -2.464855e+001 -4.408835e+001
3035000000 -2.673171e+001 1.281777e+002 -2.523806e+001 4.252190e+001 -8.828191e+001 -1.142889e+002 -2.395962e+001 -5.483725e+001
3036093750 -3.022049e+001 1.347650e+002 -2.754283e+001 -9.780202e+000 -7.949324e+001 7.959686e+001 -2.281529e+001 -6.184577e+001
3037187500 -3.631768e+001 1.383687e+002 -2.920759e+001 -5.335198e+001 -9.315108e+001 1.688274e+002 -2.158310e+001 -6.512789e+001
3038281250 -5.164475e+001 4.752670e+001 -2.909179e+001 -9.327243e+001 -8.015217e+001 -9.220543e+001 -2.044816e+001 -6.563603e+001
3039375000 -3.552048e+001 -6.609322e+000 -2.762275e+001 -1.404102e+002 -9.037193e+001 6.374615e+001 -1.951234e+001 -6.416668e+001
3040468750 -3.002516e+001 -2.234903e+000 -2.603761e+001 1.644743e+002 -8.954651e+001 -1.591802e+002 -1.873847e+001 -6.150805e+001
3041562500 -2.683377e+001 4.606248e+000 -2.482705e+001 1.044999e+002 -8.003547e+001 -4.199426e+001 -1.816785e+001 -5.785676e+001
3042656250 -2.468434e+001 1.229894e+001 -2.408477e+001 4.246910e+001 -8.325045e+001 1.304920e+002 -1.776688e+001 -5.368149e+001
3043750000 -2.315178e+001 2.063035e+001 -2.370826e+001 -1.983330e+001 -8.377572e+001 -8.168224e+001 -1.752549e+001 -4.923402e+001
3044843750 -2.207387e+001 2.885433e+001 -2.361270e+001 -8.102998e+001 -8.130190e+001 1.784279e+002 -1.746034e+001 -4.454671e+001
3045937500 -2.128054e+001 3.753745e+001 -2.356392e+001 -1.403227e+002 -9.367140e+001 1.689963e+002 -1.756341e+001 -3.986602e+001
3047031250 -2.075793e+001 4.624747e+001 -2.332904e+001 1.623275e+002 -8.463335e+001 -7.915297e+001 -1.783759e+001 -3.514499e+001
3048125000 -2.047100e+001 5.507342e+001 -2.274479e+001 1.052481e+002 -8.393994e+001 8.837679e+001 -1.829087e+001 -3.082832e+001
3049218750 -2.038607e+001 6.417768e+001 -2.185420e+001 4.721092e+001 -8.276080e+001 -1.168087e+002 -1.895479e+001 -2.693823e+001
3050312500 -2.052384e+001 7.361732e+001 -2.082718e+001 -1.245067e+001 -9.102168e+001 8.001391e+001 -1.985326e+001 -2.350909e+001
3051406250 -2.083571e+001 8.324048e+001 -1.981357e+001 -7.372471e+001 -8.479220e+001 4.519521e+001 -2.098991e+001 -2.160559e+001
3052500000 -2.136392e+001 9.339421e+001 -1.890117e+001 -1.357333e+002 -9.076467e+001 -4.759583e+001 -2.239964e+001 -2.162441e+001
3053593750 -2.216175e+001 1.041991e+002 -1.807079e+001 1.618064e+002 -9.752693e+001 8.760468e+001 -2.406829e+001 -2.511871e+001
3054687500 -2.317123e+001 1.160062e+002 -1.728465e+001 9.908428e+001 -8.512903e+001 4.417906e+001 -2.582716e+001 -3.440207e+001
3055781250 -2.449951e+001 1.295816e+002 -1.650206e+001 3.601250e+001 -8.064684e+001 -7.820128e+001 -2.688572e+001 -5.055230e+001
3056875000 -2.611717e+001 1.458319e+002 -1.569933e+001 -2.756782e+001 -8.758087e+001 1.302249e+002 -2.644258e+001 -6.933071e+001
3057968750 -2.793929e+001 1.670728e+002 -1.493838e+001 -9.216996e+001 -8.093045e+001 1.562347e+002 -2.484653e+001 -8.261497e+001
3059062500 -2.946616e+001 -1.648274e+002 -1.422536e+001 -1.576299e+002 -8.737899e+001 1.058103e+002 -2.294609e+001 -8.890359e+001
3060156250 -2.980914e+001 -1.315312e+002 -1.366499e+001 1.362612e+002 -8.341645e+001 -9.766302e+001 -2.125184e+001 -9.061900e+001
3061250000 -2.862897e+001 -1.008239e+002 -1.325269e+001 6.984626e+001 -8.230345e+001 -1.054764e+002 -1.984626e+001 -8.928873e+001
3062343750 -2.678767e+001 -7.705549e+001 -1.298357e+001 3.626927e+000 -9.170934e+001 9.410659e+001 -1.868106e+001 -8.648198e+001
3063437500 -2.503304e+001 -5.919228e+001 -1.283578e+001 -6.216302e+001 -9.013482e+001 1.436043e+002 -1.776265e+001 -8.275285e+001
3064531250 -2.360383e+001 -4.483080e+001 -1.276322e+001 -1.272288e+002 -8.643490e+001 -1.451744e+002 -1.703313e+001 -7.822834e+001
3065625000 -2.243775e+001 -3.266272e+001 -1.273884e+001 1.685344e+002 -8.129008e+001 -8.152074e+001 -1.648066e+001 -7.319763e+001
3066718750 -2.155390e+001 -2.166320e+001 -1.269600e+001 1.051255e+002 -9.413895e+001 8.129076e+001 -1.609370e+001 -6.810154e+001
3067812500 -2.090557e+001 -1.134701e+001 -1.259486e+001 4.244473e+001 -8.845458e+001 -6.328719e+001 -1.585025e+001 -6.278859e+001
3068906250 -2.046424e+001 -1.790660e+000 -1.239185e+001 -1.994256e+001 -9.332340e+001 1.618041e+002 -1.573989e+001 -5.743285e+001
3070000000 -2.022427e+001 7.493301e+000 -1.207412e+001 -8.241177e+001 -8.466625e+001 7.632604e+000 -1.577050e+001 -5.207759e+001
3071093750 -2.017822e+001 1.629527e+001 -1.167165e+001 -1.452329e+002 -9.085354e+001 1.457614e+002 -1.593989e+001 -4.678260e+001
3072187500 -2.032761e+001 2.489518e+001 -1.124284e+001 1.512580e+002 -9.154393e+001 -9.024049e+001 -1.624188e+001 -4.155389e+001
3073281250 -2.067772e+001 3.305907e+001 -1.081843e+001 8.736815e+001 -8.278845e+001 1.511664e+001 -1.667320e+001 -3.674123e+001
3074375000 -2.122949e+001 4.096390e+001 -1.041265e+001 2.306551e+001 -8.794872e+001 -1.455039e+002 -1.724884e+001 -3.219566e+001
3075468750 -2.203969e+001 4.846353e+001 -1.003336e+001 -4.134106e+001 -8.780593e+001 -4.996704e+001 -1.798089e+001 -2.836787e+001
3076562500 -2.314132e+001 5.544872e+001 -9.654433e+000 -1.058086e+002 -7.938032e+001 1.102543e+002 -1.888262e+001 -2.523451e+001
3077656250 -2.465853e+001 6.165862e+001 -9.265535e+000 -1.703451e+002 -8.025462e+001 1.079113e+002 -1.998924e+001 -2.318787e+001
3078750000 -2.665946e+001 6.632829e+001 -8.859377e+000 1.247807e+002 -8.223400e+001 -2.014759e+001 -2.125980e+001 -2.286665e+001
3079843750 -2.947308e+001 6.788478e+001 -8.461263e+000 5.953029e+001 -9.265225e+001 -8.723687e+001 -2.268568e+001 -2.495448e+001
3080937500 -3.343351e+001 6.069865e+001 -8.107959e+000 -6.175611e+000 -8.126029e+001 1.073419e+002 -2.413894e+001 -3.055257e+001
3082031250 -3.742105e+001 2.620027e+001 -7.829394e+000 -7.209242e+001 -8.841735e+001 -5.501260e+001 -2.534029e+001 -4.035759e+001
3083125000 -3.465256e+001 -1.813484e+001 -7.626086e+000 -1.381054e+002 -8.812173e+001 -1.122099e+001 -2.581379e+001 -5.330946e+001
3084218750 -3.039355e+001 -3.051243e+001 -7.505329e+000 1.558916e+002 -8.616946e+001 9.173352e+001 -2.538741e+001 -6.578765e+001
3085312500 -2.734764e+001 -3.049745e+001 -7.439839e+000 9.022345e+001 -8.686027e+001 -1.553708e+002 -2.437988e+001 -7.448294e+001
3086406250 -2.517445e+001 -2.646446e+001 -7.424351e+000 2.463593e+001 -9.153287e+001 6.578223e+001 -2.321297e+001 -7.944200e+001
3087500000 -2.355987e+001 -2.077901e+001 -7.441492e+000 -4.062156e+001 -8.228424e+001 -5.853670e+001 -2.212480e+001 -8.126122e+001
3088593750 -2.238401e+001 -1.416755e+001 -7.490466e+000 -1.055739e+002 -8.920782e+001 -3.958672e+001 -2.116976e+001 -8.114900e+001
3089687500 -2.149323e+001 -7.062253e+000 -7.546256e+000 -1.701679e+002 -8.967193e+001 4.423880e+001 -2.041578e+001 -7.970798e+001
3090781250 -2.085271e+001 2.692491e-001 -7.588308e+000 1.256447e+002 -9.405188e+001 -8.621294e+001 -1.985023e+001 -7.779433e+001
3091875000 -2.046185e+001 7.742643e+000 -7.605724e+000 6.175679e+001 -9.330318e+001 8.952153e+001 -1.943980e+001 -7.525263e+001
3092968750 -2.027162e+001 1.559702e+001 -7.586692e+000 -1.975983e+000 -8.510561e+001 -2.866025e+001 -1.916160e+001 -7.245138e+001
3094062500 -2.027839e+001 2.357275e+001 -7.546818e+000 -6.572102e+001 -8.463818e+001 -1.521100e+002 -1.902229e+001 -6.978857e+001
3095156250 -2.046734e+001 3.164495e+001 -7.489800e+000 -1.294009e+002 -8.311039e+001 -5.487011e+001 -1.896189e+001 -6.698824e+001
3096250000 -2.083536e+001 3.984533e+001 -7.419279e+000 1.670458e+002 -8.671088e+001 -1.499518e+002 -1.901896e+001 -6.468723e+001
3097343750 -2.145377e+001 4.816854e+001 -7.320573e+000 1.036518e+002 -9.069336e+001 -5.137292e+001 -1.914351e+001 -6.260246e+001
3098437500 -2.231007e+001 5.682124e+001 -7.190629e+000 4.031556e+001 -8.283434e+001 1.207862e+002 -1.934421e+001 -6.106003e+001
3099531250 -2.345399e+001 6.563642e+001 -6.994913e+000 -2.308649e+001 -9.429168e+001 9.668011e+001 -1.957421e+001 -5.986871e+001
3100625000 -2.500057e+001 7.499957e+001 -6.776870e+000 -8.669104e+001 -8.774185e+001 -4.066719e+001 -1.981554e+001 -5.935580e+001
3101718750 -2.704448e+001 8.496701e+001 -6.525248e+000 -1.506824e+002 -8.919263e+001 4.953784e+000 -2.006712e+001 -5.932509e+001
3102812500 -2.991041e+001 9.776089e+001 -6.276191e+000 1.450973e+002 -8.624223e+001 -1.319071e+001 -2.028029e+001 -5.966307e+001
3103906250 -3.432049e+001 1.157958e+002 -6.074340e+000 8.059156e+001 -8.097427e+001 7.561543e+001 -2.045141e+001 -6.018873e+001
3105000000 -4.074089e+001 1.640143e+002 -5.911154e+000 1.606697e+001 -7.999355e+001 1.652027e+001 -2.055626e+001 -6.097735e+001
3106093750 -3.789717e+001 -1.154910e+002 -5.774806e+000 -4.850518e+001 -8.184767e+001 -1.351198e+002 -2.060254e+001 -6.142511e+001
3107187500 -3.240924e+001 -8.641943e+001 -5.654885e+000 -1.128590e+002 -8.085188e+001 -8.848438e+001 -2.062257e+001 -6.191850e+001
3108281250 -2.898516e+001 -7.150166e+001 -5.560593e+000 -1.771414e+002 -8.187165e+001 -6.342820e+001 -2.060698e+001 -6.200824e+001
3109375000 -2.666566e+001 -6.013885e+001 -5.472084e+000 1.187699e+002 -9.182834e+001 1.647643e+002 -2.060483e+001 -6.183701e+001
3110468750 -2.507535e+001 -5.051975e+001 -5.350328e+000 5.485388e+001 -8.469512e+001 -2.682233e+001 -2.064213e+001 -6.133310e+001
3111562500 -2.389730e+001 -4.149028e+001 -5.192429e+000 -8.993077e+000 -8.908485e+001 -3.723930e+001 -2.072761e+001 -6.049469e+001
3112656250 -2.307398e+001 -3.290525e+001 -4.995475e+000 -7.287511e+001 -8.391586e+001 1.241973e+002 -2.083267e+001 -5.984227e+001
3113750000 -2.253942e+001 -2.442694e+001 -4.750710e+000 -1.369628e+002 -9.038477e+001 -2.729941e+001 -2.105144e+001 -5.895425e+001
3114843750 -2.225481e+001 -1.615567e+001 -4.500010e+000 1.586275e+002 -8.640191e+001 -5.082370e+001 -2.133512e+001 -5.835790e+001
3115937500 -2.219868e+001 -8.214696e+000 -4.270251e+000 9.399326e+001 -9.211500e+001 1.731609e+001 -2.168881e+001 -5.809016e+001
3117031250 -2.236892e+001 -3.849760e-001 -4.050935e+000 2.925045e+001 -8.203067e+001 -1.742945e+002 -2.209864e+001 -5.844704e+001
3118125000 -2.277729e+001 7.486369e+000 -3.856927e+000 -3.544793e+001 -8.053561e+001 1.182052e+002 -2.254728e+001 -5.952777e+001
3119218750 -2.342726e+001 1.501898e+001 -3.678225e+000 -1.002325e+002 -9.186375e+001 -2.766420e+001 -2.297783e+001 -6.165821e+001
3120312500 -2.437520e+001 2.234285e+001 -3.503937e+000 -1.649654e+002 -1.014383e+002 -8.146238e+001 -2.330550e+001 -6.477546e+001
3121406250 -2.568938e+001 2.934857e+001 -3.347252e+000 1.302067e+002 -8.270648e+001 -1.484390e+002 -2.350220e+001 -6.863718e+001
3122500000 -2.752490e+001 3.544722e+001 -3.186828e+000 6.537403e+001 -8.451383e+001 1.404341e+002 -2.351678e+001 -7.288805e+001
3123593750 -3.007807e+001 4.030130e+001 -3.059149e+000 5.005646e-001 -9.210266e+001 -1.436294e+002 -2.330958e+001 -7.695867e+001
3124687500 -3.396664e+001 4.075302e+001 -2.930559e+000 -6.426126e+001 -8.348857e+001 1.038373e+002 -2.294615e+001 -7.987238e+001
3125781250 -4.056337e+001 2.438681e+001 -2.802572e+000 -1.290560e+002 -8.468699e+001 -1.306162e+002 -2.246961e+001 -8.184258e+001
3126875000 -4.132216e+001 -5.567212e+001 -2.668431e+000 1.661529e+002 -9.438014e+001 -1.132421e+002 -2.196897e+001 -8.253999e+001
3127968750 -3.435432e+001 -7.677709e+001 -2.500255e+000 1.012952e+002 -9.056664e+001 -3.020550e+001 -2.150897e+001 -8.187976e+001
3129062500 -3.035932e+001 -7.645007e+001 -2.335088e+000 3.612303e+001 -9.843078e+001 -1.359526e+002 -2.109520e+001 -8.042517e+001
3130156250 -2.771487e+001 -7.201149e+001 -2.188575e+000 -2.907856e+001 -8.369621e+001 -9.879247e+001 -2.078615e+001 -7.817980e+001
3131250000 -2.583648e+001 -6.627697e+001 -2.079877e+000 -9.437035e+001 -8.545481e+001 3.988053e+001 -2.056697e+001 -7.517532e+001
3132343750 -2.447264e+001 -5.946429e+001 -1.991834e+000 -1.595385e+002 -7.993656e+001 -1.093309e+001 -2.049930e+001 -7.181189e+001
3133437500 -2.348833e+001 -5.257083e+001 -1.920642e+000 1.352267e+002 -7.823228e+001 1.797984e+002 -2.057502e+001 -6.805232e+001
3134531250 -2.278704e+001 -4.551901e+001 -1.876508e+000 7.012405e+001 -9.095327e+001 -9.183772e+001 -2.079849e+001 -6.426324e+001
3135625000 -2.234682e+001 -3.828598e+001 -1.842759e+000 5.187555e+000 -8.167184e+001 1.426400e+002 -2.119625e+001 -6.015148e+001
3136718750 -2.214851e+001 -3.095353e+001 -1.816774e+000 -5.972578e+001 -1.025018e+002 8.121092e+001 -2.178592e+001 -5.638804e+001
3137812500 -2.214397e+001 -2.378170e+001 -1.784846e+000 -1.244803e+002 -8.690684e+001 3.105298e+001 -2.262020e+001 -5.311372e+001
3138906250 -2.237333e+001 -1.674938e+001 -1.745308e+000 1.706792e+002 -8.205828e+001 -1.528626e+002 -2.373632e+001 -5.022755e+001
3140000000 -2.281767e+001 -9.586446e+000 -1.702383e+000 1.059929e+002 -8.119057e+001 -1.075017e+002 -2.514505e+001 -4.876098e+001
3141093750 -2.351851e+001 -2.900304e+000 -1.645003e+000 4.121044e+001 -1.005600e+002 -6.975241e+001 -2.703007e+001 -4.985984e+001
3142187500 -2.452750e+001 3.693292e+000 -1.574789e+000 -2.371920e+001 -8.410294e+001 1.128526e+002 -2.927146e+001 -5.621601e+001
3143281250 -2.589483e+001 9.519957e+000 -1.529418e+000 -8.873569e+001 -8.172793e+001 3.336478e+001 -3.154508e+001 -7.260136e+001
3144375000 -2.777950e+001 1.409915e+001 -1.489795e+000 -1.536878e+002 -9.034669e+001 -1.158213e+002 -3.204096e+001 -9.905055e+001
3145468750 -3.043526e+001 1.621009e+001 -1.474416e+000 1.414136e+002 -8.723865e+001 1.582351e+002 -3.009957e+001 -1.205714e+002
3146562500 -3.423016e+001 1.183043e+001 -1.460631e+000 7.665250e+001 -9.098520e+001 2.045489e+001 -2.759851e+001 -1.302115e+002
3147656250 -3.904311e+001 -1.761532e+001 -1.449524e+000 1.191904e+001 -8.737854e+001 4.324286e+001 -2.539246e+001 -1.328624e+002
3148750000 -3.734212e+001 -7.016146e+001 -1.440356e+000 -5.269790e+001 -8.531324e+001 -1.579404e+002 -2.363630e+001 -1.317732e+002
3149843750 -3.258954e+001 -8.678493e+001 -1.429974e+000 -1.174477e+002 -8.148487e+001 -1.214741e+002 -2.230176e+001 -1.290276e+002
3150937500 -2.920418e+001 -8.795694e+001 -1.422343e+000 1.778492e+002 -8.542619e+001 1.087715e+002 -2.121246e+001 -1.248394e+002
3152031250 -2.679112e+001 -8.457520e+001 -1.440729e+000 1.132009e+002 -8.003077e+001 -1.718580e+002 -2.037766e+001 -1.201973e+002
3153125000 -2.510135e+001 -7.929471e+001 -1.450103e+000 4.871741e+001 -8.907392e+001 -1.570755e+002 -1.977592e+001 -1.150508e+002
3154218750 -2.380755e+001 -7.313187e+001 -1.463200e+000 -1.582012e+001 -8.632495e+001 -5.942822e+001 -1.934834e+001 -1.098212e+002
3155312500 -2.285096e+001 -6.642406e+001 -1.461614e+000 -8.017252e+001 -8.447414e+001 -5.543216e+001 -1.909847e+001 -1.043423e+002
3156406250 -2.216067e+001 -5.945156e+001 -1.458094e+000 -1.445825e+002 -9.121402e+001 -4.848773e+000 -1.902671e+001 -9.883959e+001
3157500000 -2.169481e+001 -5.225350e+001 -1.441947e+000 1.510451e+002 -1.022742e+002 1.245669e+001 -1.911227e+001 -9.367184e+001
3158593750 -2.144966e+001 -4.486993e+001 -1.415083e+000 8.683202e+001 -7.942883e+001 1.639717e+002 -1.938280e+001 -8.849844e+001
3159687500 -2.139454e+001 -3.759863e+001 -1.388360e+000 2.262932e+001 -1.009293e+002 6.372543e+001 -1.983518e+001 -8.389488e+001
3160781250 -2.154184e+001 -3.012265e+001 -1.338366e+000 -4.157204e+001 -8.260548e+001 1.233175e+002 -2.045781e+001 -7.975432e+001
3161875000 -2.190092e+001 -2.222545e+001 -1.272314e+000 -1.057453e+002 -8.107841e+001 8.815402e+001 -2.130181e+001 -7.637150e+001
3162968750 -2.244206e+001 -1.471604e+001 -1.195365e+000 -1.701054e+002 -8.145009e+001 -1.233406e+002 -2.234817e+001 -7.466788e+001
3164062500 -2.323655e+001 -7.089314e+000 -1.123380e+000 1.253424e+002 -8.967017e+001 -5.804281e+001 -2.360485e+001 -7.494565e+001
