!Agilent Technologies,E8363B,MY43030572,A.06.04.32
!Agilent E8363B: A.06.04.32
!Date: Monday, June 06, 2011 14:53:35
!Correction: S11(Full 2 Port(1,2)) S21(Full 2 Port(1,2)) S12(Full 2 Port(1,2)) S22(Full 2 Port(1,2)) 
!S2P File: Measurements: S11, S21, S12, S22:
# Hz S  dB   R 50
3000000000 -2.083267e+001 5.504474e+001 -8.757855e+000 -4.773186e+001 -8.805543e+001 -2.119836e+001 -1.641539e+001 -2.356050e+001
3001093750 -2.032875e+001 6.336629e+001 -9.524500e+000 -1.126217e+002 -8.797984e+001 -1.096123e+002 -1.670244e+001 -1.994316e+001
3002187500 -2.003523e+001 7.197559e+001 -9.485158e+000 -1.746677e+002 -8.515336e+001 1.146980e+002 -1.708048e+001 -1.611174e+001
3003281250 -1.994105e+001 8.086154e+001 -9.363770e+000 1.229513e+002 -8.269181e+001 -4.216568e+001 -1.760929e+001 -1.280701e+001
3004375000 -2.004292e+001 8.953967e+001 -9.184882e+000 6.020905e+001 -9.124404e+001 -1.514865e+002 -1.827295e+001 -1.019965e+001
3005468750 -2.036337e+001 9.834834e+001 -8.982221e+000 -3.070769e+000 -8.272458e+001 1.065153e+001 -1.908027e+001 -8.652883e+000
3006562500 -2.089016e+001 1.074151e+002 -8.790310e+000 -6.697582e+001 -8.461398e+001 -1.314708e+002 -2.002208e+001 -8.525235e+000
3007656250 -2.167476e+001 1.165640e+002 -8.638002e+000 -1.312641e+002 -8.374339e+001 7.174300e+001 -2.105009e+001 -1.056202e+001
3008750000 -2.277772e+001 1.261341e+002 -8.529771e+000 1.641596e+002 -8.735602e+001 -1.482012e+002 -2.201204e+001 -1.513032e+001
3009843750 -2.428661e+001 1.365409e+002 -8.461895e+000 9.946192e+001 -8.437410e+001 -1.195296e+002 -2.270518e+001 -2.244228e+001
3010937500 -2.632816e+001 1.482458e+002 -8.437407e+000 3.459969e+001 -8.618390e+001 -7.937527e+001 -2.292434e+001 -3.139097e+001
3012031250 -2.924475e+001 1.629986e+002 -8.448283e+000 -3.022351e+001 -8.158390e+001 -1.424851e+002 -2.254781e+001 -3.992987e+001
3013125000 -3.355123e+001 -1.730200e+002 -8.505868e+000 -9.487476e+001 -8.035357e+001 -8.447622e+001 -2.177269e+001 -4.627399e+001
3014218750 -3.797543e+001 -1.161976e+002 -8.597116e+000 -1.593603e+002 -8.201318e+001 -1.017868e+002 -2.086015e+001 -4.988253e+001
3015312500 -3.402381e+001 -5.353230e+001 -8.692347e+000 1.364878e+002 -9.239510e+001 1.367668e+002 -1.993763e+001 -5.109524e+001
3016406250 -2.944900e+001 -2.789137e+001 -8.796558e+000 7.260381e+001 -8.952056e+001 -1.621101e+002 -1.912634e+001 -5.033077e+001
3017500000 -2.631000e+001 -1.287258e+001 -8.869236e+000 8.880664e+000 -9.672710e+001 1.810792e+001 -1.843266e+001 -4.826720e+001
3018593750 -2.408792e+001 -1.057969e+000 -8.914159e+000 -5.464017e+001 -8.882327e+001 1.502665e+002 -1.789879e+001 -4.524679e+001
3019687500 -2.245592e+001 9.268107e+000 -8.931477e+000 -1.182014e+002 -7.948551e+001 -6.808759e+001 -1.752354e+001 -4.176721e+001
3020781250 -2.121301e+001 1.880465e+001 -8.917731e+000 1.781359e+002 -9.680210e+001 -6.234227e+001 -1.729684e+001 -3.770444e+001
3021875000 -2.029179e+001 2.816672e+001 -8.869330e+000 1.142604e+002 -8.654873e+001 1.322509e+002 -1.721572e+001 -3.353887e+001
3022968750 -1.962001e+001 3.714515e+001 -8.810459e+000 5.021940e+001 -8.443378e+001 1.372673e+002 -1.729807e+001 -2.929437e+001
3024062500 -1.917015e+001 4.584776e+001 -8.745378e+000 -1.408763e+001 -8.810134e+001 6.214457e+001 -1.752645e+001 -2.515603e+001
3025156250 -1.889426e+001 5.444729e+001 -8.667982e+000 -7.862810e+001 -8.350188e+001 5.913055e+001 -1.793468e+001 -2.126990e+001
3026250000 -1.883847e+001 6.298950e+001 -8.600347e+000 -1.434389e+002 -9.618372e+001 1.477612e+002 -1.850996e+001 -1.773811e+001
3027343750 -1.892513e+001 7.149307e+001 -8.545428e+000 1.512948e+002 -8.266660e+001 4.163066e+001 -1.925005e+001 -1.502550e+001
3028437500 -1.921561e+001 7.999429e+001 -8.537773e+000 8.597315e+001 -8.372280e+001 -1.443609e+002 -2.018835e+001 -1.332730e+001
3029531250 -1.971749e+001 8.825424e+001 -8.582252e+000 2.036756e+001 -8.983672e+001 3.918772e+001 -2.129667e+001 -1.322695e+001
3030625000 -2.041245e+001 9.655247e+001 -8.718267e+000 -4.521807e+001 -8.115845e+001 -1.762189e+002 -2.255243e+001 -1.586740e+001
3031718750 -2.137823e+001 1.046765e+002 -8.919525e+000 -1.106116e+002 -8.010329e+001 -4.966758e+001 -2.378871e+001 -2.180756e+001
3032812500 -2.267349e+001 1.127718e+002 -9.189522e+000 -1.758055e+002 -7.997272e+001 -1.474082e+002 -2.466040e+001 -3.183581e+001
3033906250 -2.437644e+001 1.206574e+002 -9.515749e+000 1.193889e+002 -8.899520e+001 -1.207063e+002 -2.476981e+001 -4.431032e+001
3035000000 -2.677696e+001 1.281343e+002 -9.881772e+000 5.487727e+001 -8.822885e+001 3.975150e+001 -2.406387e+001 -5.500563e+001
3036093750 -3.028079e+001 1.347169e+002 -1.028619e+001 -9.174587e+000 -9.496780e+001 6.608160e+001 -2.290624e+001 -6.216593e+001
3037187500 -3.648208e+001 1.385875e+002 -1.070588e+001 -7.273402e+001 -8.475544e+001 -1.241820e+002 -2.167995e+001 -6.546372e+001
3038281250 -5.174305e+001 4.093007e+001 -1.111079e+001 -1.357313e+002 -7.829975e+001 -1.617970e+002 -2.053448e+001 -6.593865e+001
3039375000 -3.542331e+001 -7.056111e+000 -1.144244e+001 1.617921e+002 -9.799712e+001 -1.169365e+002 -1.959282e+001 -6.433068e+001
3040468750 -2.994494e+001 -2.826111e+000 -1.166621e+001 9.955084e+001 -7.974235e+001 7.228927e+001 -1.880817e+001 -6.160065e+001
3041562500 -2.679741e+001 4.284110e+000 -1.180746e+001 3.723977e+001 -8.324486e+001 3.671750e+001 -1.822149e+001 -5.791535e+001
3042656250 -2.464444e+001 1.210166e+001 -1.186489e+001 -2.545640e+001 -9.329199e+001 -1.425687e+002 -1.781316e+001 -5.372841e+001
3043750000 -2.311633e+001 2.033799e+001 -1.191067e+001 -8.858821e+001 -9.004051e+001 -7.374111e+000 -1.756534e+001 -4.922985e+001
3044843750 -2.205089e+001 2.863189e+001 -1.199103e+001 -1.519096e+002 -9.509273e+001 -1.644421e+002 -1.750925e+001 -4.456444e+001
3045937500 -2.125702e+001 3.720852e+001 -1.210791e+001 1.446402e+002 -9.002486e+001 1.650806e+002 -1.760736e+001 -3.986307e+001
3047031250 -2.074486e+001 4.609234e+001 -1.227840e+001 8.143369e+001 -8.191938e+001 -6.238763e+001 -1.788851e+001 -3.513252e+001
3048125000 -2.046128e+001 5.482566e+001 -1.246138e+001 1.848881e+001 -8.708481e+001 -4.960189e+001 -1.833547e+001 -3.072199e+001
3049218750 -2.037807e+001 6.394104e+001 -1.262681e+001 -4.420085e+001 -8.804545e+001 -1.418430e+002 -1.901149e+001 -2.669203e+001
3050312500 -2.053005e+001 7.336108e+001 -1.275706e+001 -1.068058e+002 -8.415233e+001 -1.730280e+002 -1.990487e+001 -2.332036e+001
3051406250 -2.084069e+001 8.295821e+001 -1.285819e+001 -1.697666e+002 -8.285372e+001 -3.047084e+001 -2.105279e+001 -2.126518e+001
3052500000 -2.139010e+001 9.317455e+001 -1.297772e+001 1.272143e+002 -8.981831e+001 1.028060e+002 -2.244273e+001 -2.119222e+001
3053593750 -2.217090e+001 1.041516e+002 -1.314160e+001 6.393233e+001 -9.712852e+001 1.746411e+002 -2.416603e+001 -2.462769e+001
3054687500 -2.321009e+001 1.158408e+002 -1.335973e+001 8.206705e-001 -8.307007e+001 4.040031e+001 -2.594893e+001 -3.387515e+001
3055781250 -2.452537e+001 1.295075e+002 -1.362114e+001 -6.173972e+001 -8.046752e+001 1.325286e+002 -2.700668e+001 -5.048203e+001
3056875000 -2.616719e+001 1.458112e+002 -1.387874e+001 -1.234590e+002 -8.567387e+001 1.260376e+002 -2.661074e+001 -6.941114e+001
3057968750 -2.797047e+001 1.670668e+002 -1.407435e+001 1.755409e+002 -8.267513e+001 -1.672063e+002 -2.498730e+001 -8.288417e+001
3059062500 -2.950429e+001 -1.644236e+002 -1.412298e+001 1.153530e+002 -8.645023e+001 6.648501e+001 -2.304673e+001 -8.925495e+001
3060156250 -2.983063e+001 -1.313438e+002 -1.399680e+001 5.520684e+001 -9.036128e+001 4.055125e+001 -2.134235e+001 -9.086450e+001
3061250000 -2.861250e+001 -1.005533e+002 -1.372181e+001 -5.589258e+000 -8.808128e+001 -4.309241e+001 -1.990146e+001 -8.955312e+001
3062343750 -2.676219e+001 -7.691418e+001 -1.337442e+001 -6.725768e+001 -9.753502e+001 -6.527945e+001 -1.875216e+001 -8.670186e+001
3063437500 -2.500702e+001 -5.916997e+001 -1.304878e+001 -1.298332e+002 -8.346845e+001 -1.672718e+002 -1.782526e+001 -8.281985e+001
3064531250 -2.357159e+001 -4.491355e+001 -1.276980e+001 1.668552e+002 -9.010788e+001 -1.459482e+002 -1.708519e+001 -7.839436e+001
3065625000 -2.241898e+001 -3.278403e+001 -1.258577e+001 1.032191e+002 -8.535308e+001 -4.956415e+001 -1.653016e+001 -7.326861e+001
3066718750 -2.153780e+001 -2.182250e+001 -1.245929e+001 3.930100e+001 -8.452386e+001 2.309851e+001 -1.613392e+001 -6.816901e+001
3067812500 -2.087710e+001 -1.146048e+001 -1.239062e+001 -2.459813e+001 -8.333975e+001 1.780109e+002 -1.590357e+001 -6.288443e+001
3068906250 -2.044218e+001 -1.932503e+000 -1.235866e+001 -8.854396e+001 -9.644460e+001 9.085654e+001 -1.578864e+001 -5.740506e+001
3070000000 -2.022140e+001 7.372989e+000 -1.233499e+001 -1.523245e+002 -9.029475e+001 -2.810175e+001 -1.582208e+001 -5.202252e+001
3071093750 -2.017389e+001 1.616024e+001 -1.230858e+001 1.439385e+002 -9.600743e+001 1.349073e+002 -1.598362e+001 -4.670593e+001
3072187500 -2.033455e+001 2.477316e+001 -1.229970e+001 8.017128e+001 -7.940608e+001 -1.756387e+002 -1.628092e+001 -4.153825e+001
3073281250 -2.067358e+001 3.289775e+001 -1.232669e+001 1.656227e+001 -8.455751e+001 -1.320112e+001 -1.672198e+001 -3.667849e+001
3074375000 -2.122860e+001 4.076691e+001 -1.240747e+001 -4.681756e+001 -8.242779e+001 1.134584e+002 -1.729273e+001 -3.203033e+001
3075468750 -2.204080e+001 4.834911e+001 -1.253718e+001 -1.094429e+002 -8.166273e+001 -1.468915e+002 -1.803055e+001 -2.814217e+001
3076562500 -2.316600e+001 5.522815e+001 -1.266350e+001 -1.712333e+002 -9.157490e+001 1.157475e+002 -1.894320e+001 -2.499393e+001
3077656250 -2.465658e+001 6.137279e+001 -1.270888e+001 1.279143e+002 -8.676084e+001 1.636589e+002 -2.003191e+001 -2.300366e+001
3078750000 -2.667166e+001 6.617213e+001 -1.260462e+001 6.764536e+001 -8.300323e+001 1.114656e+002 -2.131934e+001 -2.253665e+001
3079843750 -2.951874e+001 6.747704e+001 -1.229596e+001 7.212462e+000 -8.084307e+001 -1.151114e+002 -2.275864e+001 -2.452628e+001
3080937500 -3.345614e+001 6.042324e+001 -1.182603e+001 -5.404620e+001 -8.853275e+001 -1.003242e+002 -2.423319e+001 -3.009067e+001
3082031250 -3.740206e+001 2.546417e+001 -1.128019e+001 -1.166117e+002 -8.729871e+001 3.077966e+001 -2.544919e+001 -3.997327e+001
3083125000 -3.464788e+001 -1.890657e+001 -1.074379e+001 1.795814e+002 -9.028983e+001 -1.677180e+002 -2.593412e+001 -5.299742e+001
3084218750 -3.034432e+001 -3.093522e+001 -1.028943e+001 1.147388e+002 -8.626752e+001 1.433129e+002 -2.550954e+001 -6.578569e+001
3085312500 -2.729655e+001 -3.068870e+001 -9.935601e+000 4.947202e+001 -8.705087e+001 -6.046471e+001 -2.447563e+001 -7.461536e+001
3086406250 -2.515017e+001 -2.669235e+001 -9.698138e+000 -1.620325e+001 -1.019050e+002 1.662857e+002 -2.329004e+001 -7.951571e+001
3087500000 -2.354776e+001 -2.096673e+001 -9.562229e+000 -8.175365e+001 -8.380809e+001 -1.062887e+002 -2.219088e+001 -8.124265e+001
3088593750 -2.237471e+001 -1.435640e+001 -9.528007e+000 -1.470113e+002 -8.614286e+001 1.084544e+002 -2.121774e+001 -8.123090e+001
3089687500 -2.148562e+001 -7.221540e+000 -9.540882e+000 1.483329e+002 -8.645705e+001 8.823299e+001 -2.047894e+001 -7.978358e+001
3090781250 -2.083727e+001 8.298344e-002 -9.581955e+000 8.438502e+001 -8.273260e+001 7.670003e+001 -1.991184e+001 -7.772222e+001
3091875000 -2.046574e+001 7.586762e+000 -9.602051e+000 2.091836e+001 -8.922292e+001 1.620468e+002 -1.948848e+001 -7.522007e+001
3092968750 -2.028782e+001 1.543593e+001 -9.573075e+000 -4.224037e+001 -8.976714e+001 1.589352e+002 -1.922760e+001 -7.236408e+001
3094062500 -2.028169e+001 2.340958e+001 -9.513041e+000 -1.053584e+002 -8.804752e+001 6.235248e+001 -1.907569e+001 -6.959943e+001
3095156250 -2.046751e+001 3.148548e+001 -9.416862e+000 -1.685523e+002 -9.034810e+001 7.306134e+001 -1.902311e+001 -6.686355e+001
3096250000 -2.085328e+001 3.960260e+001 -9.305559e+000 1.281770e+002 -8.627241e+001 -1.403623e+002 -1.907623e+001 -6.444662e+001
3097343750 -2.147685e+001 4.801258e+001 -9.175516e+000 6.488223e+001 -8.061897e+001 -1.670423e+002 -1.921199e+001 -6.239163e+001
3098437500 -2.233931e+001 5.662614e+001 -9.036325e+000 1.622256e+000 -8.557627e+001 8.658698e+001 -1.941829e+001 -6.085041e+001
3099531250 -2.348344e+001 6.547216e+001 -8.848858e+000 -6.171092e+001 -8.471152e+001 -1.637088e+001 -1.965427e+001 -5.961259e+001
3100625000 -2.501899e+001 7.488872e+001 -8.634868e+000 -1.251396e+002 -8.575602e+001 3.125339e+001 -1.991481e+001 -5.903114e+001
3101718750 -2.707596e+001 8.493938e+001 -8.367671e+000 1.712413e+002 -9.199320e+001 1.667205e+002 -2.016202e+001 -5.895429e+001
3102812500 -3.000495e+001 9.780032e+001 -8.083799e+000 1.073477e+002 -8.552684e+001 -1.078332e+002 -2.038301e+001 -5.936750e+001
3103906250 -3.441340e+001 1.161944e+002 -7.807247e+000 4.307489e+001 -8.796819e+001 9.571088e+001 -2.054875e+001 -5.992792e+001
3105000000 -4.085203e+001 1.651451e+002 -7.563697e+000 -2.137976e+001 -7.961791e+001 -1.006511e+002 -2.064847e+001 -6.070885e+001
3106093750 -3.775698e+001 -1.150653e+002 -7.362909e+000 -8.609515e+001 -9.035551e+001 -1.705866e+002 -2.070001e+001 -6.143578e+001
3107187500 -3.232073e+001 -8.644972e+001 -7.193434e+000 -1.507956e+002 -8.448141e+001 9.448499e+001 -2.071748e+001 -6.172575e+001
3108281250 -2.893568e+001 -7.164739e+001 -7.098548e+000 1.444763e+002 -9.938950e+001 -5.469301e+001 -2.071338e+001 -6.189339e+001
3109375000 -2.662786e+001 -6.043116e+001 -7.039187e+000 7.994783e+001 -8.525079e+001 2.481964e+001 -2.070832e+001 -6.179847e+001
3110468750 -2.503795e+001 -5.077930e+001 -6.984751e+000 1.557868e+001 -8.302357e+001 5.689154e+001 -2.073106e+001 -6.130579e+001
3111562500 -2.386500e+001 -4.172651e+001 -6.921648e+000 -4.859113e+001 -9.206391e+001 2.404123e+001 -2.081514e+001 -6.055400e+001
3112656250 -2.304758e+001 -3.301915e+001 -6.827736e+000 -1.125901e+002 -9.465536e+001 7.447346e+001 -2.092580e+001 -5.968182e+001
3113750000 -2.253121e+001 -2.463544e+001 -6.696581e+000 -1.766117e+002 -8.209428e+001 5.638142e+001 -2.113322e+001 -5.894151e+001
3114843750 -2.225769e+001 -1.639822e+001 -6.545986e+000 1.192217e+002 -8.728306e+001 -1.756171e+002 -2.140184e+001 -5.820479e+001
3115937500 -2.219608e+001 -8.439391e+000 -6.387030e+000 5.501174e+001 -8.820789e+001 1.395000e+002 -2.176276e+001 -5.795780e+001
3117031250 -2.237966e+001 -5.234094e-001 -6.215840e+000 -9.281154e+000 -8.785517e+001 1.324155e+002 -2.215730e+001 -5.834790e+001
3118125000 -2.277967e+001 7.302300e+000 -6.051168e+000 -7.366755e+001 -9.051917e+001 6.956494e+001 -2.261817e+001 -5.945144e+001
3119218750 -2.344081e+001 1.483008e+001 -5.884872e+000 -1.380921e+002 -9.133913e+001 -5.318765e+001 -2.304210e+001 -6.151048e+001
3120312500 -2.439054e+001 2.207610e+001 -5.743803e+000 1.574667e+002 -8.276236e+001 1.056747e+002 -2.340096e+001 -6.465990e+001
3121406250 -2.572793e+001 2.902014e+001 -5.611067e+000 9.301263e+001 -8.859324e+001 8.526732e+001 -2.360156e+001 -6.842692e+001
3122500000 -2.755829e+001 3.503103e+001 -5.473687e+000 2.850955e+001 -8.625752e+001 -1.519145e+002 -2.363804e+001 -7.270279e+001
3123593750 -3.012350e+001 3.978400e+001 -5.364189e+000 -3.599245e+001 -8.779005e+001 -4.002731e+001 -2.342758e+001 -7.670031e+001
3124687500 -3.402543e+001 4.021150e+001 -5.231296e+000 -1.004725e+002 -9.179288e+001 -1.240517e+002 -2.306546e+001 -7.969154e+001
3125781250 -4.068374e+001 2.280559e+001 -5.075870e+000 -1.651656e+002 -8.876405e+001 1.326078e+002 -2.258758e+001 -8.152401e+001
3126875000 -4.117029e+001 -5.612177e+001 -4.897970e+000 1.300661e+002 -8.323637e+001 1.543468e+002 -2.207977e+001 -8.224221e+001
3127968750 -3.429227e+001 -7.698828e+001 -4.704979e+000 6.485378e+001 -9.199648e+001 1.775990e+002 -2.160195e+001 -8.174176e+001
3129062500 -3.030765e+001 -7.648778e+001 -4.542762e+000 -7.768393e-001 -8.519618e+001 1.909222e+001 -2.118325e+001 -8.038454e+001
3130156250 -2.766527e+001 -7.198452e+001 -4.418255e+000 -6.659518e+001 -9.078397e+001 -8.748043e+001 -2.086857e+001 -7.810033e+001
3131250000 -2.580334e+001 -6.632740e+001 -4.377657e+000 -1.325459e+002 -8.781657e+001 1.035956e+002 -2.066415e+001 -7.519196e+001
3132343750 -2.445450e+001 -5.953146e+001 -4.401196e+000 1.617356e+002 -8.032356e+001 -5.336169e+001 -2.059286e+001 -7.172245e+001
3133437500 -2.347692e+001 -5.276213e+001 -4.473972e+000 9.621597e+001 -8.856489e+001 -1.760338e+002 -2.066663e+001 -6.791796e+001
3134531250 -2.278699e+001 -4.563772e+001 -4.603637e+000 3.105939e+001 -8.605056e+001 -3.122873e+001 -2.090289e+001 -6.401801e+001
3135625000 -2.233494e+001 -3.838336e+001 -4.721782e+000 -3.373095e+001 -8.401656e+001 -2.656557e+001 -2.129109e+001 -5.995511e+001
3136718750 -2.215075e+001 -3.115724e+001 -4.865085e+000 -9.829779e+001 -8.851100e+001 1.296140e+002 -2.188220e+001 -5.607363e+001
3137812500 -2.213947e+001 -2.393306e+001 -4.987382e+000 -1.625624e+002 -9.647257e+001 1.238604e+002 -2.269914e+001 -5.268380e+001
3138906250 -2.237116e+001 -1.688449e+001 -5.097475e+000 1.331874e+002 -8.069132e+001 7.325122e+001 -2.379874e+001 -4.994802e+001
3140000000 -2.281503e+001 -9.689178e+000 -5.204211e+000 6.916663e+001 -8.308995e+001 -1.334613e+002 -2.521750e+001 -4.824519e+001
3141093750 -2.352379e+001 -3.041879e+000 -5.285395e+000 5.194112e+000 -8.223044e+001 4.781865e+000 -2.711174e+001 -4.929603e+001
3142187500 -2.454755e+001 3.465598e+000 -5.350174e+000 -5.889307e+001 -8.533161e+001 2.571309e+001 -2.939109e+001 -5.563399e+001
3143281250 -2.590770e+001 9.261315e+000 -5.403493e+000 -1.228115e+002 -7.910321e+001 -1.200198e+002 -3.175048e+001 -7.185795e+001
3144375000 -2.780803e+001 1.385580e+001 -5.434913e+000 1.734041e+002 -9.079114e+001 5.522913e+001 -3.236197e+001 -9.907023e+001
3145468750 -3.047115e+001 1.615764e+001 -5.456095e+000 1.097054e+002 -8.836020e+001 1.642770e+002 -3.039249e+001 -1.211823e+002
3146562500 -3.428909e+001 1.123223e+001 -5.430375e+000 4.615000e+001 -8.636639e+001 1.570106e+002 -2.783509e+001 -1.308099e+002
3147656250 -3.913482e+001 -1.824454e+001 -5.379843e+000 -1.752189e+001 -7.989581e+001 1.520206e+002 -2.557524e+001 -1.332994e+002
3148750000 -3.735290e+001 -7.104697e+001 -5.302783e+000 -8.136647e+001 -9.971302e+001 -1.291537e+002 -2.380294e+001 -1.321481e+002
3149843750 -3.254002e+001 -8.709905e+001 -5.223329e+000 -1.455829e+002 -8.460307e+001 -8.292416e+001 -2.241053e+001 -1.291405e+002
3150937500 -2.919056e+001 -8.821628e+001 -5.168355e+000 1.500101e+002 -9.036059e+001 -1.456501e+002 -2.130303e+001 -1.250905e+002
3152031250 -2.677472e+001 -8.486263e+001 -5.156471e+000 8.551849e+001 -8.423779e+001 1.012353e+002 -2.046646e+001 -1.204619e+002
3153125000 -2.507395e+001 -7.960846e+001 -5.183843e+000 2.102680e+001 -8.092403e+001 -8.232859e+001 -1.985104e+001 -1.153208e+002
3154218750 -2.380117e+001 -7.338699e+001 -5.258632e+000 -4.343859e+001 -9.411973e+001 4.720562e+001 -1.942877e+001 -1.101362e+002
3155312500 -2.283703e+001 -6.667617e+001 -5.342405e+000 -1.075711e+002 -9.892936e+001 -1.048370e+002 -1.918960e+001 -1.045912e+002
3156406250 -2.216211e+001 -5.973090e+001 -5.445898e+000 -1.715645e+002 -8.214852e+001 1.737483e+002 -1.912953e+001 -9.906975e+001
3157500000 -2.170259e+001 -5.239765e+001 -5.547043e+000 1.248100e+002 -8.685330e+001 -5.480711e+001 -1.921211e+001 -9.374091e+001
3158593750 -2.145869e+001 -4.514063e+001 -5.616193e+000 6.161736e+001 -8.393171e+001 9.279296e-001 -1.947689e+001 -8.851131e+001
3159687500 -2.141340e+001 -3.780625e+001 -5.655077e+000 -1.290845e+000 -8.585204e+001 1.154858e+002 -1.991218e+001 -8.376976e+001
3160781250 -2.153626e+001 -3.033617e+001 -5.622254e+000 -6.398649e+001 -8.733755e+001 -5.020864e+001 -2.051855e+001 -7.967913e+001
3161875000 -2.191970e+001 -2.256426e+001 -5.539737e+000 -1.266305e+002 -8.606062e+001 -1.110865e+002 -2.137261e+001 -7.640710e+001
3162968750 -2.246052e+001 -1.494428e+001 -5.396383e+000 1.704950e+002 -9.172537e+001 7.068688e+001 -2.241897e+001 -7.456181e+001
3164062500 -2.325663e+001 -7.375202e+000 -5.222397e+000 1.072635e+002 -9.951887e+001 1.572479e+000 -2.367239e+001 -7.494918e+001
