!Agilent Technologies,E8363B,MY43030572,A.06.04.32
!Agilent E8363B: A.06.04.32
!Date: Monday, June 06, 2011 14:59:36
!Correction: S11(Full 2 Port(1,2)) S21(Full 2 Port(1,2)) S12(Full 2 Port(1,2)) S22(Full 2 Port(1,2)) 
!S2P File: Measurements: S11, S21, S12, S22:
# Hz S  dB   R 50
3000000000 -2.084438e+001 5.521912e+001 -4.224580e+000 -2.790059e+001 -8.001152e+001 4.841134e+001 -1.637805e+001 -2.367591e+001
3001093750 -2.034235e+001 6.352772e+001 -5.101833e+000 -9.541810e+001 -8.275574e+001 1.686826e+002 -1.667153e+001 -2.006914e+001
3002187500 -2.003123e+001 7.224970e+001 -5.134663e+000 -1.592783e+002 -8.661917e+001 -8.168016e+001 -1.703679e+001 -1.620506e+001
3003281250 -1.995385e+001 8.098839e+001 -5.152301e+000 1.365809e+002 -9.939861e+001 3.431680e+001 -1.756729e+001 -1.291461e+001
3004375000 -2.004654e+001 8.976427e+001 -5.145215e+000 7.246617e+001 -9.158952e+001 1.909614e+001 -1.821528e+001 -1.037538e+001
3005468750 -2.035068e+001 9.860847e+001 -5.140092e+000 8.213738e+000 -9.159300e+001 -5.497789e+001 -1.902051e+001 -8.884135e+000
3006562500 -2.087825e+001 1.076100e+002 -5.138518e+000 -5.628070e+001 -8.410590e+001 1.521340e+002 -1.995298e+001 -8.861650e+000
3007656250 -2.165370e+001 1.168300e+002 -5.158655e+000 -1.208131e+002 -1.086841e+002 -1.354630e+002 -2.096999e+001 -1.103174e+001
3008750000 -2.275633e+001 1.263691e+002 -5.197334e+000 1.745668e+002 -8.240473e+001 -3.368233e+001 -2.192101e+001 -1.563334e+001
3009843750 -2.426116e+001 1.368493e+002 -5.271253e+000 1.099066e+002 -8.659940e+001 6.557973e+001 -2.260149e+001 -2.294653e+001
3010937500 -2.632070e+001 1.483213e+002 -5.371064e+000 4.519858e+001 -8.490181e+001 -1.548019e+002 -2.280391e+001 -3.170373e+001
3012031250 -2.919914e+001 1.630033e+002 -5.496064e+000 -1.936861e+001 -9.185217e+001 1.014765e+002 -2.245324e+001 -4.016421e+001
3013125000 -3.347858e+001 -1.735340e+002 -5.643914e+000 -8.375480e+001 -8.767619e+001 -6.295224e+001 -2.167330e+001 -4.620155e+001
3014218750 -3.791518e+001 -1.169928e+002 -5.800646e+000 -1.479390e+002 -8.960430e+001 -1.367173e+002 -2.075595e+001 -4.972178e+001
3015312500 -3.405560e+001 -5.379035e+001 -5.932957e+000 1.481978e+002 -9.208353e+001 -9.380559e+001 -1.983486e+001 -5.087753e+001
3016406250 -2.948233e+001 -2.783082e+001 -6.026925e+000 8.451188e+001 -8.613092e+001 -5.565434e+001 -1.901754e+001 -5.015438e+001
3017500000 -2.633790e+001 -1.276331e+001 -6.071546e+000 2.086501e+001 -9.809278e+001 1.578314e+002 -1.834776e+001 -4.818925e+001
3018593750 -2.410927e+001 -9.675459e-001 -6.062778e+000 -4.281445e+001 -9.220012e+001 1.770878e+002 -1.781426e+001 -4.519247e+001
3019687500 -2.246937e+001 9.256441e+000 -6.023118e+000 -1.066782e+002 -8.552210e+001 -1.564027e+002 -1.744286e+001 -4.176785e+001
3020781250 -2.123082e+001 1.897610e+001 -5.975804e+000 -1.707388e+002 -8.308337e+001 6.778009e+001 -1.722227e+001 -3.773000e+001
3021875000 -2.030844e+001 2.828634e+001 -5.916612e+000 1.249073e+002 -8.381361e+001 3.874761e+001 -1.714842e+001 -3.358267e+001
3022968750 -1.962905e+001 3.721098e+001 -5.871754e+000 6.052867e+001 -9.426067e+001 6.270942e+001 -1.722521e+001 -2.929380e+001
3024062500 -1.917358e+001 4.598581e+001 -5.837632e+000 -3.960449e+000 -7.972874e+001 9.696395e+000 -1.746239e+001 -2.512615e+001
3025156250 -1.889181e+001 5.461097e+001 -5.806403e+000 -6.856051e+001 -8.746606e+001 9.344123e+001 -1.784666e+001 -2.131207e+001
3026250000 -1.882463e+001 6.318840e+001 -5.772923e+000 -1.333706e+002 -9.745561e+001 -1.475460e+002 -1.841298e+001 -1.777995e+001
3027343750 -1.891971e+001 7.166544e+001 -5.755208e+000 1.615271e+002 -9.181641e+001 -2.761859e+001 -1.915838e+001 -1.513720e+001
3028437500 -1.920705e+001 8.009006e+001 -5.755115e+000 9.638646e+001 -9.131953e+001 -1.509587e+002 -2.009037e+001 -1.357466e+001
3029531250 -1.969622e+001 8.842059e+001 -5.781874e+000 3.101400e+001 -8.181387e+001 1.201842e+002 -2.120108e+001 -1.358416e+001
3030625000 -2.039326e+001 9.662464e+001 -5.864370e+000 -3.431792e+001 -9.083759e+001 -9.397301e+001 -2.244935e+001 -1.616647e+001
3031718750 -2.135991e+001 1.048375e+002 -5.961468e+000 -9.951218e+001 -9.493834e+001 2.936578e+001 -2.366395e+001 -2.208958e+001
3032812500 -2.264928e+001 1.129562e+002 -6.083756e+000 -1.645483e+002 -9.267728e+001 -5.207685e+001 -2.451367e+001 -3.192637e+001
3033906250 -2.433978e+001 1.209019e+002 -6.207787e+000 1.306512e+002 -8.314863e+001 -9.309016e+001 -2.463935e+001 -4.406732e+001
3035000000 -2.670680e+001 1.283125e+002 -6.325755e+000 6.594270e+001 -8.804686e+001 -5.324939e+001 -2.396365e+001 -5.467346e+001
3036093750 -3.022330e+001 1.349774e+002 -6.434171e+000 1.333282e+000 -8.817286e+001 -5.804559e+001 -2.279988e+001 -6.166674e+001
3037187500 -3.636205e+001 1.387025e+002 -6.527815e+000 -6.334277e+001 -8.790106e+001 -2.709109e+001 -2.158201e+001 -6.505291e+001
3038281250 -5.216624e+001 4.927520e+001 -6.608439e+000 -1.281181e+002 -7.977036e+001 -1.697717e+002 -2.043673e+001 -6.556383e+001
3039375000 -3.553184e+001 -6.864323e+000 -6.672167e+000 1.669057e+002 -9.498392e+001 1.734714e+002 -1.949871e+001 -6.416909e+001
3040468750 -3.004358e+001 -2.436871e+000 -6.729944e+000 1.016472e+002 -9.034720e+001 1.209321e+002 -1.874711e+001 -6.139526e+001
3041562500 -2.685746e+001 4.522659e+000 -6.815534e+000 3.612540e+001 -8.726910e+001 -1.232313e+002 -1.815270e+001 -5.781702e+001
3042656250 -2.469176e+001 1.227215e+001 -6.927089e+000 -2.967197e+001 -7.749794e+001 -1.190879e+002 -1.775982e+001 -5.368366e+001
3043750000 -2.314781e+001 2.058222e+001 -7.076963e+000 -9.564813e+001 -9.155431e+001 -6.794019e+001 -1.751342e+001 -4.916032e+001
3044843750 -2.207785e+001 2.886072e+001 -7.284396e+000 -1.615638e+002 -8.142498e+001 -3.860449e+001 -1.745432e+001 -4.449956e+001
3045937500 -2.127788e+001 3.746896e+001 -7.528761e+000 1.324732e+002 -9.183799e+001 -1.734480e+002 -1.755015e+001 -3.984857e+001
3047031250 -2.074482e+001 4.619741e+001 -7.836503e+000 6.679570e+001 -8.504217e+001 -3.173534e+001 -1.782135e+001 -3.508763e+001
3048125000 -2.046587e+001 5.504919e+001 -8.182900e+000 1.406869e+000 -8.665832e+001 -3.106413e+001 -1.828553e+001 -3.082333e+001
3049218750 -2.038223e+001 6.418695e+001 -8.550412e+000 -6.362504e+001 -8.738805e+001 5.227671e+001 -1.894800e+001 -2.686678e+001
3050312500 -2.052155e+001 7.346536e+001 -8.917704e+000 -1.283138e+002 -8.461687e+001 9.353381e+001 -1.984114e+001 -2.358611e+001
3051406250 -2.083159e+001 8.319597e+001 -9.265662e+000 1.670193e+002 -8.495854e+001 1.112666e+002 -2.097681e+001 -2.158654e+001
3052500000 -2.135715e+001 9.332492e+001 -9.611844e+000 1.024687e+002 -8.401465e+001 1.533246e+000 -2.237071e+001 -2.154591e+001
3053593750 -2.214862e+001 1.042878e+002 -9.956341e+000 3.771445e+001 -8.082355e+001 2.407375e+001 -2.406869e+001 -2.511556e+001
3054687500 -2.316829e+001 1.160843e+002 -1.032272e+001 -2.715226e+001 -8.669920e+001 5.693689e+001 -2.582012e+001 -3.432289e+001
3055781250 -2.448494e+001 1.295725e+002 -1.072880e+001 -9.213728e+001 -8.961981e+001 1.472209e+002 -2.685075e+001 -5.066179e+001
3056875000 -2.610949e+001 1.458647e+002 -1.117539e+001 -1.570166e+002 -7.973121e+001 -1.459250e+002 -2.644454e+001 -6.922139e+001
3057968750 -2.791733e+001 1.669558e+002 -1.167275e+001 1.382841e+002 -1.038911e+002 6.675994e+001 -2.484122e+001 -8.244017e+001
3059062500 -2.943376e+001 -1.648692e+002 -1.217307e+001 7.396520e+001 -8.536560e+001 -1.216815e+002 -2.292567e+001 -8.882607e+001
3060156250 -2.980437e+001 -1.316831e+002 -1.268049e+001 9.977726e+000 -8.649267e+001 -8.582025e+001 -2.125894e+001 -9.046585e+001
3061250000 -2.862039e+001 -1.008796e+002 -1.315696e+001 -5.389328e+001 -8.638883e+001 -3.549767e+001 -1.983028e+001 -8.919728e+001
3062343750 -2.679299e+001 -7.708534e+001 -1.361904e+001 -1.176938e+002 -7.865067e+001 1.607264e+002 -1.867699e+001 -8.650991e+001
3063437500 -2.502444e+001 -5.933543e+001 -1.409492e+001 1.784256e+002 -8.577541e+001 -1.275063e+002 -1.775741e+001 -8.257449e+001
3064531250 -2.357697e+001 -4.499982e+001 -1.460500e+001 1.144739e+002 -9.927893e+001 -3.617717e+000 -1.702654e+001 -7.825941e+001
3065625000 -2.243021e+001 -3.274690e+001 -1.517993e+001 5.047407e+001 -8.197163e+001 -3.713295e+001 -1.647558e+001 -7.315542e+001
3066718750 -2.155570e+001 -2.169072e+001 -1.581886e+001 -1.354277e+001 -9.117728e+001 8.949848e+001 -1.607598e+001 -6.805785e+001
3067812500 -2.090748e+001 -1.133479e+001 -1.655709e+001 -7.737527e+001 -8.876312e+001 -8.478051e+000 -1.584285e+001 -6.282686e+001
3068906250 -2.045358e+001 -1.757877e+000 -1.740449e+001 -1.409469e+002 -8.136023e+001 -9.934340e+001 -1.573403e+001 -5.734745e+001
3070000000 -2.021499e+001 7.523804e+000 -1.835505e+001 1.562337e+002 -8.524182e+001 -1.001253e+002 -1.576777e+001 -5.207684e+001
3071093750 -2.017786e+001 1.625076e+001 -1.935885e+001 9.432092e+001 -9.392052e+001 7.742295e+001 -1.593855e+001 -4.670870e+001
3072187500 -2.032851e+001 2.482046e+001 -2.043574e+001 3.327228e+001 -9.848643e+001 -1.009708e+002 -1.623069e+001 -4.163174e+001
3073281250 -2.065975e+001 3.306788e+001 -2.152210e+001 -2.677969e+001 -1.008010e+002 2.150652e+001 -1.667564e+001 -3.675637e+001
3074375000 -2.122201e+001 4.099031e+001 -2.266677e+001 -8.553819e+001 -8.203448e+001 -1.529525e+002 -1.724743e+001 -3.218144e+001
3075468750 -2.202871e+001 4.851391e+001 -2.387088e+001 -1.426416e+002 -8.491587e+001 -1.268631e+002 -1.796728e+001 -2.830738e+001
3076562500 -2.314781e+001 5.552753e+001 -2.512686e+001 1.630898e+002 -1.018969e+002 -1.490051e+001 -1.888161e+001 -2.516537e+001
3077656250 -2.461709e+001 6.167718e+001 -2.618989e+001 1.136830e+002 -8.699089e+001 9.623998e+001 -1.996085e+001 -2.318311e+001
3078750000 -2.663266e+001 6.645614e+001 -2.637529e+001 6.844476e+001 -8.719048e+001 -3.893287e+001 -2.123768e+001 -2.293454e+001
3079843750 -2.944730e+001 6.788291e+001 -2.527637e+001 2.186332e+001 -8.197355e+001 -1.385405e+001 -2.266508e+001 -2.488993e+001
3080937500 -3.339197e+001 6.093659e+001 -2.355429e+001 -3.128511e+001 -1.008396e+002 -8.845181e+000 -2.412617e+001 -3.055953e+001
3082031250 -3.746211e+001 2.672785e+001 -2.189404e+001 -8.970385e+001 -8.693662e+001 6.281256e+001 -2.532065e+001 -4.023484e+001
3083125000 -3.471308e+001 -1.795682e+001 -2.056705e+001 -1.513677e+002 -8.450943e+001 4.271582e+001 -2.577558e+001 -5.316589e+001
3084218750 -3.041378e+001 -3.058604e+001 -1.954860e+001 1.455307e+002 -8.845229e+001 1.188328e+001 -2.538472e+001 -6.572363e+001
3085312500 -2.737107e+001 -3.042407e+001 -1.879448e+001 8.225794e+001 -9.377506e+001 -1.355130e+002 -2.437470e+001 -7.438213e+001
3086406250 -2.518237e+001 -2.647010e+001 -1.819941e+001 1.890823e+001 -9.266022e+001 1.786107e+002 -2.319123e+001 -7.934694e+001
3087500000 -2.357079e+001 -2.083287e+001 -1.772224e+001 -4.415429e+001 -8.635483e+001 -5.913358e+000 -2.210728e+001 -8.110314e+001
3088593750 -2.238346e+001 -1.421604e+001 -1.730217e+001 -1.068936e+002 -8.840388e+001 -7.440415e+001 -2.115493e+001 -8.096060e+001
3089687500 -2.149524e+001 -7.145774e+000 -1.688993e+001 -1.693161e+002 -9.597068e+001 -4.659226e+001 -2.041307e+001 -7.967469e+001
3090781250 -2.085281e+001 2.416943e-001 -1.646623e+001 1.286478e+002 -8.001245e+001 -8.239909e+001 -1.983883e+001 -7.769606e+001
3091875000 -2.045733e+001 7.752974e+000 -1.598356e+001 6.661595e+001 -8.202351e+001 7.762914e+001 -1.943300e+001 -7.519206e+001
3092968750 -2.027425e+001 1.556756e+001 -1.544786e+001 4.404628e+000 -8.864634e+001 -9.393322e+001 -1.916307e+001 -7.243340e+001
3094062500 -2.027243e+001 2.357606e+001 -1.489841e+001 -5.822252e+001 -9.185842e+001 -1.433772e+002 -1.900434e+001 -6.963264e+001
3095156250 -2.045374e+001 3.159297e+001 -1.434309e+001 -1.211991e+002 -9.838944e+001 9.438629e+001 -1.896454e+001 -6.705738e+001
3096250000 -2.082540e+001 3.978176e+001 -1.380489e+001 1.756280e+002 -7.984442e+001 1.654334e+002 -1.901175e+001 -6.461292e+001
3097343750 -2.145062e+001 4.817075e+001 -1.326426e+001 1.123167e+002 -1.035057e+002 -1.578522e+002 -1.913260e+001 -6.254255e+001
3098437500 -2.230431e+001 5.674236e+001 -1.271375e+001 4.893808e+001 -8.722774e+001 2.958204e+001 -1.933926e+001 -6.101550e+001
3099531250 -2.343546e+001 6.569424e+001 -1.211072e+001 -1.477527e+001 -9.164223e+001 1.334572e+002 -1.956129e+001 -5.982206e+001
3100625000 -2.497778e+001 7.502501e+001 -1.150531e+001 -7.885468e+001 -8.494822e+001 8.452119e+001 -1.980516e+001 -5.927697e+001
3101718750 -2.701712e+001 8.506023e+001 -1.088179e+001 -1.435048e+002 -8.389101e+001 -7.536619e+001 -2.007116e+001 -5.931633e+001
3102812500 -2.988405e+001 9.767510e+001 -1.030187e+001 1.513549e+002 -8.338734e+001 -5.501641e+001 -2.026888e+001 -5.963367e+001
3103906250 -3.428473e+001 1.161174e+002 -9.797668e+000 8.575250e+001 -8.515213e+001 1.083091e+002 -2.044582e+001 -6.020990e+001
3105000000 -4.058339e+001 1.640565e+002 -9.371480e+000 2.001980e+001 -9.345488e+001 -1.566270e+002 -2.055278e+001 -6.079430e+001
3106093750 -3.793113e+001 -1.159270e+002 -9.004705e+000 -4.594570e+001 -8.081922e+001 -1.339492e+002 -2.059080e+001 -6.150348e+001
3107187500 -3.242078e+001 -8.668658e+001 -8.695163e+000 -1.117272e+002 -8.095258e+001 -6.363751e+001 -2.062318e+001 -6.180137e+001
3108281250 -2.898357e+001 -7.161507e+001 -8.463505e+000 -1.775379e+002 -8.624193e+001 -1.505217e+002 -2.059086e+001 -6.192399e+001
3109375000 -2.668123e+001 -6.028984e+001 -8.283514e+000 1.168524e+002 -8.365369e+001 -6.977587e+001 -2.059387e+001 -6.174851e+001
3110468750 -2.506221e+001 -5.055415e+001 -8.106886e+000 5.149702e+001 -8.327590e+001 -6.381753e+001 -2.062576e+001 -6.119109e+001
3111562500 -2.388218e+001 -4.148090e+001 -7.931062e+000 -1.364185e+001 -8.308017e+001 1.246729e+002 -2.069789e+001 -6.054956e+001
3112656250 -2.308014e+001 -3.282013e+001 -7.738404e+000 -7.868358e+001 -9.691730e+001 -5.233442e+001 -2.082144e+001 -5.984832e+001
3113750000 -2.253603e+001 -2.445362e+001 -7.511404e+000 -1.437549e+002 -9.087424e+001 -5.738460e+001 -2.104967e+001 -5.894320e+001
3114843750 -2.226174e+001 -1.619309e+001 -7.277295e+000 1.510364e+002 -8.312842e+001 7.415428e+001 -2.132777e+001 -5.829175e+001
3115937500 -2.219369e+001 -8.215801e+000 -7.053590e+000 8.563380e+001 -8.314355e+001 -3.575054e+001 -2.168790e+001 -5.799450e+001
3117031250 -2.235727e+001 -3.691299e-001 -6.849010e+000 2.017524e+001 -9.055940e+001 1.744080e+002 -2.208266e+001 -5.844690e+001
3118125000 -2.277083e+001 7.574733e+000 -6.678527e+000 -4.532486e+001 -8.691215e+001 1.043206e+002 -2.254957e+001 -5.956229e+001
3119218750 -2.341898e+001 1.504317e+001 -6.527325e+000 -1.108617e+002 -8.465731e+001 1.440492e+002 -2.295375e+001 -6.163126e+001
3120312500 -2.436234e+001 2.237444e+001 -6.406404e+000 -1.763061e+002 -8.598552e+001 5.914989e+001 -2.329853e+001 -6.482754e+001
3121406250 -2.569216e+001 2.940980e+001 -6.312660e+000 1.181771e+002 -8.558396e+001 -4.672253e+001 -2.349234e+001 -6.852106e+001
3122500000 -2.751164e+001 3.540388e+001 -6.232815e+000 5.266366e+001 -8.657084e+001 -7.108637e+001 -2.350135e+001 -7.289198e+001
3123593750 -3.006716e+001 4.029718e+001 -6.196599e+000 -1.280657e+001 -8.539464e+001 4.641505e+001 -2.331558e+001 -7.694304e+001
3124687500 -3.399619e+001 4.128261e+001 -6.174931e+000 -7.804934e+001 -8.332603e+001 -9.822202e+001 -2.293403e+001 -7.978524e+001
3125781250 -4.064200e+001 2.491573e+001 -6.162347e+000 -1.431982e+002 -7.546352e+001 1.696468e+002 -2.247108e+001 -8.178650e+001
3126875000 -4.143589e+001 -5.591484e+001 -6.120176e+000 1.517422e+002 -8.194211e+001 1.250813e+002 -2.196775e+001 -8.235592e+001
3127968750 -3.436925e+001 -7.714048e+001 -6.051621e+000 8.663967e+001 -8.681834e+001 -7.565282e+001 -2.150144e+001 -8.182740e+001
3129062500 -3.035325e+001 -7.668578e+001 -5.971658e+000 2.130207e+001 -8.791666e+001 1.498708e+002 -2.108860e+001 -8.036424e+001
3130156250 -2.771709e+001 -7.209277e+001 -5.912109e+000 -4.411305e+001 -8.663571e+001 1.167904e+002 -2.076070e+001 -7.809251e+001
3131250000 -2.583637e+001 -6.625421e+001 -5.890184e+000 -1.096315e+002 -8.267059e+001 1.560382e+002 -2.055427e+001 -7.517143e+001
3132343750 -2.447365e+001 -5.956381e+001 -5.908369e+000 -1.751185e+002 -8.298142e+001 -4.591131e+001 -2.049298e+001 -7.171450e+001
3133437500 -2.347970e+001 -5.256715e+001 -5.959962e+000 1.195269e+002 -8.739592e+001 1.389005e+002 -2.055769e+001 -6.803745e+001
3134531250 -2.278586e+001 -4.547168e+001 -6.050925e+000 5.438040e+001 -8.613068e+001 -1.141600e+002 -2.079227e+001 -6.426652e+001
3135625000 -2.232803e+001 -3.819918e+001 -6.161884e+000 -1.052426e+001 -8.490898e+001 1.983592e+001 -2.119385e+001 -6.016426e+001
3136718750 -2.213562e+001 -3.092068e+001 -6.277267e+000 -7.524055e+001 -8.298777e+001 1.323703e+002 -2.178682e+001 -5.636428e+001
3137812500 -2.214047e+001 -2.380513e+001 -6.382506e+000 -1.398437e+002 -1.030146e+002 1.289422e+002 -2.260872e+001 -5.304308e+001
3138906250 -2.236329e+001 -1.660746e+001 -6.469233e+000 1.556672e+002 -8.202581e+001 5.391784e+001 -2.371886e+001 -5.026699e+001
3140000000 -2.280902e+001 -9.563904e+000 -6.543239e+000 9.127932e+001 -7.856248e+001 -1.630592e+002 -2.515224e+001 -4.879982e+001
3141093750 -2.352306e+001 -2.768405e+000 -6.596829e+000 2.681326e+001 -8.596012e+001 -2.645357e+000 -2.700711e+001 -4.987265e+001
3142187500 -2.452845e+001 3.713131e+000 -6.641014e+000 -3.778330e+001 -9.262992e+001 5.305363e+001 -2.927242e+001 -5.630327e+001
3143281250 -2.589220e+001 9.558105e+000 -6.685922e+000 -1.024240e+002 -8.080151e+001 -4.890025e+001 -3.152305e+001 -7.222698e+001
3144375000 -2.777046e+001 1.412958e+001 -6.749135e+000 -1.669593e+002 -9.468533e+001 1.289109e+002 -3.204698e+001 -9.870203e+001
3145468750 -3.041589e+001 1.645309e+001 -6.833794e+000 1.285460e+002 -7.933112e+001 3.699366e+001 -3.008658e+001 -1.203483e+002
3146562500 -3.426514e+001 1.206475e+001 -6.931150e+000 6.423483e+001 -8.479057e+001 1.512822e+002 -2.762166e+001 -1.299864e+002
3147656250 -3.913255e+001 -1.713906e+001 -7.050416e+000 5.674813e-002 -8.485926e+001 -6.507970e+001 -2.537883e+001 -1.326745e+002
3148750000 -3.737254e+001 -7.063808e+001 -7.161902e+000 -6.388251e+001 -8.484910e+001 -8.545619e+000 -2.363675e+001 -1.316879e+002
3149843750 -3.261349e+001 -8.676405e+001 -7.271377e+000 -1.278085e+002 -8.807782e+001 -1.138818e+002 -2.228952e+001 -1.288446e+002
3150937500 -2.919905e+001 -8.798910e+001 -7.361824e+000 1.683978e+002 -8.863959e+001 -1.457498e+002 -2.120313e+001 -1.248745e+002
3152031250 -2.678648e+001 -8.459269e+001 -7.450826e+000 1.046442e+002 -8.187201e+001 8.779285e+001 -2.038103e+001 -1.201821e+002
3153125000 -2.508209e+001 -7.936479e+001 -7.517154e+000 4.092250e+001 -9.144051e+001 5.846994e+001 -1.976455e+001 -1.150090e+002
3154218750 -2.380122e+001 -7.316498e+001 -7.589684e+000 -2.291026e+001 -7.994135e+001 1.399464e+002 -1.933861e+001 -1.098485e+002
3155312500 -2.284516e+001 -6.640067e+001 -7.658966e+000 -8.670406e+001 -7.962037e+001 9.145797e+001 -1.909490e+001 -1.043127e+002
3156406250 -2.214970e+001 -5.937139e+001 -7.735627e+000 -1.505250e+002 -8.711317e+001 -1.112653e+002 -1.902438e+001 -9.887857e+001
3157500000 -2.168626e+001 -5.218458e+001 -7.821131e+000 1.458702e+002 -8.452705e+001 -9.711636e+001 -1.910393e+001 -9.363110e+001
3158593750 -2.144091e+001 -4.482932e+001 -7.905726e+000 8.262657e+001 -8.354209e+001 1.597145e+002 -1.938015e+001 -8.851840e+001
3159687500 -2.138850e+001 -3.756361e+001 -7.970052e+000 1.958899e+001 -9.130869e+001 -1.012625e+002 -1.983112e+001 -8.387826e+001
3160781250 -2.154573e+001 -2.998229e+001 -7.996132e+000 -4.305190e+001 -8.973622e+001 6.776913e+001 -2.044054e+001 -7.973655e+001
3161875000 -2.190125e+001 -2.226715e+001 -7.965494e+000 -1.056203e+002 -9.539117e+001 4.277296e+001 -2.128586e+001 -7.638794e+001
3162968750 -2.243530e+001 -1.467415e+001 -7.875551e+000 -1.683831e+002 -8.438387e+001 6.123744e+000 -2.234046e+001 -7.464275e+001
3164062500 -2.323324e+001 -7.107751e+000 -7.754012e+000 1.285269e+002 -8.493822e+001 1.793057e+002 -2.356430e+001 -7.484725e+001
