!Agilent Technologies,E8363B,MY43030572,A.06.04.32
!Agilent E8363B: A.06.04.32
!Date: Monday, June 06, 2011 14:52:55
!Correction: S11(Full 2 Port(1,2)) S21(Full 2 Port(1,2)) S12(Full 2 Port(1,2)) S22(Full 2 Port(1,2)) 
!S2P File: Measurements: S11, S21, S12, S22:
# Hz S  dB   R 50
3000000000 -2.083348e+001 5.503738e+001 -2.692618e+000 -1.164288e+001 -8.651416e+001 7.196110e+000 -1.641450e+001 -2.360919e+001
3001093750 -2.033563e+001 6.338321e+001 -3.347920e+000 -7.901680e+001 -9.575803e+001 -1.237262e+002 -1.669739e+001 -1.993454e+001
3002187500 -2.003431e+001 7.204883e+001 -3.255127e+000 -1.430177e+002 -8.144917e+001 -1.185406e+002 -1.708201e+001 -1.618122e+001
3003281250 -1.993454e+001 8.084131e+001 -3.144081e+000 1.525865e+002 -8.798923e+001 -3.885805e+001 -1.760671e+001 -1.280965e+001
3004375000 -2.003980e+001 8.954808e+001 -3.023751e+000 8.806329e+001 -8.483420e+001 4.469834e+001 -1.826831e+001 -1.019424e+001
3005468750 -2.035987e+001 9.839710e+001 -2.918644e+000 2.326459e+001 -8.716735e+001 -1.457854e+002 -1.907746e+001 -8.695032e+000
3006562500 -2.088415e+001 1.073442e+002 -2.845060e+000 -4.177365e+001 -8.559186e+001 1.231784e+002 -2.002785e+001 -8.575505e+000
3007656250 -2.167036e+001 1.166003e+002 -2.808337e+000 -1.068377e+002 -8.759961e+001 1.364099e+002 -2.105809e+001 -1.056586e+001
3008750000 -2.277353e+001 1.261398e+002 -2.800985e+000 -1.719871e+002 -8.254272e+001 1.050228e+002 -2.200690e+001 -1.507755e+001
3009843750 -2.429044e+001 1.365945e+002 -2.816782e+000 1.228567e+002 -8.815155e+001 1.928993e+001 -2.270993e+001 -2.245585e+001
3010937500 -2.634857e+001 1.479509e+002 -2.852751e+000 5.769237e+001 -7.998091e+001 1.188729e+002 -2.293339e+001 -3.140105e+001
3012031250 -2.927089e+001 1.628787e+002 -2.917659e+000 -7.313848e+000 -9.281134e+001 1.266165e+002 -2.257014e+001 -4.002718e+001
3013125000 -3.349914e+001 -1.734290e+002 -2.993440e+000 -7.224487e+001 -8.305481e+001 1.363099e+002 -2.177830e+001 -4.629549e+001
3014218750 -3.805497e+001 -1.162357e+002 -3.100872e+000 -1.369899e+002 -8.222073e+001 -3.757331e+001 -2.085499e+001 -4.992834e+001
3015312500 -3.402365e+001 -5.343543e+001 -3.192853e+000 1.584605e+002 -8.806741e+001 8.853247e+000 -1.994149e+001 -5.110086e+001
3016406250 -2.944869e+001 -2.798448e+001 -3.278593e+000 9.412906e+001 -9.193485e+001 9.732500e+001 -1.912591e+001 -5.037482e+001
3017500000 -2.631844e+001 -1.285634e+001 -3.343531e+000 2.980398e+001 -8.036916e+001 1.340695e+002 -1.842886e+001 -4.824685e+001
3018593750 -2.408428e+001 -1.089537e+000 -3.367187e+000 -3.444955e+001 -9.150701e+001 -7.645481e+001 -1.790422e+001 -4.521656e+001
3019687500 -2.246182e+001 9.174528e+000 -3.392267e+000 -9.875146e+001 -8.333305e+001 -1.603900e+002 -1.752568e+001 -4.173575e+001
3020781250 -2.120836e+001 1.886616e+001 -3.393998e+000 -1.631879e+002 -8.614800e+001 -5.119949e+001 -1.729428e+001 -3.773165e+001
3021875000 -2.029878e+001 2.807976e+001 -3.390275e+000 1.321225e+002 -8.499718e+001 -4.953273e+000 -1.721427e+001 -3.354978e+001
3022968750 -1.962239e+001 3.708651e+001 -3.400511e+000 6.734708e+001 -8.197600e+001 -1.749458e+002 -1.729473e+001 -2.931040e+001
3024062500 -1.916483e+001 4.587489e+001 -3.413613e+000 2.405591e+000 -8.856454e+001 9.624344e+001 -1.752412e+001 -2.513484e+001
3025156250 -1.889627e+001 5.435835e+001 -3.454334e+000 -6.262684e+001 -9.274265e+001 1.685157e+002 -1.792763e+001 -2.121571e+001
3026250000 -1.883359e+001 6.301181e+001 -3.512688e+000 -1.277800e+002 -8.662042e+001 -3.467463e+001 -1.850349e+001 -1.767990e+001
3027343750 -1.893251e+001 7.149117e+001 -3.606668e+000 1.669167e+002 -8.994188e+001 9.859730e+001 -1.923863e+001 -1.503311e+001
3028437500 -1.921331e+001 7.997406e+001 -3.725593e+000 1.018217e+002 -8.163776e+001 -3.465609e+001 -2.017780e+001 -1.332249e+001
3029531250 -1.970358e+001 8.820902e+001 -3.870385e+000 3.673448e+001 -8.550633e+001 1.419940e+002 -2.129339e+001 -1.318724e+001
3030625000 -2.041021e+001 9.653885e+001 -4.067832e+000 -2.809347e+001 -8.341264e+001 1.454729e+002 -2.254130e+001 -1.576145e+001
3031718750 -2.137315e+001 1.047035e+002 -4.261198e+000 -9.254548e+001 -8.795992e+001 -1.196610e+002 -2.378855e+001 -2.181806e+001
3032812500 -2.267393e+001 1.127921e+002 -4.471159e+000 -1.569661e+002 -8.277261e+001 1.292314e+002 -2.465172e+001 -3.185590e+001
3033906250 -2.437041e+001 1.207219e+002 -4.676569e+000 1.389261e+002 -8.243373e+001 1.292429e+002 -2.476067e+001 -4.413656e+001
3035000000 -2.677853e+001 1.279612e+002 -4.856632e+000 7.478744e+001 -8.998895e+001 -1.525362e+001 -2.405679e+001 -5.501695e+001
3036093750 -3.031565e+001 1.347407e+002 -5.052727e+000 1.062506e+001 -8.827525e+001 1.228998e+002 -2.290413e+001 -6.212320e+001
3037187500 -3.650121e+001 1.385838e+002 -5.242334e+000 -5.346102e+001 -8.250549e+001 4.739075e+001 -2.168115e+001 -6.547168e+001
3038281250 -5.163458e+001 4.127231e+001 -5.457583e+000 -1.176065e+002 -8.229868e+001 -8.207484e+001 -2.053894e+001 -6.594399e+001
3039375000 -3.542569e+001 -7.360082e+000 -5.678537e+000 1.783647e+002 -9.356187e+001 2.728146e+001 -1.958814e+001 -6.427887e+001
3040468750 -2.996504e+001 -2.622625e+000 -5.902924e+000 1.144494e+002 -8.588416e+001 1.340704e+002 -1.881848e+001 -6.156491e+001
3041562500 -2.679601e+001 4.292764e+000 -6.139830e+000 5.086013e+001 -8.961241e+001 -3.359429e+001 -1.822853e+001 -5.795246e+001
3042656250 -2.464173e+001 1.209848e+001 -6.355751e+000 -1.260823e+001 -8.602106e+001 -1.012205e+002 -1.780686e+001 -5.379272e+001
3043750000 -2.312802e+001 2.021988e+001 -6.561579e+000 -7.592721e+001 -8.053394e+001 8.612469e+001 -1.757352e+001 -4.926331e+001
3044843750 -2.206655e+001 2.861437e+001 -6.763817e+000 -1.388622e+002 -8.335734e+001 -9.186497e+001 -1.749577e+001 -4.466867e+001
3045937500 -2.127125e+001 3.726226e+001 -6.923140e+000 1.583430e+002 -8.006143e+001 -9.947836e+001 -1.760824e+001 -3.991760e+001
3047031250 -2.073658e+001 4.600848e+001 -7.058067e+000 9.590012e+001 -7.932671e+001 -3.501938e+001 -1.788986e+001 -3.505278e+001
3048125000 -2.046663e+001 5.481559e+001 -7.151296e+000 3.365900e+001 -9.083665e+001 1.419936e+002 -1.834581e+001 -3.074665e+001
3049218750 -2.037929e+001 6.395440e+001 -7.181225e+000 -2.853167e+001 -8.247630e+001 8.067953e+001 -1.901066e+001 -2.668522e+001
3050312500 -2.051923e+001 7.330862e+001 -7.126875e+000 -9.082612e+001 -8.369394e+001 -3.216032e+001 -1.991367e+001 -2.329315e+001
3051406250 -2.083220e+001 8.299518e+001 -7.017016e+000 -1.535441e+002 -8.240744e+001 -3.883245e+001 -2.104414e+001 -2.125849e+001
3052500000 -2.137259e+001 9.320067e+001 -6.879066e+000 1.434861e+002 -7.988458e+001 -8.035177e+000 -2.244408e+001 -2.110842e+001
3053593750 -2.217933e+001 1.041237e+002 -6.744061e+000 7.987077e+001 -7.890906e+001 7.845993e+001 -2.415833e+001 -2.469305e+001
3054687500 -2.319310e+001 1.158266e+002 -6.619882e+000 1.589541e+001 -8.390850e+001 3.811416e+001 -2.593952e+001 -3.397517e+001
3055781250 -2.452336e+001 1.295208e+002 -6.526672e+000 -4.835094e+001 -8.632640e+001 1.061912e+001 -2.704929e+001 -5.038156e+001
3056875000 -2.614948e+001 1.458121e+002 -6.476611e+000 -1.127662e+002 -8.499149e+001 -9.193189e+001 -2.660538e+001 -6.939960e+001
3057968750 -2.798350e+001 1.670373e+002 -6.461184e+000 -1.772621e+002 -9.429001e+001 3.670953e+001 -2.498384e+001 -8.286494e+001
3059062500 -2.949584e+001 -1.646800e+002 -6.484521e+000 1.183797e+002 -8.074828e+001 6.651659e+001 -2.304558e+001 -8.925480e+001
3060156250 -2.981284e+001 -1.311276e+002 -6.544834e+000 5.417135e+001 -8.563649e+001 -2.696067e+001 -2.133218e+001 -9.093031e+001
3061250000 -2.860102e+001 -1.004436e+002 -6.641438e+000 -9.764812e+000 -8.050703e+001 2.509655e+001 -1.991780e+001 -8.957348e+001
3062343750 -2.676708e+001 -7.689825e+001 -6.743692e+000 -7.348600e+001 -9.132572e+001 -1.734283e+002 -1.874746e+001 -8.667454e+001
3063437500 -2.500210e+001 -5.919369e+001 -6.846408e+000 -1.369514e+002 -8.674616e+001 1.336255e+002 -1.782807e+001 -8.289028e+001
3064531250 -2.355298e+001 -4.496257e+001 -6.922661e+000 1.597152e+002 -8.823289e+001 -1.311300e+002 -1.709170e+001 -7.834995e+001
3065625000 -2.240879e+001 -3.271080e+001 -7.006734e+000 9.650275e+001 -8.885412e+001 -1.730140e+002 -1.652753e+001 -7.327048e+001
3066718750 -2.153724e+001 -2.179801e+001 -7.060566e+000 3.326826e+001 -7.849131e+001 1.779613e+002 -1.614033e+001 -6.817635e+001
3067812500 -2.088650e+001 -1.149180e+001 -7.114421e+000 -2.984421e+001 -8.354991e+001 3.596080e+001 -1.590283e+001 -6.284633e+001
3068906250 -2.044222e+001 -1.909487e+000 -7.145616e+000 -9.295886e+001 -8.577962e+001 -6.624523e+001 -1.579072e+001 -5.738878e+001
3070000000 -2.022922e+001 7.358274e+000 -7.153682e+000 -1.559307e+002 -8.768726e+001 -1.950339e+001 -1.582635e+001 -5.205455e+001
3071093750 -2.017771e+001 1.610550e+001 -7.113011e+000 1.410917e+002 -8.141180e+001 9.990407e+001 -1.598317e+001 -4.663791e+001
3072187500 -2.033461e+001 2.469397e+001 -7.020190e+000 7.795981e+001 -8.606019e+001 3.981692e+001 -1.628667e+001 -4.146910e+001
3073281250 -2.067278e+001 3.297010e+001 -6.911464e+000 1.483826e+001 -8.641596e+001 8.964320e+001 -1.672218e+001 -3.668827e+001
3074375000 -2.122971e+001 4.076004e+001 -6.782991e+000 -4.855770e+001 -8.247725e+001 2.052556e+000 -1.729831e+001 -3.207466e+001
3075468750 -2.203714e+001 4.836198e+001 -6.657147e+000 -1.120216e+002 -8.034264e+001 -7.711089e+001 -1.802065e+001 -2.814855e+001
3076562500 -2.316872e+001 5.532400e+001 -6.544590e+000 -1.755956e+002 -8.904665e+001 -5.008699e+001 -1.894482e+001 -2.504800e+001
3077656250 -2.466088e+001 6.136504e+001 -6.430363e+000 1.207897e+002 -7.856029e+001 1.134410e+002 -2.003883e+001 -2.292809e+001
3078750000 -2.666112e+001 6.610364e+001 -6.334986e+000 5.720965e+001 -8.084679e+001 -6.277965e+001 -2.132204e+001 -2.254972e+001
3079843750 -2.951679e+001 6.768259e+001 -6.234062e+000 -6.362046e+000 -8.322900e+001 1.336999e+002 -2.276965e+001 -2.455561e+001
3080937500 -3.349398e+001 6.028912e+001 -6.143223e+000 -7.003555e+001 -7.888541e+001 4.386195e+001 -2.424634e+001 -3.016371e+001
3082031250 -3.749313e+001 2.493662e+001 -6.047660e+000 -1.336250e+002 -7.900588e+001 1.019928e+002 -2.546795e+001 -4.000604e+001
3083125000 -3.465443e+001 -1.872706e+001 -5.913803e+000 1.627472e+002 -9.666479e+001 1.473558e+002 -2.594192e+001 -5.302643e+001
3084218750 -3.034114e+001 -3.074198e+001 -5.764636e+000 9.884842e+001 -7.938259e+001 -1.144286e+002 -2.550989e+001 -6.582858e+001
3085312500 -2.730206e+001 -3.059396e+001 -5.602736e+000 3.490887e+001 -7.921334e+001 1.906580e+001 -2.449209e+001 -7.458939e+001
3086406250 -2.514624e+001 -2.660939e+001 -5.440331e+000 -2.944239e+001 -8.237366e+001 1.211316e+002 -2.329301e+001 -7.953807e+001
3087500000 -2.354910e+001 -2.101230e+001 -5.288796e+000 -9.385596e+001 -8.288538e+001 1.584630e+002 -2.219506e+001 -8.137286e+001
3088593750 -2.236387e+001 -1.437680e+001 -5.150808e+000 -1.583848e+002 -8.322196e+001 -1.784400e+002 -2.123001e+001 -8.126915e+001
3089687500 -2.148129e+001 -7.266073e+000 -5.031446e+000 1.371135e+002 -8.706479e+001 -6.985872e+001 -2.048024e+001 -7.983773e+001
3090781250 -2.083782e+001 3.399678e-002 -4.927062e+000 7.272283e+001 -8.903028e+001 1.578976e+002 -1.990326e+001 -7.768433e+001
3091875000 -2.046033e+001 7.559437e+000 -4.825311e+000 8.263814e+000 -8.324566e+001 -1.650337e+002 -1.949990e+001 -7.520296e+001
3092968750 -2.028764e+001 1.549247e+001 -4.731476e+000 -5.612810e+001 -8.321101e+001 5.446758e+001 -1.923004e+001 -7.232603e+001
3094062500 -2.027700e+001 2.343739e+001 -4.648671e+000 -1.207335e+002 -8.107066e+001 2.217686e+001 -1.907905e+001 -6.949496e+001
3095156250 -2.046365e+001 3.149273e+001 -4.581416e+000 1.746205e+002 -8.591212e+001 4.125254e+001 -1.902096e+001 -6.683268e+001
3096250000 -2.085130e+001 3.966342e+001 -4.534131e+000 1.099102e+002 -8.362473e+001 9.782247e+001 -1.907002e+001 -6.440591e+001
3097343750 -2.147320e+001 4.805075e+001 -4.496442e+000 4.527192e+001 -8.848245e+001 5.628204e+001 -1.919815e+001 -6.243940e+001
3098437500 -2.232969e+001 5.670101e+001 -4.472152e+000 -1.936659e+001 -8.464146e+001 -1.103588e+002 -1.941710e+001 -6.086192e+001
3099531250 -2.347621e+001 6.556213e+001 -4.455665e+000 -8.398098e+001 -8.097787e+001 -1.337251e+002 -1.966274e+001 -5.962979e+001
3100625000 -2.501929e+001 7.484336e+001 -4.457330e+000 -1.485252e+002 -8.478133e+001 -1.344839e+002 -1.991220e+001 -5.906903e+001
3101718750 -2.709476e+001 8.490446e+001 -4.452182e+000 1.470100e+002 -8.856995e+001 -3.183517e+000 -2.017125e+001 -5.892685e+001
3102812500 -2.998321e+001 9.776477e+001 -4.431658e+000 8.277908e+001 -7.872552e+001 -1.517689e+002 -2.039019e+001 -5.931154e+001
3103906250 -3.441663e+001 1.162119e+002 -4.413880e+000 1.866322e+001 -8.217474e+001 -1.063173e+002 -2.054479e+001 -5.993688e+001
3105000000 -4.077270e+001 1.649882e+002 -4.374644e+000 -4.535500e+001 -8.595930e+001 -1.596203e+001 -2.065676e+001 -6.066997e+001
3106093750 -3.779897e+001 -1.148552e+002 -4.309981e+000 -1.096704e+002 -9.099003e+001 -4.806889e+000 -2.069147e+001 -6.138441e+001
3107187500 -3.236344e+001 -8.651475e+001 -4.232669e+000 -1.738501e+002 -7.993990e+001 1.067187e+001 -2.072588e+001 -6.175495e+001
3108281250 -2.893889e+001 -7.181992e+001 -4.195779e+000 1.217628e+002 -8.175417e+001 1.193326e+002 -2.071389e+001 -6.191847e+001
3109375000 -2.664598e+001 -6.041374e+001 -4.165904e+000 5.734036e+001 -8.330911e+001 -6.913671e+001 -2.071101e+001 -6.179756e+001
3110468750 -2.503645e+001 -5.069417e+001 -4.131357e+000 -7.085350e+000 -8.560975e+001 2.341633e+000 -2.075205e+001 -6.135051e+001
3111562500 -2.388230e+001 -4.166202e+001 -4.076560e+000 -7.149260e+001 -9.794194e+001 -8.042583e+001 -2.081509e+001 -6.048944e+001
3112656250 -2.306200e+001 -3.303590e+001 -4.020379e+000 -1.359299e+002 -8.558344e+001 1.375220e+002 -2.093431e+001 -5.968859e+001
3113750000 -2.252484e+001 -2.459578e+001 -3.950462e+000 1.595208e+002 -8.622408e+001 7.265565e+001 -2.113162e+001 -5.890578e+001
3114843750 -2.225528e+001 -1.640554e+001 -3.890233e+000 9.483434e+001 -8.127589e+001 -7.186813e+001 -2.140458e+001 -5.818216e+001
3115937500 -2.219268e+001 -8.422673e+000 -3.851935e+000 3.009582e+001 -8.712202e+001 5.139832e+001 -2.176841e+001 -5.789862e+001
3117031250 -2.237036e+001 -5.270651e-001 -3.833304e+000 -3.462658e+001 -8.591277e+001 1.080260e+002 -2.217671e+001 -5.836548e+001
3118125000 -2.277187e+001 7.235643e+000 -3.824422e+000 -9.933617e+001 -8.323458e+001 -1.350329e+002 -2.262019e+001 -5.940059e+001
3119218750 -2.343552e+001 1.473923e+001 -3.832359e+000 -1.638855e+002 -8.697754e+001 -1.728027e+002 -2.304875e+001 -6.152201e+001
3120312500 -2.439326e+001 2.197070e+001 -3.855343e+000 1.316388e+002 -8.413528e+001 1.674286e+002 -2.340164e+001 -6.460618e+001
3121406250 -2.573683e+001 2.898942e+001 -3.903507e+000 6.715184e+001 -8.516496e+001 -1.091094e+002 -2.360749e+001 -6.842654e+001
3122500000 -2.754747e+001 3.511796e+001 -3.951247e+000 2.885156e+000 -8.964879e+001 5.089310e+001 -2.364819e+001 -7.261216e+001
3123593750 -3.011971e+001 3.975821e+001 -4.020551e+000 -6.135242e+001 -9.037244e+001 -8.817998e+001 -2.344184e+001 -7.664728e+001
3124687500 -3.405218e+001 4.027872e+001 -4.075124e+000 -1.250982e+002 -8.463545e+001 4.897592e+001 -2.306190e+001 -7.972698e+001
3125781250 -4.073455e+001 2.243214e+001 -4.089354e+000 1.712382e+002 -9.062926e+001 -2.021515e+001 -2.259357e+001 -8.158858e+001
3126875000 -4.108130e+001 -5.618592e+001 -4.034721e+000 1.077560e+002 -8.615379e+001 1.400727e+002 -2.208880e+001 -8.231476e+001
3127968750 -3.422517e+001 -7.678262e+001 -3.910017e+000 4.402085e+001 -8.199619e+001 -1.643766e+002 -2.161756e+001 -8.174160e+001
3129062500 -3.030880e+001 -7.660735e+001 -3.742693e+000 -2.008677e+001 -8.812680e+001 2.313210e+001 -2.119366e+001 -8.024652e+001
3130156250 -2.765816e+001 -7.207106e+001 -3.558253e+000 -8.453091e+001 -8.220719e+001 -1.117557e+002 -2.088483e+001 -7.818911e+001
3131250000 -2.581085e+001 -6.633885e+001 -3.409271e+000 -1.492338e+002 -9.396139e+001 -2.831239e+001 -2.066450e+001 -7.520175e+001
3132343750 -2.445417e+001 -5.957352e+001 -3.288848e+000 1.458230e+002 -8.484426e+001 -1.759347e+002 -2.060051e+001 -7.172974e+001
3133437500 -2.346329e+001 -5.274686e+001 -3.187704e+000 8.075732e+001 -8.179860e+001 -1.563462e+002 -2.068233e+001 -6.788750e+001
3134531250 -2.279000e+001 -4.570556e+001 -3.143703e+000 1.569463e+001 -9.639522e+001 1.334794e+002 -2.089516e+001 -6.401814e+001
3135625000 -2.233504e+001 -3.834892e+001 -3.124388e+000 -4.925254e+001 -8.548109e+001 3.598419e+000 -2.128762e+001 -5.998328e+001
3136718750 -2.214840e+001 -3.112049e+001 -3.120935e+000 -1.141147e+002 -8.276688e+001 -5.267233e+001 -2.186337e+001 -5.609003e+001
3137812500 -2.214357e+001 -2.394594e+001 -3.135101e+000 -1.789050e+002 -8.972832e+001 7.106689e+001 -2.269950e+001 -5.264463e+001
3138906250 -2.236675e+001 -1.684707e+001 -3.140502e+000 1.162804e+002 -8.703804e+001 2.478975e+001 -2.379513e+001 -4.983329e+001
3140000000 -2.282566e+001 -9.790973e+000 -3.153047e+000 5.167222e+001 -8.790721e+001 -7.572278e+000 -2.521331e+001 -4.820679e+001
3141093750 -2.353129e+001 -3.046705e+000 -3.164693e+000 -1.299853e+001 -8.848519e+001 1.113903e+001 -2.712314e+001 -4.937705e+001
3142187500 -2.454057e+001 3.436156e+000 -3.153752e+000 -7.771368e+001 -8.823562e+001 -1.306230e+002 -2.940144e+001 -5.561293e+001
3143281250 -2.589347e+001 9.293560e+000 -3.157579e+000 -1.424055e+002 -8.526401e+001 -6.929101e+001 -3.176312e+001 -7.158041e+001
3144375000 -2.778504e+001 1.389458e+001 -3.147187e+000 1.529716e+002 -8.039927e+001 -1.684279e+002 -3.235770e+001 -9.872427e+001
3145468750 -3.048569e+001 1.610662e+001 -3.145894e+000 8.845461e+001 -8.322904e+001 2.424634e+001 -3.038596e+001 -1.209786e+002
3146562500 -3.432856e+001 1.125518e+001 -3.121347e+000 2.405321e+001 -7.886255e+001 1.936666e+001 -2.783122e+001 -1.308106e+002
3147656250 -3.911129e+001 -1.857722e+001 -3.096378e+000 -4.045114e+001 -8.208601e+001 1.695148e+002 -2.559442e+001 -1.332787e+002
3148750000 -3.733014e+001 -7.091805e+001 -3.049339e+000 -1.050096e+002 -7.999922e+001 2.743690e+001 -2.378946e+001 -1.321224e+002
3149843750 -3.255910e+001 -8.688917e+001 -3.006244e+000 -1.697744e+002 -8.732866e+001 -4.612001e+001 -2.241540e+001 -1.291808e+002
3150937500 -2.917923e+001 -8.806536e+001 -2.956104e+000 1.252974e+002 -9.074673e+001 1.604674e+002 -2.130383e+001 -1.250946e+002
3152031250 -2.678046e+001 -8.479637e+001 -2.945161e+000 6.043134e+001 -8.540141e+001 1.337671e+002 -2.047159e+001 -1.204839e+002
3153125000 -2.506518e+001 -7.955580e+001 -2.934545e+000 -4.518800e+000 -7.986347e+001 -1.727412e+002 -1.985594e+001 -1.153108e+002
3154218750 -2.379593e+001 -7.335751e+001 -2.935387e+000 -6.955556e+001 -9.179398e+001 -3.588886e+001 -1.943301e+001 -1.100776e+002
3155312500 -2.283160e+001 -6.661927e+001 -2.948390e+000 -1.344997e+002 -9.928355e+001 -1.086083e+002 -1.919549e+001 -1.046080e+002
3156406250 -2.216430e+001 -5.964308e+001 -2.979357e+000 1.604300e+002 -8.755131e+001 -1.776069e+002 -1.913080e+001 -9.909784e+001
3157500000 -2.170040e+001 -5.243772e+001 -3.033974e+000 9.551219e+001 -8.776646e+001 1.547106e+002 -1.921891e+001 -9.376805e+001
3158593750 -2.145518e+001 -4.517226e+001 -3.100584e+000 3.083258e+001 -8.391438e+001 7.797314e+001 -1.947046e+001 -8.846426e+001
3159687500 -2.140651e+001 -3.776656e+001 -3.169110e+000 -3.366986e+001 -8.202595e+001 6.905228e+001 -1.991887e+001 -8.374411e+001
3160781250 -2.154892e+001 -3.024391e+001 -3.215044e+000 -9.785874e+001 -8.436036e+001 -1.623192e+001 -2.052276e+001 -7.964388e+001
3161875000 -2.191031e+001 -2.251102e+001 -3.240477e+000 -1.620280e+002 -8.271890e+001 5.505379e+001 -2.136625e+001 -7.641866e+001
3162968750 -2.246268e+001 -1.497616e+001 -3.213864e+000 1.337612e+002 -8.489764e+001 -1.620558e+002 -2.242297e+001 -7.454144e+001
3164062500 -2.324708e+001 -7.354050e+000 -3.169001e+000 6.925697e+001 -8.268836e+001 -3.440603e+001 -2.367148e+001 -7.503437e+001
