!Agilent Technologies,E8363B,MY43030572,A.06.04.32
!Agilent E8363B: A.06.04.32
!Date: Tuesday, June 07, 2011 08:20:02
!Correction: S11(Full 2 Port(1,2)) S21(Full 2 Port(1,2)) S12(Full 2 Port(1,2)) S22(Full 2 Port(1,2)) 
!S2P File: Measurements: S11, S21, S12, S22:
# Hz S  dB   R 50
3000000000 -2.135227e+001 5.686980e+001 -4.101942e+000 -4.535072e+001 -8.960285e+001 1.054628e+002 -1.675532e+001 -2.087239e+001
3001093750 -2.088558e+001 6.530933e+001 -4.993680e+000 -1.150265e+002 -9.066012e+001 -2.460348e+001 -1.696623e+001 -1.772075e+001
3002187500 -2.061450e+001 7.396803e+001 -5.000157e+000 1.785665e+002 -8.809236e+001 -9.259615e+000 -1.724383e+001 -1.429375e+001
3003281250 -2.055688e+001 8.282478e+001 -5.021615e+000 1.120298e+002 -8.170455e+001 -1.286446e+002 -1.763358e+001 -1.122492e+001
3004375000 -2.069209e+001 9.176285e+001 -5.056244e+000 4.541665e+001 -8.331910e+001 4.997678e+001 -1.817875e+001 -8.989231e+000
3005468750 -2.102708e+001 1.007140e+002 -5.128706e+000 -2.135190e+001 -8.187466e+001 -4.865795e+000 -1.883387e+001 -7.657341e+000
3006562500 -2.159366e+001 1.099858e+002 -5.224706e+000 -8.788699e+001 -8.165871e+001 -1.101075e+002 -1.958414e+001 -7.485074e+000
3007656250 -2.241732e+001 1.192461e+002 -5.336617e+000 -1.541588e+002 -8.645041e+001 1.800722e+001 -2.037331e+001 -8.976662e+000
3008750000 -2.355238e+001 1.292409e+002 -5.458943e+000 1.397436e+002 -8.010051e+001 1.522953e+002 -2.113185e+001 -1.241773e+001
3009843750 -2.512886e+001 1.401013e+002 -5.561197e+000 7.396040e+001 -8.888342e+001 1.803407e+001 -2.169477e+001 -1.763553e+001
3010937500 -2.722233e+001 1.524009e+002 -5.624158e+000 8.349960e+000 -8.915894e+001 9.080009e+001 -2.194844e+001 -2.404333e+001
3012031250 -3.019514e+001 1.689114e+002 -5.654146e+000 -5.709257e+001 -1.022072e+002 1.037436e+002 -2.177905e+001 -3.068114e+001
3013125000 -3.437931e+001 -1.635900e+002 -5.645667e+000 -1.225855e+002 -9.327616e+001 -3.999722e+000 -2.126287e+001 -3.599010e+001
3014218750 -3.718688e+001 -1.045257e+002 -5.609912e+000 1.718789e+002 -9.946302e+001 -1.424146e+002 -2.056109e+001 -3.941371e+001
3015312500 -3.336625e+001 -5.201481e+001 -5.539656e+000 1.060907e+002 -8.260342e+001 9.982944e+001 -1.980396e+001 -4.097063e+001
3016406250 -2.927563e+001 -2.772243e+001 -5.445426e+000 4.008009e+001 -8.397729e+001 -5.428452e+000 -1.908407e+001 -4.083287e+001
3017500000 -2.646258e+001 -1.273776e+001 -5.350623e+000 -2.626273e+001 -8.289911e+001 -6.271243e+001 -1.848135e+001 -3.947426e+001
3018593750 -2.435284e+001 -7.043259e-001 -5.249041e+000 -9.283230e+001 -8.159981e+001 -1.664289e+002 -1.799199e+001 -3.710834e+001
3019687500 -2.280070e+001 9.825564e+000 -5.167689e+000 -1.597085e+002 -8.333041e+001 7.325993e+001 -1.762499e+001 -3.394344e+001
3020781250 -2.161532e+001 1.958465e+001 -5.115822e+000 1.332127e+002 -8.155365e+001 -3.201446e+000 -1.739957e+001 -3.052732e+001
3021875000 -2.074538e+001 2.898907e+001 -5.099414e+000 6.597923e+001 -9.297441e+001 -1.781872e+002 -1.732301e+001 -2.659510e+001
3022968750 -2.010150e+001 3.794043e+001 -5.122318e+000 -1.402326e+000 -8.392318e+001 -1.657276e+002 -1.737760e+001 -2.267483e+001
3024062500 -1.967606e+001 4.673290e+001 -5.206092e+000 -6.885918e+001 -7.890437e+001 7.750666e+001 -1.756463e+001 -1.856804e+001
3025156250 -1.943657e+001 5.559454e+001 -5.347599e+000 -1.360803e+002 -9.317420e+001 -1.440740e+002 -1.791719e+001 -1.476584e+001
3026250000 -1.938882e+001 6.425269e+001 -5.540035e+000 1.568766e+002 -9.159267e+001 -7.976495e+001 -1.840796e+001 -1.129465e+001
3027343750 -1.950097e+001 7.269951e+001 -5.764832e+000 9.032634e+001 -8.895529e+001 -4.403183e+001 -1.910223e+001 -8.340288e+000
3028437500 -1.982080e+001 8.117508e+001 -5.989179e+000 2.423214e+001 -8.978335e+001 3.881390e+001 -1.994950e+001 -6.378644e+000
3029531250 -2.034027e+001 8.948582e+001 -6.190710e+000 -4.156173e+001 -9.024110e+001 1.658391e+002 -2.100254e+001 -6.034110e+000
3030625000 -2.107811e+001 9.793782e+001 -6.357076e+000 -1.070416e+002 -8.118911e+001 -5.313938e+001 -2.223584e+001 -7.439281e+000
3031718750 -2.207863e+001 1.061117e+002 -6.471382e+000 -1.724319e+002 -8.220686e+001 1.182256e+002 -2.349266e+001 -1.207271e+001
3032812500 -2.340672e+001 1.141228e+002 -6.547462e+000 1.221303e+002 -8.254112e+001 8.845970e+001 -2.461931e+001 -2.071423e+001
3033906250 -2.516889e+001 1.220383e+002 -6.587625e+000 5.666077e+001 -8.314392e+001 -1.697599e+002 -2.512506e+001 -3.256026e+001
3035000000 -2.760890e+001 1.294465e+002 -6.597394e+000 -9.014590e+000 -8.285661e+001 -9.022521e+001 -2.473303e+001 -4.471673e+001
3036093750 -3.128645e+001 1.360254e+002 -6.590204e+000 -7.486671e+001 -8.321780e+001 -3.997154e+001 -2.372545e+001 -5.367250e+001
3037187500 -3.798710e+001 1.383331e+002 -6.587800e+000 -1.411297e+002 -9.839347e+001 3.768725e+000 -2.246062e+001 -5.858979e+001
3038281250 -4.917473e+001 2.343567e+001 -6.614270e+000 1.525030e+002 -7.989397e+001 -1.462836e+002 -2.123964e+001 -6.023021e+001
3039375000 -3.531479e+001 -5.896763e+000 -6.662863e+000 8.596606e+001 -9.012022e+001 -1.579473e+002 -2.018559e+001 -5.976123e+001
3040468750 -3.020940e+001 -5.893329e-001 -6.744420e+000 1.951461e+001 -9.641791e+001 1.577260e+001 -1.930217e+001 -5.772115e+001
3041562500 -2.715534e+001 6.540302e+000 -6.831056e+000 -4.677643e+001 -8.829924e+001 1.281212e+002 -1.862253e+001 -5.461556e+001
3042656250 -2.510852e+001 1.446778e+001 -6.925074e+000 -1.129807e+002 -9.104655e+001 9.144946e+001 -1.813663e+001 -5.089962e+001
3043750000 -2.364091e+001 2.255842e+001 -7.016016e+000 -1.792319e+002 -9.300052e+001 1.369528e+002 -1.779948e+001 -4.681866e+001
3044843750 -2.258414e+001 3.117928e+001 -7.115950e+000 1.145026e+002 -8.300534e+001 2.431216e+001 -1.765335e+001 -4.239213e+001
3045937500 -2.183507e+001 3.986123e+001 -7.267607e+000 4.828957e+001 -8.457175e+001 -3.784440e+001 -1.764896e+001 -3.782060e+001
3047031250 -2.133056e+001 4.871680e+001 -7.451113e+000 -1.767425e+001 -8.967639e+001 -2.084641e+001 -1.782172e+001 -3.328267e+001
3048125000 -2.108444e+001 5.762159e+001 -7.653344e+000 -8.330012e+001 -7.872269e+001 1.200485e+002 -1.813648e+001 -2.899624e+001
3049218750 -2.101330e+001 6.695491e+001 -7.846976e+000 -1.484524e+002 -8.469293e+001 1.634460e+002 -1.862847e+001 -2.493064e+001
3050312500 -2.116219e+001 7.648911e+001 -7.989769e+000 1.467563e+002 -8.408811e+001 -7.523625e+001 -1.931461e+001 -2.151555e+001
3051406250 -2.151174e+001 8.644093e+001 -8.076110e+000 8.211618e+001 -9.834237e+001 -5.032051e+001 -2.020643e+001 -1.925988e+001
3052500000 -2.207447e+001 9.699277e+001 -8.090101e+000 1.758284e+001 -7.793394e+001 1.636406e+002 -2.133496e+001 -1.846989e+001
3053593750 -2.284941e+001 1.083385e+002 -8.026867e+000 -4.713525e+001 -8.840422e+001 2.690264e+001 -2.267340e+001 -1.986979e+001
3054687500 -2.389757e+001 1.207483e+002 -7.900065e+000 -1.122852e+002 -8.612289e+001 -1.736257e+002 -2.412785e+001 -2.525101e+001
3055781250 -2.515538e+001 1.350049e+002 -7.747690e+000 -1.776970e+002 -8.287917e+001 -5.682644e+001 -2.538081e+001 -3.537070e+001
3056875000 -2.666681e+001 1.523166e+002 -7.593118e+000 1.163160e+002 -8.320230e+001 -1.102757e+002 -2.584731e+001 -4.994220e+001
3057968750 -2.829935e+001 1.742724e+002 -7.477053e+000 4.993223e+001 -9.349405e+001 -7.383372e+001 -2.520123e+001 -6.424385e+001
3059062500 -2.944605e+001 -1.577132e+002 -7.399630e+000 -1.663766e+001 -9.376642e+001 7.861660e+001 -2.377376e+001 -7.361700e+001
3060156250 -2.942195e+001 -1.264979e+002 -7.386289e+000 -8.339918e+001 -8.444721e+001 7.235311e+001 -2.222709e+001 -7.831303e+001
3061250000 -2.825446e+001 -9.859388e+001 -7.434853e+000 -1.500490e+002 -8.124157e+001 8.315139e+001 -2.080500e+001 -7.942181e+001
3062343750 -2.666144e+001 -7.664346e+001 -7.504824e+000 1.435852e+002 -8.090534e+001 -6.874629e+000 -1.957587e+001 -7.796739e+001
3063437500 -2.517225e+001 -5.921482e+001 -7.583776e+000 7.732388e+001 -9.136524e+001 -1.345792e+001 -1.855792e+001 -7.536810e+001
3064531250 -2.383997e+001 -4.499644e+001 -7.655548e+000 1.121517e+001 -8.565178e+001 -8.406068e+001 -1.775277e+001 -7.171419e+001
3065625000 -2.280278e+001 -3.252578e+001 -7.709183e+000 -5.489634e+001 -9.809186e+001 -5.028440e+001 -1.711351e+001 -6.751547e+001
3066718750 -2.201152e+001 -2.146909e+001 -7.769465e+000 -1.210804e+002 -8.635279e+001 1.729091e+002 -1.664759e+001 -6.291437e+001
3067812500 -2.142246e+001 -1.121658e+001 -7.848148e+000 1.726511e+002 -9.042362e+001 -1.026462e+002 -1.633008e+001 -5.798199e+001
3068906250 -2.103813e+001 -1.511477e+000 -7.970315e+000 1.066250e+002 -8.246130e+001 2.206336e+001 -1.616075e+001 -5.284021e+001
3070000000 -2.088748e+001 7.753835e+000 -8.115392e+000 4.089761e+001 -9.154726e+001 3.179991e+001 -1.610728e+001 -4.777143e+001
3071093750 -2.089986e+001 1.663695e+001 -8.264744e+000 -2.449704e+001 -8.345605e+001 2.544320e+001 -1.620610e+001 -4.258649e+001
3072187500 -2.109291e+001 2.528392e+001 -8.397911e+000 -8.953463e+001 -8.015141e+001 9.290254e+001 -1.642498e+001 -3.752489e+001
3073281250 -2.148653e+001 3.355608e+001 -8.497632e+000 -1.542666e+002 -8.686426e+001 1.613293e+001 -1.677576e+001 -3.262941e+001
3074375000 -2.212515e+001 4.146645e+001 -8.519921e+000 1.411916e+002 -1.019667e+002 1.618299e+001 -1.726557e+001 -2.802706e+001
3075468750 -2.301074e+001 4.874553e+001 -8.464840e+000 7.657593e+001 -8.322363e+001 -1.735150e+001 -1.791095e+001 -2.396303e+001
3076562500 -2.422391e+001 5.562417e+001 -8.327701e+000 1.160353e+001 -9.036681e+001 6.429377e+000 -1.871870e+001 -2.064587e+001
3077656250 -2.584491e+001 6.156925e+001 -8.142305e+000 -5.392784e+001 -8.526122e+001 -6.728304e+001 -1.972672e+001 -1.816500e+001
3078750000 -2.803968e+001 6.564370e+001 -7.950012e+000 -1.200932e+002 -8.142912e+001 -6.239859e+001 -2.091175e+001 -1.692384e+001
3079843750 -3.109520e+001 6.577811e+001 -7.810941e+000 1.732888e+002 -9.830713e+001 1.419395e+002 -2.229566e+001 -1.789121e+001
3080937500 -3.534375e+001 5.354333e+001 -7.739945e+000 1.064408e+002 -8.342776e+001 1.051459e+002 -2.379579e+001 -2.178264e+001
3082031250 -3.792519e+001 1.031934e+001 -7.748630e+000 3.976110e+001 -9.126593e+001 -3.021213e+001 -2.518974e+001 -2.977416e+001
3083125000 -3.407114e+001 -2.392479e+001 -7.801326e+000 -2.657866e+001 -8.264788e+001 8.748279e+001 -2.607359e+001 -4.202439e+001
3084218750 -3.008815e+001 -3.120335e+001 -7.881352e+000 -9.244279e+001 -9.448586e+001 1.029742e+002 -2.601711e+001 -5.580414e+001
3085312500 -2.736020e+001 -2.990046e+001 -7.941085e+000 -1.579612e+002 -8.526659e+001 -1.644461e+002 -2.512091e+001 -6.698128e+001
3086406250 -2.540049e+001 -2.518608e+001 -7.966491e+000 1.367823e+002 -8.651093e+001 -1.349679e+002 -2.390022e+001 -7.368456e+001
3087500000 -2.389157e+001 -1.940459e+001 -7.952677e+000 7.137574e+001 -8.259403e+001 -9.788123e+001 -2.265783e+001 -7.683050e+001
3088593750 -2.281079e+001 -1.255787e+001 -7.904861e+000 6.009302e+000 -8.410759e+001 1.219223e+001 -2.157941e+001 -7.740330e+001
3089687500 -2.199900e+001 -5.441745e+000 -7.837337e+000 -5.966058e+001 -8.701365e+001 -6.785089e+000 -2.066974e+001 -7.644624e+001
3090781250 -2.145129e+001 2.037560e+000 -7.750464e+000 -1.255252e+002 -9.118097e+001 -1.178814e+002 -1.995238e+001 -7.462345e+001
3091875000 -2.110576e+001 9.746799e+000 -7.653079e+000 1.684112e+002 -8.165908e+001 -1.132126e+002 -1.940954e+001 -7.205053e+001
3092968750 -2.096630e+001 1.763887e+001 -7.567291e+000 1.020328e+002 -8.220489e+001 1.642521e+002 -1.901134e+001 -6.912000e+001
3094062500 -2.101835e+001 2.550771e+001 -7.500706e+000 3.556084e+001 -8.831425e+001 1.545815e+002 -1.875677e+001 -6.602073e+001
3095156250 -2.126335e+001 3.362214e+001 -7.479087e+000 -3.104095e+001 -8.779526e+001 -1.401882e+002 -1.860284e+001 -6.284584e+001
3096250000 -2.169530e+001 4.191368e+001 -7.485399e+000 -9.743085e+001 -8.189765e+001 -5.269735e+000 -1.855822e+001 -5.983074e+001
3097343750 -2.236945e+001 5.035496e+001 -7.532703e+000 -1.635223e+002 -8.694050e+001 1.629907e+002 -1.861329e+001 -5.695723e+001
3098437500 -2.330564e+001 5.917426e+001 -7.562896e+000 1.305615e+002 -8.960448e+001 -1.263686e+002 -1.873439e+001 -5.446952e+001
3099531250 -2.452550e+001 6.833176e+001 -7.586446e+000 6.487225e+001 -8.943179e+001 1.340909e+002 -1.892973e+001 -5.227628e+001
3100625000 -2.616797e+001 7.777177e+001 -7.580411e+000 -8.716953e-001 -9.058363e+001 -1.434815e+002 -1.918875e+001 -5.047009e+001
3101718750 -2.832718e+001 8.841833e+001 -7.576170e+000 -6.668377e+001 -8.138702e+001 -4.572096e+001 -1.946111e+001 -4.922943e+001
3102812500 -3.144102e+001 1.016853e+002 -7.548611e+000 -1.324548e+002 -8.748840e+001 9.414091e+001 -1.979127e+001 -4.841114e+001
3103906250 -3.608587e+001 1.235426e+002 -7.506111e+000 1.617525e+002 -8.068938e+001 -1.617957e+002 -2.009509e+001 -4.802778e+001
3105000000 -4.168534e+001 -1.767253e+002 -7.439286e+000 9.600438e+001 -8.850316e+001 1.444026e+000 -2.038809e+001 -4.803266e+001
3106093750 -3.723201e+001 -1.088537e+002 -7.344374e+000 3.006073e+001 -8.943977e+001 3.918668e+001 -2.069002e+001 -4.841525e+001
3107187500 -3.247403e+001 -8.432867e+001 -7.238518e+000 -3.605090e+001 -8.633430e+001 -2.426193e+001 -2.091837e+001 -4.893308e+001
3108281250 -2.935578e+001 -6.985339e+001 -7.126899e+000 -1.023418e+002 -8.514972e+001 -1.044502e+002 -2.112199e+001 -4.970465e+001
3109375000 -2.728798e+001 -5.895115e+001 -7.037765e+000 -1.687616e+002 -8.114999e+001 1.238292e+002 -2.131217e+001 -5.029377e+001
3110468750 -2.579063e+001 -4.920481e+001 -6.966693e+000 1.247441e+002 -8.554411e+001 1.225015e+002 -2.146085e+001 -5.092247e+001
3111562500 -2.469792e+001 -4.010741e+001 -6.927898e+000 5.823474e+001 -8.016479e+001 4.745951e+001 -2.161055e+001 -5.140889e+001
3112656250 -2.397490e+001 -3.150821e+001 -6.909193e+000 -8.371463e+000 -8.651252e+001 1.798222e+002 -2.176215e+001 -5.193182e+001
3113750000 -2.349655e+001 -2.306280e+001 -6.919340e+000 -7.498891e+001 -8.382995e+001 -3.233399e+000 -2.195079e+001 -5.242688e+001
3114843750 -2.332328e+001 -1.500491e+001 -6.937013e+000 -1.415214e+002 -9.303280e+001 4.635122e+001 -2.215433e+001 -5.314259e+001
3115937500 -2.334189e+001 -6.965924e+000 -6.985831e+000 1.519101e+002 -8.213439e+001 1.670657e+002 -2.239554e+001 -5.419604e+001
3117031250 -2.360413e+001 7.702513e-001 -7.062307e+000 8.554762e+001 -9.028175e+001 9.982735e+001 -2.266869e+001 -5.564438e+001
3118125000 -2.408763e+001 8.444149e+000 -7.136986e+000 1.935097e+001 -8.746606e+001 9.058790e+001 -2.290728e+001 -5.746656e+001
3119218750 -2.485609e+001 1.585481e+001 -7.195191e+000 -4.649900e+001 -8.749168e+001 -7.232451e+000 -2.312942e+001 -5.976205e+001
3120312500 -2.593520e+001 2.281372e+001 -7.231647e+000 -1.121493e+002 -9.945635e+001 8.274251e+000 -2.327341e+001 -6.254885e+001
3121406250 -2.746118e+001 2.925348e+001 -7.224917e+000 -1.777304e+002 -8.849503e+001 -1.521339e+002 -2.330619e+001 -6.569637e+001
3122500000 -2.953213e+001 3.469772e+001 -7.183587e+000 1.166151e+002 -9.510931e+001 1.007169e+002 -2.317065e+001 -6.857518e+001
3123593750 -3.250640e+001 3.758847e+001 -7.128158e+000 5.087729e+001 -8.922076e+001 -4.347187e+001 -2.292198e+001 -7.128348e+001
3124687500 -3.723830e+001 3.316814e+001 -7.061764e+000 -1.505763e+001 -8.775288e+001 -4.920557e+001 -2.256816e+001 -7.321883e+001
3125781250 -4.355674e+001 -1.110592e+001 -6.995460e+000 -8.121807e+001 -8.154526e+001 -4.438345e+001 -2.213517e+001 -7.427827e+001
3126875000 -3.858366e+001 -6.955659e+001 -6.940554e+000 -1.476207e+002 -8.844570e+001 -1.151375e+002 -2.171967e+001 -7.452606e+001
3127968750 -3.335622e+001 -7.746052e+001 -6.901671e+000 1.458415e+002 -8.996864e+001 -7.785533e+001 -2.129527e+001 -7.402960e+001
3129062500 -3.007952e+001 -7.528901e+001 -6.913570e+000 7.929779e+001 -8.522066e+001 -1.028200e+001 -2.096025e+001 -7.255434e+001
3130156250 -2.782492e+001 -7.041957e+001 -6.951991e+000 1.284923e+001 -8.998556e+001 -1.511630e+002 -2.069292e+001 -7.046193e+001
3131250000 -2.618725e+001 -6.435310e+001 -6.990385e+000 -5.332718e+001 -8.385775e+001 1.628123e+002 -2.053546e+001 -6.769209e+001
3132343750 -2.501890e+001 -5.793410e+001 -7.032558e+000 -1.191171e+002 -8.638962e+001 -1.517487e+002 -2.047990e+001 -6.451658e+001
3133437500 -2.415402e+001 -5.115959e+001 -7.031955e+000 1.751675e+002 -8.706615e+001 8.128069e+001 -2.051325e+001 -6.094989e+001
3134531250 -2.359345e+001 -4.399848e+001 -7.016149e+000 1.095745e+002 -9.111901e+001 5.197646e+000 -2.068585e+001 -5.725580e+001
3135625000 -2.324747e+001 -3.668008e+001 -6.966883e+000 4.396774e+001 -8.243106e+001 1.499751e+002 -2.100972e+001 -5.348855e+001
3136718750 -2.316684e+001 -2.973734e+001 -6.915012e+000 -2.167370e+001 -9.013914e+001 1.343771e+002 -2.148605e+001 -4.986147e+001
3137812500 -2.325409e+001 -2.249848e+001 -6.856003e+000 -8.738899e+001 -8.987433e+001 -1.537552e+002 -2.214044e+001 -4.657063e+001
3138906250 -2.355721e+001 -1.572693e+001 -6.770913e+000 -1.533122e+002 -8.670968e+001 -1.042933e+002 -2.307366e+001 -4.373220e+001
3140000000 -2.410280e+001 -8.900482e+000 -6.656103e+000 1.406773e+002 -8.352518e+001 -1.125367e+002 -2.424779e+001 -4.182771e+001
3141093750 -2.493923e+001 -2.422639e+000 -6.532049e+000 7.436758e+001 -7.939048e+001 1.478000e+002 -2.575663e+001 -4.138366e+001
3142187500 -2.607457e+001 3.467429e+000 -6.406404e+000 7.802144e+000 -8.942110e+001 -3.432565e+001 -2.765011e+001 -4.358768e+001
3143281250 -2.765427e+001 8.748305e+000 -6.307649e+000 -5.885481e+001 -7.954210e+001 -2.871298e+000 -2.977657e+001 -5.173271e+001
3144375000 -2.977559e+001 1.208148e+001 -6.230552e+000 -1.255041e+002 -8.497501e+001 9.384554e+000 -3.160206e+001 -6.867556e+001
3145468750 -3.280984e+001 1.146290e+001 -6.164297e+000 1.678630e+002 -9.107736e+001 1.209760e+002 -3.161123e+001 -9.201635e+001
3146562500 -3.708151e+001 -1.052356e+000 -6.100431e+000 1.014272e+002 -8.499998e+001 1.514910e+000 -2.979222e+001 -1.099481e+002
3147656250 -3.964809e+001 -4.491865e+001 -6.041314e+000 3.489791e+001 -8.138480e+001 8.621977e+001 -2.762572e+001 -1.186553e+002
3148750000 -3.579092e+001 -7.999232e+001 -5.988387e+000 -3.171020e+001 -9.489584e+001 -1.629502e+002 -2.560562e+001 -1.209393e+002
3149843750 -3.177164e+001 -8.800961e+001 -5.970637e+000 -9.855370e+001 -9.078085e+001 1.219557e+002 -2.404597e+001 -1.202656e+002
3150937500 -2.898358e+001 -8.708995e+001 -6.009741e+000 -1.654675e+002 -8.179743e+001 1.240922e+002 -2.280274e+001 -1.178171e+002
3152031250 -2.694967e+001 -8.333649e+001 -6.098650e+000 1.277392e+002 -8.277773e+001 -6.298831e+001 -2.182733e+001 -1.143514e+002
3153125000 -2.542497e+001 -7.776990e+001 -6.205019e+000 6.105168e+001 -8.995004e+001 1.372883e+002 -2.107042e+001 -1.101972e+002
3154218750 -2.432677e+001 -7.160146e+001 -6.330684e+000 -5.316043e+000 -9.217760e+001 4.024498e+001 -2.054877e+001 -1.055411e+002
3155312500 -2.347910e+001 -6.483520e+001 -6.437698e+000 -7.139491e+001 -8.194019e+001 6.547006e+001 -2.020287e+001 -1.008531e+002
3156406250 -2.289964e+001 -5.779890e+001 -6.528165e+000 -1.373035e+002 -9.321097e+001 -1.756820e+002 -2.003234e+001 -9.596212e+001
3157500000 -2.252630e+001 -5.073382e+001 -6.575712e+000 1.570731e+002 -8.212374e+001 -1.371734e+002 -2.002909e+001 -9.122480e+001
3158593750 -2.237022e+001 -4.351319e+001 -6.589584e+000 9.172008e+001 -8.158812e+001 -3.439582e+001 -2.017969e+001 -8.667144e+001
3159687500 -2.239908e+001 -3.616243e+001 -6.559178e+000 2.667850e+001 -8.268755e+001 -8.699195e+001 -2.049842e+001 -8.256449e+001
3160781250 -2.257376e+001 -2.884032e+001 -6.458445e+000 -3.820446e+001 -9.136810e+001 1.688371e+001 -2.100995e+001 -7.901381e+001
3161875000 -2.301668e+001 -2.115586e+001 -6.275485e+000 -1.032271e+002 -9.435242e+001 9.805967e+001 -2.165470e+001 -7.629193e+001
3162968750 -2.364580e+001 -1.361822e+001 -6.032778e+000 -1.686333e+002 -8.320219e+001 -5.173797e+001 -2.246998e+001 -7.514937e+001
3164062500 -2.451576e+001 -6.109124e+000 -5.757447e+000 1.253459e+002 -8.039812e+001 -3.531100e+001 -2.344048e+001 -7.582547e+001
