!Agilent Technologies,E8363B,MY43030572,A.06.04.32
!Agilent E8363B: A.06.04.32
!Date: Tuesday, June 07, 2011 08:19:22
!Correction: S11(Full 2 Port(1,2)) S21(Full 2 Port(1,2)) S12(Full 2 Port(1,2)) S22(Full 2 Port(1,2)) 
!S2P File: Measurements: S11, S21, S12, S22:
# Hz S  dB   R 50
3000000000 -2.133813e+001 5.686446e+001 -2.423945e+000 -5.356941e+001 -7.871442e+001 5.641439e+001 -1.673457e+001 -2.097676e+001
3001093750 -2.087046e+001 6.516639e+001 -3.131708e+000 -1.225970e+002 -9.398756e+001 6.275486e+001 -1.696903e+001 -1.781538e+001
3002187500 -2.060744e+001 7.395475e+001 -2.968316e+000 1.715644e+002 -8.495726e+001 1.609867e+002 -1.724050e+001 -1.437156e+001
3003281250 -2.055187e+001 8.271146e+001 -2.785852e+000 1.053654e+002 -8.467289e+001 -8.046452e+001 -1.765879e+001 -1.133370e+001
3004375000 -2.067896e+001 9.166398e+001 -2.591866e+000 3.888327e+001 -8.715553e+001 1.067415e+002 -1.820061e+001 -8.975880e+000
3005468750 -2.101953e+001 1.006144e+002 -2.413134e+000 -2.788700e+001 -8.332021e+001 7.828080e+000 -1.883990e+001 -7.551930e+000
3006562500 -2.158812e+001 1.097873e+002 -2.253465e+000 -9.466494e+001 -8.258664e+001 6.820572e+001 -1.959717e+001 -7.375230e+000
3007656250 -2.241168e+001 1.191380e+002 -2.114071e+000 -1.614707e+002 -8.954240e+001 5.442448e+001 -2.036808e+001 -8.887280e+000
3008750000 -2.354844e+001 1.290580e+002 -2.004553e+000 1.317502e+002 -8.329759e+001 -7.211005e+001 -2.110593e+001 -1.224256e+001
3009843750 -2.511785e+001 1.399116e+002 -1.904396e+000 6.496769e+001 -8.333310e+001 2.880447e-001 -2.166753e+001 -1.750364e+001
3010937500 -2.722883e+001 1.521613e+002 -1.813580e+000 -1.910729e+000 -8.665949e+001 -9.182987e+001 -2.189018e+001 -2.406132e+001
3012031250 -3.022768e+001 1.686986e+002 -1.738764e+000 -6.878185e+001 -9.314188e+001 -1.734358e+002 -2.174999e+001 -3.075715e+001
3013125000 -3.446589e+001 -1.635928e+002 -1.702201e+000 -1.358449e+002 -8.575594e+001 -8.953534e+001 -2.123925e+001 -3.614803e+001
3014218750 -3.726877e+001 -1.038730e+002 -1.685081e+000 1.570669e+002 -7.826175e+001 6.433144e+001 -2.055417e+001 -3.969975e+001
3015312500 -3.334158e+001 -5.177173e+001 -1.687188e+000 8.994852e+001 -9.874674e+001 -1.798841e+002 -1.982483e+001 -4.116154e+001
3016406250 -2.926063e+001 -2.758248e+001 -1.692680e+000 2.285800e+001 -8.754070e+001 -1.015276e+002 -1.912276e+001 -4.097310e+001
3017500000 -2.643417e+001 -1.259240e+001 -1.697062e+000 -4.412417e+001 -9.003725e+001 -7.707304e+001 -1.850784e+001 -3.947542e+001
3018593750 -2.434935e+001 -6.891161e-001 -1.682445e+000 -1.110658e+002 -9.383731e+001 -4.033159e+001 -1.801652e+001 -3.696627e+001
3019687500 -2.279894e+001 9.857355e+000 -1.658057e+000 -1.779873e+002 -8.477668e+001 -7.880037e+001 -1.762756e+001 -3.383137e+001
3020781250 -2.160559e+001 1.961610e+001 -1.629510e+000 1.150581e+002 -8.587572e+001 9.556019e+001 -1.740632e+001 -3.030733e+001
3021875000 -2.074022e+001 2.896934e+001 -1.621161e+000 4.807476e+001 -8.298991e+001 -2.149296e+001 -1.730630e+001 -2.651334e+001
3022968750 -2.010056e+001 3.792522e+001 -1.631564e+000 -1.902534e+001 -8.793590e+001 -4.846496e+001 -1.735619e+001 -2.265423e+001
3024062500 -1.967981e+001 4.669512e+001 -1.678586e+000 -8.612997e+001 -7.892464e+001 -1.567449e+002 -1.754792e+001 -1.870357e+001
3025156250 -1.944003e+001 5.563501e+001 -1.765155e+000 -1.530913e+002 -8.014464e+001 1.758503e+002 -1.790978e+001 -1.490241e+001
3026250000 -1.938656e+001 6.424487e+001 -1.864899e+000 1.400008e+002 -8.697902e+001 1.284722e+002 -1.841235e+001 -1.149632e+001
3027343750 -1.949975e+001 7.266178e+001 -1.984049e+000 7.322127e+001 -8.583315e+001 1.294809e+002 -1.912041e+001 -8.417975e+000
3028437500 -1.981920e+001 8.117350e+001 -2.100766e+000 6.612034e+000 -8.626024e+001 -2.888301e+001 -1.998796e+001 -6.443248e+000
3029531250 -2.034080e+001 8.940353e+001 -2.218308e+000 -5.992692e+001 -9.077534e+001 6.885760e+000 -2.104486e+001 -5.879464e+000
3030625000 -2.107599e+001 9.790810e+001 -2.319034e+000 -1.261946e+002 -7.919636e+001 7.883133e+001 -2.224646e+001 -7.105391e+000
3031718750 -2.208732e+001 1.059330e+002 -2.386721e+000 1.676662e+002 -8.705437e+001 -1.342007e+001 -2.351118e+001 -1.171677e+001
3032812500 -2.341664e+001 1.140148e+002 -2.445180e+000 1.016162e+002 -8.993816e+001 7.332727e+001 -2.457256e+001 -2.034526e+001
3033906250 -2.519848e+001 1.220435e+002 -2.461987e+000 3.561832e+001 -8.077322e+001 2.006793e+000 -2.506718e+001 -3.238746e+001
3035000000 -2.762965e+001 1.292610e+002 -2.460346e+000 -3.048911e+001 -9.853054e+001 1.324891e+002 -2.466929e+001 -4.467833e+001
3036093750 -3.130640e+001 1.357814e+002 -2.444173e+000 -9.678661e+001 -9.070520e+001 1.560088e+001 -2.366905e+001 -5.373738e+001
3037187500 -3.802213e+001 1.378864e+002 -2.435095e+000 -1.633226e+002 -8.111313e+001 1.054093e+002 -2.242719e+001 -5.878404e+001
3038281250 -4.902775e+001 2.187658e+001 -2.469671e+000 1.299228e+002 -8.735149e+001 7.838205e+001 -2.123958e+001 -6.052061e+001
3039375000 -3.528297e+001 -6.029564e+000 -2.522155e+000 6.310817e+001 -7.993119e+001 9.099619e+001 -2.019221e+001 -5.998547e+001
3040468750 -3.016596e+001 -6.652631e-001 -2.590011e+000 -3.679835e+000 -7.910576e+001 8.140825e+001 -1.933017e+001 -5.789653e+001
3041562500 -2.713729e+001 6.440742e+000 -2.657347e+000 -7.032552e+001 -8.948434e+001 5.417002e+001 -1.865838e+001 -5.468312e+001
3042656250 -2.510187e+001 1.450647e+001 -2.728332e+000 -1.369194e+002 -7.661687e+001 -7.616418e+001 -1.815600e+001 -5.085427e+001
3043750000 -2.362861e+001 2.257127e+001 -2.801824e+000 1.564094e+002 -8.634525e+001 1.583799e+002 -1.782330e+001 -4.661308e+001
3044843750 -2.257439e+001 3.113066e+001 -2.887019e+000 8.979970e+001 -8.242319e+001 1.234810e+002 -1.764566e+001 -4.216441e+001
3045937500 -2.182975e+001 3.976099e+001 -3.013649e+000 2.335461e+001 -8.208763e+001 3.214711e+001 -1.761773e+001 -3.775474e+001
3047031250 -2.132334e+001 4.862365e+001 -3.158626e+000 -4.292224e+001 -8.469980e+001 1.039961e+002 -1.777899e+001 -3.323671e+001
3048125000 -2.107446e+001 5.769954e+001 -3.326839e+000 -1.088523e+002 -8.811853e+001 -1.126233e+002 -1.809332e+001 -2.908702e+001
3049218750 -2.101332e+001 6.691354e+001 -3.483358e+000 -1.745321e+002 -8.319846e+001 4.587728e+001 -1.861685e+001 -2.515813e+001
3050312500 -2.116967e+001 7.646481e+001 -3.615434e+000 1.201626e+002 -8.504252e+001 -1.427788e+001 -1.933139e+001 -2.181714e+001
3051406250 -2.152180e+001 8.644464e+001 -3.692739e+000 5.487441e+001 -8.097990e+001 -1.241327e+002 -2.024719e+001 -1.947393e+001
3052500000 -2.205572e+001 9.698781e+001 -3.710902e+000 -1.042419e+001 -9.244031e+001 8.083245e+001 -2.138402e+001 -1.852965e+001
3053593750 -2.285401e+001 1.081339e+002 -3.662741e+000 -7.589837e+001 -8.401367e+001 1.880587e+001 -2.271703e+001 -1.970086e+001
3054687500 -2.389653e+001 1.208116e+002 -3.577185e+000 -1.417225e+002 -8.790382e+001 -1.417031e+002 -2.416222e+001 -2.471565e+001
3055781250 -2.517963e+001 1.350119e+002 -3.470319e+000 1.522197e+002 -8.865755e+001 -5.109962e+001 -2.539573e+001 -3.475755e+001
3056875000 -2.668694e+001 1.522250e+002 -3.349917e+000 8.580764e+001 -9.473199e+001 -5.318964e+001 -2.582722e+001 -4.948762e+001
3057968750 -2.831832e+001 1.743494e+002 -3.274484e+000 1.909446e+001 -9.151981e+001 -1.111522e+001 -2.516080e+001 -6.373345e+001
3059062500 -2.947082e+001 -1.575049e+002 -3.237964e+000 -4.769452e+001 -9.437244e+001 -1.460279e+002 -2.373639e+001 -7.337430e+001
3060156250 -2.944486e+001 -1.263171e+002 -3.249305e+000 -1.145258e+002 -8.260121e+001 -1.140480e+000 -2.218840e+001 -7.836178e+001
3061250000 -2.825978e+001 -9.847217e+001 -3.331867e+000 1.787625e+002 -8.212222e+001 -8.866644e+001 -2.076155e+001 -7.946803e+001
3062343750 -2.665845e+001 -7.651369e+001 -3.426802e+000 1.124111e+002 -8.026476e+001 -5.560901e+001 -1.956084e+001 -7.823998e+001
3063437500 -2.515553e+001 -5.922431e+001 -3.526963e+000 4.610231e+001 -8.623858e+001 1.682031e+001 -1.856576e+001 -7.560535e+001
3064531250 -2.382585e+001 -4.492720e+001 -3.615378e+000 -1.997840e+001 -8.345891e+001 7.229670e+001 -1.777251e+001 -7.191309e+001
3065625000 -2.278883e+001 -3.259757e+001 -3.668608e+000 -8.605260e+001 -8.171263e+001 1.531404e+002 -1.713384e+001 -6.758340e+001
3066718750 -2.199655e+001 -2.143592e+001 -3.695925e+000 -1.522783e+002 -8.307996e+001 -5.922960e+001 -1.667032e+001 -6.283812e+001
3067812500 -2.140884e+001 -1.120425e+001 -3.718218e+000 1.413629e+002 -9.651585e+001 7.128185e+001 -1.634929e+001 -5.786382e+001
3068906250 -2.103489e+001 -1.540425e+000 -3.751419e+000 7.498074e+001 -9.264252e+001 8.149961e+000 -1.615611e+001 -5.272120e+001
3070000000 -2.088293e+001 7.732889e+000 -3.799687e+000 8.615135e+000 -8.013055e+001 7.852429e+001 -1.608697e+001 -4.765058e+001
3071093750 -2.088163e+001 1.666917e+001 -3.856699e+000 -5.763950e+001 -8.872104e+001 1.796366e+002 -1.617297e+001 -4.258550e+001
3072187500 -2.109147e+001 2.526035e+001 -3.945474e+000 -1.238769e+002 -8.794699e+001 7.069376e+000 -1.640055e+001 -3.757128e+001
3073281250 -2.150043e+001 3.353617e+001 -4.046541e+000 1.700925e+002 -9.336118e+001 -1.139442e+002 -1.677510e+001 -3.277604e+001
3074375000 -2.212302e+001 4.138299e+001 -4.161443e+000 1.043452e+002 -8.285420e+001 -4.069594e+001 -1.728139e+001 -2.820828e+001
3075468750 -2.300790e+001 4.868565e+001 -4.250869e+000 3.876684e+001 -8.807610e+001 -1.727218e+002 -1.792585e+001 -2.407401e+001
3076562500 -2.423178e+001 5.551669e+001 -4.317399e+000 -2.671009e+001 -8.309347e+001 -4.727938e+001 -1.875842e+001 -2.060126e+001
3077656250 -2.582992e+001 6.147552e+001 -4.326524e+000 -9.214083e+001 -9.009531e+001 1.288487e+002 -1.975484e+001 -1.793227e+001
3078750000 -2.804342e+001 6.542500e+001 -4.291569e+000 -1.578149e+002 -7.685501e+001 1.488023e+002 -2.092248e+001 -1.676355e+001
3079843750 -3.110580e+001 6.553336e+001 -4.244843e+000 1.363689e+002 -8.855996e+001 -1.303562e+002 -2.228267e+001 -1.753038e+001
3080937500 -3.540661e+001 5.329399e+001 -4.204685e+000 7.036116e+001 -8.167251e+001 1.558454e+002 -2.376778e+001 -2.150961e+001
3082031250 -3.790129e+001 1.026965e+001 -4.167229e+000 4.292138e+000 -8.920099e+001 -9.085037e+001 -2.515014e+001 -2.955211e+001
3083125000 -3.404535e+001 -2.375428e+001 -4.134353e+000 -6.172717e+001 -7.912263e+001 4.330051e+001 -2.601577e+001 -4.188247e+001
3084218750 -3.005910e+001 -3.113606e+001 -4.101277e+000 -1.275907e+002 -8.390028e+001 5.908514e+001 -2.596443e+001 -5.611182e+001
3085312500 -2.736311e+001 -2.989300e+001 -4.058731e+000 1.665067e+002 -8.951881e+001 1.338325e+002 -2.510213e+001 -6.720532e+001
3086406250 -2.535853e+001 -2.524088e+001 -3.995411e+000 1.005016e+002 -8.554399e+001 -1.151814e+002 -2.388625e+001 -7.404713e+001
3087500000 -2.388438e+001 -1.936459e+001 -3.943540e+000 3.423394e+001 -8.847204e+001 -1.568097e+002 -2.267740e+001 -7.712464e+001
3088593750 -2.278966e+001 -1.266887e+001 -3.903782e+000 -3.209374e+001 -8.713934e+001 1.362106e+002 -2.159319e+001 -7.761970e+001
3089687500 -2.198923e+001 -5.564532e+000 -3.870934e+000 -9.864976e+001 -9.484067e+001 -6.188938e+001 -2.070168e+001 -7.656447e+001
3090781250 -2.144670e+001 1.973346e+000 -3.850266e+000 -1.653022e+002 -8.780475e+001 -6.578726e+001 -1.998473e+001 -7.456308e+001
3091875000 -2.109303e+001 9.726062e+000 -3.837003e+000 1.279920e+002 -8.380027e+001 1.685981e+002 -1.942362e+001 -7.190012e+001
3092968750 -2.095450e+001 1.753256e+001 -3.844336e+000 6.110872e+001 -8.954062e+001 -1.451900e+002 -1.901533e+001 -6.891718e+001
3094062500 -2.101469e+001 2.553419e+001 -3.889440e+000 -5.682484e+000 -9.443842e+001 1.111378e+002 -1.873760e+001 -6.589840e+001
3095156250 -2.126165e+001 3.360332e+001 -3.976008e+000 -7.236288e+001 -9.507743e+001 -8.412642e+001 -1.857500e+001 -6.282050e+001
3096250000 -2.169191e+001 4.185368e+001 -4.095740e+000 -1.387028e+002 -8.915210e+001 1.368288e+002 -1.854436e+001 -5.995144e+001
3097343750 -2.237124e+001 5.036438e+001 -4.234798e+000 1.554461e+002 -8.878035e+001 1.289000e+002 -1.859953e+001 -5.706981e+001
3098437500 -2.330952e+001 5.915335e+001 -4.338801e+000 8.993164e+001 -8.812802e+001 1.071600e+002 -1.873747e+001 -5.463363e+001
3099531250 -2.452534e+001 6.813879e+001 -4.416807e+000 2.478031e+001 -8.894337e+001 1.690566e+001 -1.894407e+001 -5.232198e+001
3100625000 -2.618278e+001 7.783885e+001 -4.423263e+000 -4.035464e+001 -9.120129e+001 1.271669e+002 -1.919965e+001 -5.054781e+001
3101718750 -2.834236e+001 8.824468e+001 -4.389992e+000 -1.057007e+002 -8.099155e+001 9.732225e+001 -1.949477e+001 -4.913808e+001
3102812500 -3.146743e+001 1.016555e+002 -4.313445e+000 -1.712246e+002 -8.795615e+001 1.629512e+002 -1.980011e+001 -4.829181e+001
3103906250 -3.618111e+001 1.230811e+002 -4.209395e+000 1.230747e+002 -8.706127e+001 8.783319e+001 -2.009949e+001 -4.792010e+001
3105000000 -4.182048e+001 -1.765081e+002 -4.092357e+000 5.714498e+001 -8.439715e+001 1.537926e+002 -2.039386e+001 -4.792961e+001
3106093750 -3.725408e+001 -1.087960e+002 -3.957928e+000 -9.012259e+000 -8.634345e+001 -1.356114e+002 -2.066255e+001 -4.837663e+001
3107187500 -3.243304e+001 -8.429631e+001 -3.822657e+000 -7.541644e+001 -8.860703e+001 -1.076851e+002 -2.090666e+001 -4.891619e+001
3108281250 -2.935433e+001 -6.990367e+001 -3.687506e+000 -1.420735e+002 -8.262887e+001 4.470360e+001 -2.110367e+001 -4.963606e+001
3109375000 -2.728162e+001 -5.887063e+001 -3.575457e+000 1.512132e+002 -8.642422e+001 -4.258734e+000 -2.129037e+001 -5.037665e+001
3110468750 -2.577002e+001 -4.917599e+001 -3.488482e+000 8.431959e+001 -8.462756e+001 1.635401e+002 -2.145994e+001 -5.105379e+001
3111562500 -2.468963e+001 -4.012511e+001 -3.436787e+000 1.730870e+001 -8.396598e+001 -1.994129e+001 -2.160176e+001 -5.154129e+001
3112656250 -2.396264e+001 -3.150473e+001 -3.410324e+000 -4.981938e+001 -8.465604e+001 -1.625645e+002 -2.177076e+001 -5.207543e+001
3113750000 -2.350231e+001 -2.319789e+001 -3.432687e+000 -1.170816e+002 -8.548644e+001 -3.354099e+000 -2.196599e+001 -5.248871e+001
3114843750 -2.331151e+001 -1.502199e+001 -3.499711e+000 1.758138e+002 -8.492122e+001 -4.862179e+001 -2.218923e+001 -5.320814e+001
3115937500 -2.332624e+001 -7.140705e+000 -3.615695e+000 1.086936e+002 -7.855300e+001 -6.189942e+001 -2.242146e+001 -5.405648e+001
3117031250 -2.359238e+001 7.639409e-001 -3.775005e+000 4.187536e+001 -8.185831e+001 -1.733362e+002 -2.267376e+001 -5.538372e+001
3118125000 -2.409461e+001 8.364514e+000 -3.944627e+000 -2.446633e+001 -8.956344e+001 -1.157683e+002 -2.290202e+001 -5.722787e+001
3119218750 -2.485852e+001 1.575575e+001 -4.078893e+000 -9.040225e+001 -9.683026e+001 -9.476057e+001 -2.311092e+001 -5.951825e+001
3120312500 -2.594972e+001 2.269658e+001 -4.196770e+000 -1.560057e+002 -7.946290e+001 -1.585105e+002 -2.324466e+001 -6.246056e+001
3121406250 -2.745649e+001 2.912813e+001 -4.239178e+000 1.386278e+002 -9.598244e+001 -5.825080e-001 -2.327345e+001 -6.574338e+001
3122500000 -2.953773e+001 3.459071e+001 -4.255727e+000 7.312975e+001 -8.252531e+001 -1.682978e+002 -2.314123e+001 -6.875907e+001
3123593750 -3.248860e+001 3.741706e+001 -4.239344e+000 7.656767e+000 -8.537840e+001 -2.771793e+001 -2.290160e+001 -7.151926e+001
3124687500 -3.729089e+001 3.249127e+001 -4.191582e+000 -5.793830e+001 -8.494670e+001 2.981175e+001 -2.256481e+001 -7.339526e+001
3125781250 -4.346315e+001 -1.126834e+001 -4.137931e+000 -1.237786e+002 -8.050349e+001 -1.888553e+001 -2.216851e+001 -7.450295e+001
3126875000 -3.854504e+001 -6.875513e+001 -4.060268e+000 1.702490e+002 -8.061298e+001 3.211263e+001 -2.176378e+001 -7.468264e+001
3127968750 -3.332579e+001 -7.757028e+001 -3.973303e+000 1.040431e+002 -8.818738e+001 -1.633179e+002 -2.133000e+001 -7.389003e+001
3129062500 -3.004346e+001 -7.531998e+001 -3.890481e+000 3.759881e+001 -9.406184e+001 1.287214e+002 -2.099365e+001 -7.250800e+001
3130156250 -2.781059e+001 -7.044153e+001 -3.828013e+000 -2.909401e+001 -8.169402e+001 1.442148e+002 -2.070396e+001 -7.012058e+001
3131250000 -2.618626e+001 -6.429314e+001 -3.782030e+000 -9.573478e+001 -7.889285e+001 8.603999e+001 -2.051289e+001 -6.752497e+001
3132343750 -2.500930e+001 -5.799751e+001 -3.758056e+000 -1.623976e+002 -9.201414e+001 -1.077674e+002 -2.043777e+001 -6.445146e+001
3133437500 -2.414833e+001 -5.115895e+001 -3.751926e+000 1.309353e+002 -8.077779e+001 1.494851e+002 -2.047593e+001 -6.103936e+001
3134531250 -2.357435e+001 -4.401531e+001 -3.757294e+000 6.437693e+001 -8.483871e+001 -1.462562e+002 -2.066388e+001 -5.744244e+001
3135625000 -2.324196e+001 -3.677312e+001 -3.777449e+000 -2.078375e+000 -8.661774e+001 9.485691e+001 -2.101621e+001 -5.377518e+001
3136718750 -2.315970e+001 -2.980720e+001 -3.825042e+000 -6.840951e+001 -8.224448e+001 -1.176953e+002 -2.151176e+001 -5.002707e+001
3137812500 -2.323657e+001 -2.269406e+001 -3.868447e+000 -1.345322e+002 -9.241081e+001 2.145991e+001 -2.220634e+001 -4.660808e+001
3138906250 -2.355052e+001 -1.573861e+001 -3.905092e+000 1.593255e+002 -9.191530e+001 1.203206e+002 -2.311169e+001 -4.351596e+001
3140000000 -2.410901e+001 -8.978452e+000 -3.904643e+000 9.331899e+001 -8.455941e+001 1.148212e+002 -2.428097e+001 -4.149509e+001
3141093750 -2.493725e+001 -2.485818e+000 -3.898138e+000 2.715967e+001 -8.363478e+001 -1.496043e+001 -2.575818e+001 -4.080930e+001
3142187500 -2.607465e+001 3.447218e+000 -3.870186e+000 -3.902620e+001 -8.039211e+001 6.513367e+001 -2.757122e+001 -4.317056e+001
3143281250 -2.764215e+001 8.538013e+000 -3.846288e+000 -1.054286e+002 -9.024281e+001 -7.749736e+001 -2.969121e+001 -5.138898e+001
3144375000 -2.977480e+001 1.197681e+001 -3.828311e+000 -1.718108e+002 -8.404935e+001 1.605659e+002 -3.145233e+001 -6.853929e+001
3145468750 -3.282682e+001 1.149852e+001 -3.817495e+000 1.217672e+002 -9.922590e+001 -3.785460e+001 -3.148558e+001 -9.203420e+001
3146562500 -3.705938e+001 -1.425850e+000 -3.799521e+000 5.547720e+001 -8.530756e+001 -3.471443e+000 -2.970404e+001 -1.103118e+002
3147656250 -3.964017e+001 -4.534389e+001 -3.794316e+000 -1.092367e+001 -9.142600e+001 2.755793e+001 -2.755646e+001 -1.190113e+002
3148750000 -3.576792e+001 -8.004873e+001 -3.781902e+000 -7.724709e+001 -7.956100e+001 5.866731e+001 -2.559706e+001 -1.215172e+002
3149843750 -3.172743e+001 -8.786932e+001 -3.798079e+000 -1.436818e+002 -9.245257e+001 1.181695e+002 -2.406215e+001 -1.206283e+002
3150937500 -2.897285e+001 -8.711279e+001 -3.846255e+000 1.500136e+002 -9.477312e+001 1.067657e+002 -2.283582e+001 -1.179650e+002
3152031250 -2.693546e+001 -8.328352e+001 -3.896619e+000 8.394707e+001 -8.743701e+001 -5.839851e+001 -2.187011e+001 -1.143866e+002
3153125000 -2.540867e+001 -7.779848e+001 -3.919898e+000 1.797354e+001 -9.221314e+001 2.428598e+001 -2.110726e+001 -1.100385e+002
3154218750 -2.430696e+001 -7.152808e+001 -3.918088e+000 -4.778766e+001 -9.010674e+001 8.168000e+001 -2.054650e+001 -1.053773e+002
3155312500 -2.347377e+001 -6.490049e+001 -3.865103e+000 -1.136675e+002 -8.513229e+001 -1.038861e+002 -2.020084e+001 -1.006891e+002
3156406250 -2.289081e+001 -5.778255e+001 -3.790625e+000 -1.797529e+002 -8.797820e+001 1.142339e+002 -2.000639e+001 -9.588700e+001
3157500000 -2.251610e+001 -5.073190e+001 -3.685438e+000 1.139472e+002 -8.676985e+001 9.055024e+001 -2.000684e+001 -9.124648e+001
3158593750 -2.236412e+001 -4.352949e+001 -3.581496e+000 4.754769e+001 -8.032655e+001 1.498652e+002 -2.014865e+001 -8.678468e+001
3159687500 -2.239070e+001 -3.621291e+001 -3.497705e+000 -1.889227e+001 -8.671491e+001 -1.333194e+002 -2.049079e+001 -8.282587e+001
3160781250 -2.258714e+001 -2.888278e+001 -3.421158e+000 -8.543183e+001 -8.896152e+001 -1.025290e+002 -2.101971e+001 -7.918340e+001
3161875000 -2.301498e+001 -2.132421e+001 -3.334084e+000 -1.519942e+002 -7.978933e+001 -1.261658e+001 -2.167874e+001 -7.649091e+001
3162968750 -2.362727e+001 -1.364191e+001 -3.251310e+000 1.413083e+002 -8.690646e+001 6.857056e+001 -2.251259e+001 -7.512098e+001
3164062500 -2.452272e+001 -6.250240e+000 -3.182886e+000 7.437278e+001 -8.892388e+001 -1.875849e+001 -2.347010e+001 -7.553753e+001
