!Agilent Technologies,E8363B,MY43030572,A.06.04.32
!Agilent E8363B: A.06.04.32
!Date: Tuesday, June 07, 2011 08:14:37
!Correction: S11(Full 2 Port(1,2)) S21(Full 2 Port(1,2)) S12(Full 2 Port(1,2)) S22(Full 2 Port(1,2)) 
!S2P File: Measurements: S11, S21, S12, S22:
# Hz S  dB   R 50
3000000000 -2.127765e+001 5.655973e+001 -5.308272e-001 -6.521033e+001 -1.040298e+002 5.687817e+001 -1.675662e+001 -2.048288e+001
3001093750 -2.082286e+001 6.486031e+001 -1.392259e+000 -1.347677e+002 -8.595507e+001 2.043359e+001 -1.696308e+001 -1.739911e+001
3002187500 -2.056825e+001 7.354214e+001 -1.379542e+000 1.589095e+002 -7.820864e+001 -6.563829e+001 -1.722967e+001 -1.398143e+001
3003281250 -2.052328e+001 8.233823e+001 -1.358605e+000 9.241156e+001 -8.108244e+001 1.298679e+002 -1.763864e+001 -1.101685e+001
3004375000 -2.067156e+001 9.125439e+001 -1.334335e+000 2.577969e+001 -8.558239e+001 7.064259e+001 -1.817544e+001 -8.675067e+000
3005468750 -2.100333e+001 1.001727e+002 -1.313188e+000 -4.100058e+001 -8.244664e+001 2.876577e+001 -1.881532e+001 -7.332665e+000
3006562500 -2.158143e+001 1.092698e+002 -1.305672e+000 -1.077583e+002 -9.166292e+001 1.147140e+002 -1.956091e+001 -7.124084e+000
3007656250 -2.243204e+001 1.185920e+002 -1.312600e+000 -1.745311e+002 -8.255375e+001 -3.076641e+001 -2.034089e+001 -8.578392e+000
3008750000 -2.357862e+001 1.283984e+002 -1.345230e+000 1.186975e+002 -8.696239e+001 -1.610896e+002 -2.109694e+001 -1.191496e+001
3009843750 -2.518245e+001 1.390825e+002 -1.391063e+000 5.193515e+001 -8.524343e+001 -8.486185e+001 -2.165407e+001 -1.706560e+001
3010937500 -2.734812e+001 1.513618e+002 -1.455430e+000 -1.475709e+001 -8.472009e+001 3.455602e+001 -2.190646e+001 -2.351551e+001
3012031250 -3.040064e+001 1.676701e+002 -1.521331e+000 -8.135770e+001 -7.939006e+001 1.215071e+002 -2.175384e+001 -2.998591e+001
3013125000 -3.480283e+001 -1.642453e+002 -1.599981e+000 -1.479346e+002 -8.176920e+001 5.619545e+001 -2.125222e+001 -3.540802e+001
3014218750 -3.753234e+001 -1.017015e+002 -1.706699e+000 1.455804e+002 -8.498074e+001 4.517458e+001 -2.056453e+001 -3.889535e+001
3015312500 -3.327699e+001 -4.984424e+001 -1.794767e+000 7.918212e+001 -8.590923e+001 1.411713e+002 -1.981849e+001 -4.045393e+001
3016406250 -2.913375e+001 -2.691496e+001 -1.873512e+000 1.295249e+001 -8.870232e+001 -5.207006e+001 -1.910210e+001 -4.038994e+001
3017500000 -2.633039e+001 -1.227446e+001 -1.940920e+000 -5.310085e+001 -8.393746e+001 -1.097245e+002 -1.849620e+001 -3.905135e+001
3018593750 -2.426732e+001 -4.981637e-001 -1.958649e+000 -1.191244e+002 -8.466879e+001 2.227647e+001 -1.800944e+001 -3.664436e+001
3019687500 -2.270915e+001 9.784398e+000 -1.954698e+000 1.748133e+002 -8.703428e+001 -1.279142e+002 -1.763357e+001 -3.356159e+001
3020781250 -2.154685e+001 1.953625e+001 -1.934436e+000 1.086634e+002 -8.411313e+001 -7.206125e+001 -1.740705e+001 -3.010707e+001
3021875000 -2.067409e+001 2.884391e+001 -1.905251e+000 4.233725e+001 -8.302425e+001 -1.744311e+002 -1.732305e+001 -2.624282e+001
3022968750 -2.005467e+001 3.771780e+001 -1.885482e+000 -2.419870e+001 -8.759906e+001 -1.057431e+002 -1.737189e+001 -2.230537e+001
3024062500 -1.961970e+001 4.640803e+001 -1.888745e+000 -9.085107e+001 -1.004090e+002 -1.190674e+002 -1.755661e+001 -1.825352e+001
3025156250 -1.940459e+001 5.521797e+001 -1.933346e+000 -1.575361e+002 -8.757384e+001 -6.831370e+001 -1.789990e+001 -1.442436e+001
3026250000 -1.935274e+001 6.378033e+001 -1.982007e+000 1.358608e+002 -8.661484e+001 8.175768e+001 -1.838105e+001 -1.092277e+001
3027343750 -1.948128e+001 7.220127e+001 -2.053535e+000 6.934495e+001 -8.148201e+001 1.866317e+001 -1.907087e+001 -8.065069e+000
3028437500 -1.980938e+001 8.070017e+001 -2.118655e+000 3.025315e+000 -8.642146e+001 -5.372932e+001 -1.991295e+001 -6.131617e+000
3029531250 -2.034542e+001 8.890828e+001 -2.186847e+000 -6.324593e+001 -8.918060e+001 -4.626733e+001 -2.095061e+001 -5.695777e+000
3030625000 -2.108130e+001 9.725717e+001 -2.238658e+000 -1.293456e+002 -7.919641e+001 -5.274356e+001 -2.216190e+001 -7.121762e+000
3031718750 -2.209795e+001 1.053795e+002 -2.264977e+000 1.647057e+002 -8.719804e+001 -1.536623e+002 -2.343786e+001 -1.151987e+001
3032812500 -2.344574e+001 1.134110e+002 -2.270419e+000 9.873023e+001 -8.452798e+001 -9.188641e+001 -2.455745e+001 -1.992194e+001
3033906250 -2.524114e+001 1.212654e+002 -2.254491e+000 3.283374e+001 -8.665368e+001 -8.606470e+001 -2.508856e+001 -3.168780e+001
3035000000 -2.772046e+001 1.284930e+002 -2.204622e+000 -3.323895e+001 -9.388969e+001 1.507490e+002 -2.471600e+001 -4.381215e+001
3036093750 -3.148704e+001 1.347358e+002 -2.123553e+000 -9.948266e+001 -8.810474e+001 8.752160e+000 -2.373405e+001 -5.275547e+001
3037187500 -3.843267e+001 1.358987e+002 -2.039168e+000 -1.662000e+002 -9.044849e+001 2.816567e+001 -2.249291e+001 -5.781080e+001
3038281250 -4.762596e+001 1.778938e+001 -1.967825e+000 1.268615e+002 -9.249538e+001 3.118829e+001 -2.127816e+001 -5.963937e+001
3039375000 -3.490352e+001 -5.696026e+000 -1.910100e+000 5.958371e+001 -8.453828e+001 7.582543e+001 -2.021382e+001 -5.921962e+001
3040468750 -2.998269e+001 -7.842848e-001 -1.898182e+000 -7.868671e+000 -8.533367e+001 1.456779e+002 -1.933286e+001 -5.726498e+001
3041562500 -2.699258e+001 6.351229e+000 -1.905684e+000 -7.535371e+001 -8.607874e+001 -4.423256e+001 -1.866579e+001 -5.421913e+001
3042656250 -2.497855e+001 1.415486e+001 -1.973522e+000 -1.428576e+002 -8.393525e+001 1.065178e+002 -1.815111e+001 -5.046877e+001
3043750000 -2.355014e+001 2.214863e+001 -2.093494e+000 1.496491e+002 -8.239001e+001 1.627029e+002 -1.782601e+001 -4.640046e+001
3044843750 -2.251662e+001 3.065979e+001 -2.246932e+000 8.222982e+001 -9.108477e+001 -1.516512e+002 -1.766048e+001 -4.198212e+001
3045937500 -2.177142e+001 3.937058e+001 -2.460126e+000 1.516036e+001 -8.633514e+001 1.272467e+002 -1.764536e+001 -3.747995e+001
3047031250 -2.128469e+001 4.821753e+001 -2.725392e+000 -5.166803e+001 -9.180950e+001 1.651535e+002 -1.778954e+001 -3.294661e+001
3048125000 -2.104929e+001 5.716598e+001 -3.015972e+000 -1.180521e+002 -8.012939e+001 -9.818629e+001 -1.811172e+001 -2.872002e+001
3049218750 -2.099636e+001 6.641032e+001 -3.281150e+000 1.759637e+002 -8.337137e+001 -1.424315e+002 -1.860852e+001 -2.456217e+001
3050312500 -2.115616e+001 7.590987e+001 -3.517892e+000 1.104537e+002 -8.387408e+001 1.296878e+002 -1.929313e+001 -2.124903e+001
3051406250 -2.152462e+001 8.583773e+001 -3.690464e+000 4.504052e+001 -8.990483e+001 1.625557e+002 -2.017149e+001 -1.893093e+001
3052500000 -2.208853e+001 9.645609e+001 -3.802904e+000 -2.018524e+001 -8.072243e+001 1.499505e+001 -2.129071e+001 -1.803842e+001
3053593750 -2.290625e+001 1.077138e+002 -3.859591e+000 -8.543345e+001 -8.180877e+001 5.869122e+001 -2.261531e+001 -1.927679e+001
3054687500 -2.394882e+001 1.203472e+002 -3.856067e+000 -1.510187e+002 -8.460789e+001 3.407697e+001 -2.408030e+001 -2.439370e+001
3055781250 -2.528949e+001 1.347047e+002 -3.837647e+000 1.433687e+002 -8.372779e+001 -1.509543e+002 -2.533860e+001 -3.436903e+001
3056875000 -2.683003e+001 1.521445e+002 -3.806751e+000 7.744341e+001 -8.283291e+001 1.670939e+002 -2.583963e+001 -4.877479e+001
3057968750 -2.845107e+001 1.745899e+002 -3.812434e+000 1.121442e+001 -8.028708e+001 -9.110735e+001 -2.522463e+001 -6.327157e+001
3059062500 -2.961613e+001 -1.566776e+002 -3.837531e+000 -5.504952e+001 -8.711938e+001 4.269777e+000 -2.383374e+001 -7.284647e+001
3060156250 -2.946400e+001 -1.251558e+002 -3.912867e+000 -1.214606e+002 -1.062427e+002 -5.217743e+001 -2.228138e+001 -7.777149e+001
3061250000 -2.820041e+001 -9.750251e+001 -4.017265e+000 1.720819e+002 -8.911726e+001 -4.538787e+001 -2.084152e+001 -7.892306e+001
3062343750 -2.658696e+001 -7.585276e+001 -4.142575e+000 1.059883e+002 -8.145406e+001 1.186757e+002 -1.961931e+001 -7.759198e+001
3063437500 -2.505069e+001 -5.872952e+001 -4.256820e+000 3.987370e+001 -8.027618e+001 -8.304977e+001 -1.859045e+001 -7.499527e+001
3064531250 -2.372455e+001 -4.465612e+001 -4.357351e+000 -2.606316e+001 -9.098415e+001 1.696058e+002 -1.778134e+001 -7.144486e+001
3065625000 -2.270150e+001 -3.265247e+001 -4.436487e+000 -9.196620e+001 -8.580741e+001 4.464103e+001 -1.713509e+001 -6.721260e+001
3066718750 -2.192321e+001 -2.161961e+001 -4.502831e+000 -1.578715e+002 -8.285979e+001 -1.357741e+001 -1.666369e+001 -6.260044e+001
3067812500 -2.134362e+001 -1.135968e+001 -4.576582e+000 1.362506e+002 -9.016155e+001 -6.491260e+001 -1.634358e+001 -5.767585e+001
3068906250 -2.097228e+001 -1.767555e+000 -4.668922e+000 7.049100e+001 -8.161284e+001 6.506290e+000 -1.616315e+001 -5.259657e+001
3070000000 -2.081873e+001 7.554976e+000 -4.781644e+000 5.004938e+000 -8.985487e+001 -8.133044e+001 -1.610808e+001 -4.748885e+001
3071093750 -2.084311e+001 1.632849e+001 -4.878609e+000 -6.024559e+001 -9.114832e+001 -1.352579e+002 -1.618673e+001 -4.229902e+001
3072187500 -2.104334e+001 2.479056e+001 -4.966991e+000 -1.253431e+002 -9.295081e+001 -9.778358e+001 -1.640288e+001 -3.716800e+001
3073281250 -2.145301e+001 3.302116e+001 -5.003450e+000 1.697753e+002 -8.105939e+001 1.329580e+002 -1.675459e+001 -3.228616e+001
3074375000 -2.209798e+001 4.088781e+001 -4.981569e+000 1.048369e+002 -8.553952e+001 1.465371e+002 -1.723625e+001 -2.775583e+001
3075468750 -2.299278e+001 4.816834e+001 -4.890584e+000 3.967653e+001 -7.987912e+001 6.135596e+001 -1.787407e+001 -2.368727e+001
3076562500 -2.423628e+001 5.488381e+001 -4.735433e+000 -2.591799e+001 -7.978556e+001 1.086807e+001 -1.868200e+001 -2.025286e+001
3077656250 -2.584006e+001 6.071613e+001 -4.561466e+000 -9.197847e+001 -8.233882e+001 1.468980e+002 -1.967221e+001 -1.769459e+001
3078750000 -2.806911e+001 6.431150e+001 -4.390770e+000 -1.586473e+002 -8.569141e+001 -1.733668e+002 -2.086387e+001 -1.647322e+001
3079843750 -3.116041e+001 6.405502e+001 -4.291507e+000 1.344170e+002 -8.756452e+001 1.696048e+002 -2.223991e+001 -1.728565e+001
3080937500 -3.539560e+001 5.087275e+001 -4.267283e+000 6.746272e+001 -8.127898e+001 5.714634e+001 -2.373062e+001 -2.096172e+001
3082031250 -3.758740e+001 7.452169e+000 -4.305984e+000 6.183525e-001 -8.195834e+001 -4.366172e+000 -2.514265e+001 -2.887654e+001
3083125000 -3.373745e+001 -2.455055e+001 -4.392704e+000 -6.583800e+001 -9.374982e+001 1.523378e+002 -2.603220e+001 -4.101552e+001
3084218750 -2.988199e+001 -3.137598e+001 -4.511601e+000 -1.319639e+002 -8.786849e+001 8.344780e+001 -2.602632e+001 -5.484751e+001
3085312500 -2.721251e+001 -3.023318e+001 -4.617531e+000 1.620449e+002 -8.907188e+001 1.304914e+002 -2.516120e+001 -6.615891e+001
3086406250 -2.526083e+001 -2.551155e+001 -4.710252e+000 9.629339e+001 -9.267773e+001 2.985419e+000 -2.394412e+001 -7.300947e+001
3087500000 -2.378718e+001 -1.970058e+001 -4.790116e+000 3.038391e+001 -8.555733e+001 9.772614e+001 -2.269637e+001 -7.623896e+001
3088593750 -2.272470e+001 -1.291715e+001 -4.852885e+000 -3.531187e+001 -9.451251e+001 -3.339533e+000 -2.159971e+001 -7.693476e+001
3089687500 -2.193748e+001 -5.846283e+000 -4.897531e+000 -1.011005e+002 -8.052814e+001 -1.423674e+001 -2.069720e+001 -7.596470e+001
3090781250 -2.139008e+001 1.666216e+000 -4.892663e+000 -1.668396e+002 -8.091003e+001 -1.053149e+002 -1.998722e+001 -7.423207e+001
3091875000 -2.106054e+001 9.296128e+000 -4.859928e+000 1.274535e+002 -1.118882e+002 -1.494293e+002 -1.942282e+001 -7.157668e+001
3092968750 -2.093704e+001 1.714839e+001 -4.802446e+000 6.149688e+001 -8.176683e+001 7.403210e+001 -1.902466e+001 -6.865485e+001
3094062500 -2.100701e+001 2.505644e+001 -4.743054e+000 -4.501439e+000 -8.566682e+001 -3.513332e+001 -1.875877e+001 -6.553868e+001
3095156250 -2.125497e+001 3.314264e+001 -4.718074e+000 -7.062739e+001 -8.190076e+001 -5.884861e+000 -1.859006e+001 -6.240403e+001
3096250000 -2.171395e+001 4.141256e+001 -4.719547e+000 -1.366623e+002 -8.337371e+001 9.951723e+001 -1.854688e+001 -5.944567e+001
3097343750 -2.240192e+001 4.985606e+001 -4.748994e+000 1.572980e+002 -9.254589e+001 -5.835918e+001 -1.860209e+001 -5.649281e+001
3098437500 -2.334100e+001 5.853556e+001 -4.783397e+000 9.136040e+001 -8.602570e+001 -1.628399e+002 -1.872491e+001 -5.406828e+001
3099531250 -2.458539e+001 6.762354e+001 -4.826973e+000 2.543730e+001 -8.185481e+001 -3.976068e+001 -1.893455e+001 -5.178152e+001
3100625000 -2.625550e+001 7.714822e+001 -4.863585e+000 -4.047019e+001 -8.093571e+001 2.988093e+001 -1.917475e+001 -5.003645e+001
3101718750 -2.849158e+001 8.761215e+001 -4.931586e+000 -1.064025e+002 -8.453174e+001 1.341916e+002 -1.945488e+001 -4.870883e+001
3102812500 -3.170673e+001 1.010117e+002 -4.975873e+000 -1.720549e+002 -1.071745e+002 -1.059184e+002 -1.978141e+001 -4.787772e+001
3103906250 -3.656118e+001 1.234877e+002 -5.003093e+000 1.225486e+002 -1.056791e+002 4.849597e+001 -2.007761e+001 -4.749786e+001
3105000000 -4.213178e+001 -1.714693e+002 -4.982088e+000 5.744751e+001 -8.273858e+001 -1.508996e+002 -2.037541e+001 -4.752141e+001
3106093750 -3.698453e+001 -1.060311e+002 -4.901596e+000 -7.533365e+000 -9.194917e+001 1.137839e+002 -2.066565e+001 -4.793364e+001
3107187500 -3.218142e+001 -8.367668e+001 -4.754514e+000 -7.265234e+001 -8.531476e+001 -1.283020e+002 -2.089498e+001 -4.839209e+001
3108281250 -2.918275e+001 -6.964783e+001 -4.559175e+000 -1.381391e+002 -8.385072e+001 2.242976e+001 -2.111601e+001 -4.919138e+001
3109375000 -2.714352e+001 -5.888844e+001 -4.361168e+000 1.560334e+002 -8.425353e+001 9.251912e+001 -2.128596e+001 -4.973736e+001
3110468750 -2.565347e+001 -4.933957e+001 -4.178618e+000 8.981957e+001 -8.279183e+001 -1.336477e+002 -2.144059e+001 -5.039059e+001
3111562500 -2.460325e+001 -4.040057e+001 -4.024272e+000 2.322068e+001 -8.438078e+001 9.946441e+000 -2.158886e+001 -5.089996e+001
3112656250 -2.389497e+001 -3.189844e+001 -3.897544e+000 -4.362580e+001 -8.909317e+001 -1.798771e+002 -2.173153e+001 -5.140241e+001
3113750000 -2.345271e+001 -2.356071e+001 -3.820645e+000 -1.105928e+002 -8.677398e+001 1.016025e+002 -2.192727e+001 -5.184095e+001
3114843750 -2.327737e+001 -1.550547e+001 -3.759551e+000 -1.775769e+002 -9.206368e+001 -1.227016e+002 -2.213014e+001 -5.261786e+001
3115937500 -2.329390e+001 -7.567892e+000 -3.731487e+000 1.154362e+002 -9.309433e+001 -5.213634e+001 -2.236788e+001 -5.351120e+001
3117031250 -2.357219e+001 2.810184e-001 -3.736097e+000 4.863691e+001 -9.226637e+001 -4.497383e+001 -2.264228e+001 -5.493092e+001
3118125000 -2.405358e+001 7.689020e+000 -3.743872e+000 -1.801342e+001 -9.497385e+001 -8.679926e+000 -2.287237e+001 -5.673216e+001
3119218750 -2.484346e+001 1.498845e+001 -3.749770e+000 -8.434108e+001 -1.071938e+002 -1.014791e+002 -2.310926e+001 -5.890146e+001
3120312500 -2.595317e+001 2.187375e+001 -3.768607e+000 -1.505533e+002 -8.164839e+001 1.216848e+002 -2.326574e+001 -6.176461e+001
3121406250 -2.748754e+001 2.804637e+001 -3.756203e+000 1.433588e+002 -7.918821e+001 -9.527230e+001 -2.328909e+001 -6.490048e+001
3122500000 -2.960610e+001 3.357484e+001 -3.748636e+000 7.720259e+001 -8.368265e+001 -1.763930e+002 -2.316199e+001 -6.790542e+001
3123593750 -3.258764e+001 3.573493e+001 -3.736287e+000 1.113125e+001 -8.737742e+001 -1.029192e+002 -2.291973e+001 -7.054901e+001
3124687500 -3.733651e+001 2.994171e+001 -3.700926e+000 -5.503933e+001 -8.302162e+001 3.511378e+001 -2.257284e+001 -7.250009e+001
3125781250 -4.294456e+001 -1.750108e+001 -3.659283e+000 -1.212962e+002 -7.968144e+001 5.238123e+001 -2.213428e+001 -7.365764e+001
3126875000 -3.808887e+001 -6.933027e+001 -3.600995e+000 1.723476e+002 -1.045309e+002 1.347964e+002 -2.172758e+001 -7.391023e+001
3127968750 -3.304468e+001 -7.762215e+001 -3.523830e+000 1.058371e+002 -8.069926e+001 -6.491990e+001 -2.130667e+001 -7.335953e+001
3129062500 -2.987606e+001 -7.525876e+001 -3.455277e+000 3.926288e+001 -8.575793e+001 -1.380558e+002 -2.096453e+001 -7.200237e+001
3130156250 -2.766349e+001 -7.040192e+001 -3.395640e+000 -2.742537e+001 -8.489967e+001 7.737835e-001 -2.068495e+001 -6.975056e+001
3131250000 -2.606266e+001 -6.458047e+001 -3.341968e+000 -9.403167e+001 -8.607082e+001 -1.209238e+002 -2.051538e+001 -6.716957e+001
3132343750 -2.492565e+001 -5.824172e+001 -3.313051e+000 -1.605860e+002 -8.227496e+001 1.376180e+002 -2.045583e+001 -6.397328e+001
3133437500 -2.409341e+001 -5.135024e+001 -3.267744e+000 1.327885e+002 -9.023353e+001 -7.173956e+001 -2.049088e+001 -6.040935e+001
3134531250 -2.352893e+001 -4.438430e+001 -3.252053e+000 6.623942e+001 -9.347131e+001 -1.219135e+002 -2.065861e+001 -5.672085e+001
3135625000 -2.318789e+001 -3.721333e+001 -3.236379e+000 -3.561896e-001 -8.902533e+001 4.408573e+001 -2.097563e+001 -5.299168e+001
3136718750 -2.311153e+001 -3.020937e+001 -3.233109e+000 -6.691234e+001 -9.010387e+001 4.755770e+001 -2.144543e+001 -4.927794e+001
3137812500 -2.321796e+001 -2.321450e+001 -3.233590e+000 -1.334722e+002 -9.214758e+001 2.322730e-001 -2.210952e+001 -4.591641e+001
3138906250 -2.352771e+001 -1.639379e+001 -3.222401e+000 1.598671e+002 -9.413626e+001 1.252986e+002 -2.300246e+001 -4.302817e+001
3140000000 -2.409289e+001 -9.582321e+000 -3.187095e+000 9.328692e+001 -8.810978e+001 9.492657e+001 -2.417647e+001 -4.110983e+001
3141093750 -2.493581e+001 -3.271147e+000 -3.149469e+000 2.651141e+001 -8.309718e+001 3.082685e+001 -2.565854e+001 -4.046892e+001
3142187500 -2.609003e+001 2.572467e+000 -3.121961e+000 -4.031885e+001 -9.609123e+001 -7.687490e+001 -2.749759e+001 -4.249530e+001
3143281250 -2.766851e+001 7.635277e+000 -3.117234e+000 -1.072360e+002 -8.351950e+001 -3.044758e+001 -2.965457e+001 -5.031553e+001
3144375000 -2.980917e+001 1.082180e+001 -3.143152e+000 -1.740391e+002 -8.790724e+001 7.421713e+001 -3.151456e+001 -6.705629e+001
3145468750 -3.287083e+001 9.555675e+000 -3.195412e+000 1.192327e+002 -9.349465e+001 8.505450e+001 -3.167241e+001 -9.012295e+001
3146562500 -3.700439e+001 -4.437344e+000 -3.266728e+000 5.273132e+001 -8.373143e+001 -1.746672e+002 -2.991161e+001 -1.085403e+002
3147656250 -3.920052e+001 -4.781480e+001 -3.330857e+000 -1.366051e+001 -9.719705e+001 -7.924797e+001 -2.771765e+001 -1.176099e+002
3148750000 -3.543163e+001 -8.040684e+001 -3.385216e+000 -8.007820e+001 -8.740613e+001 1.097120e+002 -2.570410e+001 -1.201667e+002
3149843750 -3.154624e+001 -8.799971e+001 -3.449650e+000 -1.465800e+002 -8.406336e+001 -1.312879e+002 -2.412101e+001 -1.195573e+002
3150937500 -2.883665e+001 -8.725586e+001 -3.498284e+000 1.470525e+002 -9.090324e+001 1.650944e+002 -2.286990e+001 -1.171254e+002
3152031250 -2.683066e+001 -8.349183e+001 -3.526956e+000 8.076472e+001 -8.450795e+001 -9.056947e+001 -2.188325e+001 -1.136628e+002
3153125000 -2.534078e+001 -7.799284e+001 -3.518218e+000 1.431439e+001 -9.604849e+001 1.456811e+002 -2.111035e+001 -1.095510e+002
3154218750 -2.424544e+001 -7.172845e+001 -3.504080e+000 -5.194980e+001 -8.876466e+001 -8.903657e+001 -2.058396e+001 -1.049255e+002
3155312500 -2.341556e+001 -6.523360e+001 -3.455566e+000 -1.184250e+002 -8.202341e+001 6.989561e+001 -2.023656e+001 -1.002193e+002
3156406250 -2.284560e+001 -5.828880e+001 -3.409895e+000 1.749372e+002 -8.377946e+001 -1.257100e+002 -2.004665e+001 -9.536263e+001
3157500000 -2.248817e+001 -5.119878e+001 -3.384943e+000 1.081795e+002 -8.050511e+001 5.641969e+001 -2.004456e+001 -9.063972e+001
3158593750 -2.233922e+001 -4.392981e+001 -3.389124e+000 4.134850e+001 -9.006029e+001 -3.516459e+001 -2.019417e+001 -8.612531e+001
3159687500 -2.236937e+001 -3.665493e+001 -3.448678e+000 -2.529969e+001 -8.766171e+001 1.052121e+002 -2.051271e+001 -8.201492e+001
3160781250 -2.257000e+001 -2.943809e+001 -3.527837e+000 -9.188999e+001 -8.752569e+001 -5.996804e+001 -2.102189e+001 -7.834132e+001
3161875000 -2.301638e+001 -2.185567e+001 -3.594322e+000 -1.584180e+002 -8.857841e+001 -1.564965e+002 -2.166681e+001 -7.568246e+001
3162968750 -2.363704e+001 -1.423776e+001 -3.657920e+000 1.350711e+002 -8.779841e+001 4.479140e+001 -2.247084e+001 -7.446385e+001
3164062500 -2.452345e+001 -6.888731e+000 -3.707473e+000 6.850916e+001 -9.081555e+001 7.267067e+001 -2.343818e+001 -7.503165e+001
