!Agilent Technologies,E8363B,MY43030572,A.06.04.32
!Agilent E8363B: A.06.04.32
!Date: Tuesday, June 07, 2011 08:15:35
!Correction: S11(Full 2 Port(1,2)) S21(Full 2 Port(1,2)) S12(Full 2 Port(1,2)) S22(Full 2 Port(1,2)) 
!S2P File: Measurements: S11, S21, S12, S22:
# Hz S  dB   R 50
3000000000 -2.129482e+001 5.658883e+001 -7.925035e-001 -3.959922e+001 -8.069763e+001 -8.869617e+001 -1.673206e+001 -2.069113e+001
3001093750 -2.083429e+001 6.491316e+001 -1.494025e+000 -1.088597e+002 -8.893149e+001 1.359227e+002 -1.696849e+001 -1.754832e+001
3002187500 -2.058480e+001 7.366652e+001 -1.369943e+000 -1.750644e+002 -8.279285e+001 7.737888e+001 -1.725873e+001 -1.410259e+001
3003281250 -2.052812e+001 8.241702e+001 -1.252211e+000 1.183877e+002 -8.790630e+001 -1.029060e+002 -1.766251e+001 -1.098842e+001
3004375000 -2.067871e+001 9.130388e+001 -1.138130e+000 5.157764e+001 -8.415220e+001 1.339400e+002 -1.819421e+001 -8.590357e+000
3005468750 -2.100915e+001 1.003159e+002 -1.046210e+000 -1.550742e+001 -8.488902e+001 1.642726e+002 -1.882731e+001 -7.118285e+000
3006562500 -2.158991e+001 1.093527e+002 -9.988808e-001 -8.255357e+001 -8.057404e+001 7.821900e+001 -1.955280e+001 -6.928285e+000
3007656250 -2.243397e+001 1.186756e+002 -9.743113e-001 -1.495070e+002 -8.807137e+001 1.602072e+002 -2.031691e+001 -8.356133e+000
3008750000 -2.356994e+001 1.284772e+002 -9.645336e-001 1.437074e+002 -7.972282e+001 -1.781474e+002 -2.105065e+001 -1.173502e+001
3009843750 -2.517041e+001 1.392185e+002 -9.526293e-001 7.707321e+001 -9.910328e+001 4.325208e+001 -2.160441e+001 -1.702325e+001
3010937500 -2.731786e+001 1.515656e+002 -9.391510e-001 1.044059e+001 -8.959066e+001 5.899118e+001 -2.185443e+001 -2.360575e+001
3012031250 -3.037264e+001 1.680559e+002 -9.260748e-001 -5.613478e+001 -8.741675e+001 1.778943e+002 -2.172757e+001 -3.032386e+001
3013125000 -3.471054e+001 -1.640760e+002 -9.388166e-001 -1.227564e+002 -9.097517e+001 5.400227e+001 -2.123781e+001 -3.566655e+001
3014218750 -3.751876e+001 -1.022881e+002 -9.748835e-001 1.705590e+002 -8.048137e+001 -7.768465e+001 -2.056411e+001 -3.915472e+001
3015312500 -3.328882e+001 -5.056096e+001 -1.022006e+000 1.039119e+002 -8.764133e+001 -1.345738e+002 -1.983585e+001 -4.067315e+001
3016406250 -2.920036e+001 -2.695699e+001 -1.083989e+000 3.734813e+001 -7.912753e+001 -5.523126e+001 -1.913710e+001 -4.040582e+001
3017500000 -2.637600e+001 -1.226426e+001 -1.137097e+000 -2.905593e+001 -9.286542e+001 9.957311e+000 -1.852450e+001 -3.895509e+001
3018593750 -2.427682e+001 -5.632355e-001 -1.153982e+000 -9.536584e+001 -8.212337e+001 1.483641e+001 -1.802052e+001 -3.644886e+001
3019687500 -2.273474e+001 9.828895e+000 -1.149720e+000 -1.616534e+002 -8.437141e+001 7.269659e+001 -1.762859e+001 -3.332708e+001
3020781250 -2.156470e+001 1.942795e+001 -1.111478e+000 1.320393e+002 -8.452528e+001 -1.483647e+001 -1.738736e+001 -2.991415e+001
3021875000 -2.069613e+001 2.883808e+001 -1.060719e+000 6.570695e+001 -7.864197e+001 -1.259853e+002 -1.727977e+001 -2.611613e+001
3022968750 -2.006347e+001 3.776553e+001 -9.946597e-001 -8.093088e-001 -8.093230e+001 -6.921983e+001 -1.733958e+001 -2.239947e+001
3024062500 -1.963816e+001 4.652487e+001 -9.473728e-001 -6.739610e+001 -9.517917e+001 -6.611584e+001 -1.753794e+001 -1.846593e+001
3025156250 -1.941799e+001 5.539816e+001 -9.262952e-001 -1.340087e+002 -8.515485e+001 7.938956e+000 -1.789875e+001 -1.468882e+001
3026250000 -1.935764e+001 6.385411e+001 -9.245938e-001 1.591527e+002 -7.887011e+001 -1.225684e+002 -1.842160e+001 -1.127106e+001
3027343750 -1.948207e+001 7.233605e+001 -9.507884e-001 9.243018e+001 -8.449618e+001 -1.724892e+002 -1.911261e+001 -8.127378e+000
3028437500 -1.980720e+001 8.084805e+001 -9.978309e-001 2.573092e+001 -8.395840e+001 -1.082828e+002 -1.996184e+001 -6.008494e+000
3029531250 -2.032913e+001 8.904296e+001 -1.051023e+000 -4.092097e+001 -8.027673e+001 -1.745135e+002 -2.100086e+001 -5.359826e+000
3030625000 -2.108016e+001 9.742604e+001 -1.112994e+000 -1.073789e+002 -8.881204e+001 -5.051470e+001 -2.217599e+001 -6.479528e+000
3031718750 -2.208805e+001 1.055605e+002 -1.145017e+000 -1.737209e+002 -9.291270e+001 -4.974020e+000 -2.341800e+001 -1.109637e+001
3032812500 -2.343230e+001 1.135628e+002 -1.160050e+000 1.201132e+002 -8.571711e+001 -1.075055e+002 -2.448627e+001 -1.935317e+001
3033906250 -2.523260e+001 1.214016e+002 -1.134720e+000 5.395608e+001 -9.541894e+001 -1.609756e+002 -2.498229e+001 -3.140208e+001
3035000000 -2.769384e+001 1.286286e+002 -1.090033e+000 -1.228796e+001 -8.629166e+001 4.897419e+001 -2.463206e+001 -4.380942e+001
3036093750 -3.142321e+001 1.350357e+002 -1.027938e+000 -7.858472e+001 -9.255714e+001 9.546738e+001 -2.365892e+001 -5.296926e+001
3037187500 -3.838367e+001 1.363772e+002 -9.716398e-001 -1.451278e+002 -9.128633e+001 6.310544e+001 -2.245086e+001 -5.826447e+001
3038281250 -4.793229e+001 1.921116e+001 -9.400288e-001 1.482016e+002 -8.477916e+001 -1.518603e+002 -2.127878e+001 -6.007258e+001
3039375000 -3.503307e+001 -5.627120e+000 -9.217381e-001 8.142274e+001 -8.382584e+001 -6.742129e+001 -2.023426e+001 -5.959529e+001
3040468750 -3.002936e+001 -7.392877e-001 -9.205024e-001 1.452755e+001 -8.648779e+001 1.825321e+001 -1.936588e+001 -5.743216e+001
3041562500 -2.703611e+001 6.405085e+000 -9.228660e-001 -5.239843e+001 -7.949291e+001 -9.013705e+001 -1.869287e+001 -5.423692e+001
3042656250 -2.501792e+001 1.420065e+001 -9.220371e-001 -1.193691e+002 -9.216679e+001 -1.464100e+002 -1.818002e+001 -5.033934e+001
3043750000 -2.355796e+001 2.231650e+001 -9.437875e-001 1.735503e+002 -9.281927e+001 -5.500131e+001 -1.782345e+001 -4.610776e+001
3044843750 -2.251662e+001 3.081328e+001 -9.690929e-001 1.064458e+002 -9.281531e+001 -1.078303e+002 -1.763584e+001 -4.176048e+001
3045937500 -2.179623e+001 3.943932e+001 -1.041108e+000 3.946543e+001 -8.513737e+001 -1.493198e+002 -1.760487e+001 -3.737241e+001
3047031250 -2.130529e+001 4.833674e+001 -1.128255e+000 -2.732902e+001 -9.261050e+001 -1.270392e+002 -1.775311e+001 -3.296572e+001
3048125000 -2.105919e+001 5.724321e+001 -1.235170e+000 -9.394373e+001 -8.363183e+001 -1.050893e+002 -1.807351e+001 -2.886070e+001
3049218750 -2.099848e+001 6.658777e+001 -1.347776e+000 -1.602526e+002 -8.645668e+001 1.429938e+002 -1.860263e+001 -2.489051e+001
3050312500 -2.115399e+001 7.609587e+001 -1.450325e+000 1.337228e+002 -8.241004e+001 -6.210696e+001 -1.931529e+001 -2.154517e+001
3051406250 -2.151543e+001 8.599498e+001 -1.528589e+000 6.764737e+001 -9.021803e+001 -7.852982e+001 -2.022575e+001 -1.907853e+001
3052500000 -2.207796e+001 9.657228e+001 -1.578055e+000 1.733263e+000 -8.398067e+001 -3.869550e+001 -2.135040e+001 -1.794532e+001
3053593750 -2.289701e+001 1.078607e+002 -1.595385e+000 -6.435108e+001 -7.765813e+001 -7.079836e+001 -2.268226e+001 -1.908858e+001
3054687500 -2.394798e+001 1.204062e+002 -1.570732e+000 -1.306908e+002 -8.913566e+001 9.760849e+001 -2.411079e+001 -2.375153e+001
3055781250 -2.525649e+001 1.347085e+002 -1.542563e+000 1.628944e+002 -8.212667e+001 -8.307050e+001 -2.530031e+001 -3.365619e+001
3056875000 -2.680945e+001 1.521811e+002 -1.496961e+000 9.619372e+001 -8.370153e+001 1.764419e+002 -2.579861e+001 -4.807093e+001
3057968750 -2.842468e+001 1.743804e+002 -1.483345e+000 2.929625e+001 -9.308873e+001 -7.088066e+001 -2.516849e+001 -6.268032e+001
3059062500 -2.955529e+001 -1.568753e+002 -1.480431e+000 -3.751530e+001 -8.210326e+001 -1.572147e+002 -2.374251e+001 -7.259924e+001
3060156250 -2.948928e+001 -1.254785e+002 -1.519088e+000 -1.043812e+002 -8.165073e+001 -1.634554e+002 -2.220953e+001 -7.773325e+001
3061250000 -2.823292e+001 -9.757000e+001 -1.588483e+000 -1.711011e+002 -8.440981e+001 -9.660068e+001 -2.078706e+001 -7.912370e+001
3062343750 -2.659642e+001 -7.596091e+001 -1.669262e+000 1.225148e+002 -9.361009e+001 1.637737e+002 -1.959211e+001 -7.791042e+001
3063437500 -2.507668e+001 -5.879457e+001 -1.755032e+000 5.613917e+001 -9.174191e+001 3.373100e+001 -1.861189e+001 -7.525777e+001
3064531250 -2.376608e+001 -4.469794e+001 -1.829344e+000 -1.013444e+001 -9.365746e+001 7.013755e+000 -1.780573e+001 -7.156626e+001
3065625000 -2.272076e+001 -3.258715e+001 -1.886874e+000 -7.644611e+001 -7.952623e+001 -3.630294e+001 -1.717331e+001 -6.722384e+001
3066718750 -2.193732e+001 -2.153324e+001 -1.930932e+000 -1.428438e+002 -8.709202e+001 -8.113919e+001 -1.669894e+001 -6.246649e+001
3067812500 -2.136280e+001 -1.129115e+001 -1.977371e+000 1.506194e+002 -8.144228e+001 1.410947e+002 -1.635535e+001 -5.748592e+001
3068906250 -2.099063e+001 -1.664673e+000 -2.038999e+000 8.412479e+001 -9.748557e+001 -2.603333e+000 -1.615556e+001 -5.231635e+001
3070000000 -2.083455e+001 7.607108e+000 -2.092862e+000 1.783458e+001 -8.440301e+001 5.461454e+001 -1.607121e+001 -4.732890e+001
3071093750 -2.083878e+001 1.639464e+001 -2.130504e+000 -4.834380e+001 -8.278823e+001 -1.557345e+002 -1.616739e+001 -4.230041e+001
3072187500 -2.105733e+001 2.499364e+001 -2.156467e+000 -1.144980e+002 -8.360282e+001 1.432584e+002 -1.637316e+001 -3.734475e+001
3073281250 -2.145299e+001 3.319101e+001 -2.165514e+000 1.793856e+002 -9.548919e+001 -1.069430e+002 -1.674345e+001 -3.250881e+001
3074375000 -2.209776e+001 4.097544e+001 -2.166504e+000 1.133131e+002 -8.140543e+001 -1.365879e+002 -1.725423e+001 -2.794422e+001
3075468750 -2.298882e+001 4.833899e+001 -2.157441e+000 4.716810e+001 -8.290463e+001 1.184096e+002 -1.790874e+001 -2.380691e+001
3076562500 -2.421635e+001 5.507228e+001 -2.132857e+000 -1.910699e+001 -9.320087e+001 4.847967e+001 -1.873160e+001 -2.026889e+001
3077656250 -2.584195e+001 6.078981e+001 -2.100231e+000 -8.557431e+001 -7.898291e+001 -6.212704e+001 -1.971539e+001 -1.742738e+001
3078750000 -2.805048e+001 6.481348e+001 -2.056945e+000 -1.523410e+002 -8.224487e+001 -1.470795e+002 -2.087455e+001 -1.609989e+001
3079843750 -3.111638e+001 6.445313e+001 -2.054579e+000 1.406166e+002 -8.530567e+001 -6.613347e+001 -2.221317e+001 -1.687135e+001
3080937500 -3.535346e+001 5.112057e+001 -2.076524e+000 7.346011e+001 -8.336408e+001 1.476504e+002 -2.368310e+001 -2.068481e+001
3082031250 -3.763057e+001 8.183723e+000 -2.137014e+000 6.367954e+000 -8.399461e+001 1.023431e+002 -2.505413e+001 -2.877243e+001
3083125000 -3.380012e+001 -2.424057e+001 -2.222516e+000 -6.047899e+001 -8.421593e+001 9.838375e+001 -2.592966e+001 -4.108363e+001
3084218750 -2.992842e+001 -3.136316e+001 -2.305914e+000 -1.269610e+002 -8.740198e+001 7.461491e+001 -2.592738e+001 -5.528337e+001
3085312500 -2.724684e+001 -3.001068e+001 -2.379864e+000 1.666911e+002 -9.136289e+001 6.665932e+001 -2.508576e+001 -6.650584e+001
3086406250 -2.528329e+001 -2.527333e+001 -2.425096e+000 1.004708e+002 -8.271373e+001 1.241294e+002 -2.391020e+001 -7.331743e+001
3087500000 -2.381584e+001 -1.960787e+001 -2.471471e+000 3.409123e+001 -8.199603e+001 -1.645936e+002 -2.269551e+001 -7.673792e+001
3088593750 -2.274136e+001 -1.278078e+001 -2.490278e+000 -3.219092e+001 -8.646668e+001 -1.089996e+002 -2.163591e+001 -7.714941e+001
3089687500 -2.194806e+001 -5.732270e+000 -2.528565e+000 -9.879766e+001 -9.504088e+001 -1.487276e+002 -2.074794e+001 -7.603086e+001
3090781250 -2.140048e+001 1.694994e+000 -2.557410e+000 -1.653416e+002 -8.251663e+001 -1.027070e+001 -2.002442e+001 -7.407340e+001
3091875000 -2.106844e+001 9.406066e+000 -2.581590e+000 1.279196e+002 -8.062420e+001 -2.079840e+001 -1.943905e+001 -7.137867e+001
3092968750 -2.093490e+001 1.721227e+001 -2.600049e+000 6.090136e+001 -8.474107e+001 9.345816e+001 -1.902590e+001 -6.837843e+001
3094062500 -2.100459e+001 2.509633e+001 -2.649919e+000 -6.132729e+000 -8.952667e+001 -5.275458e+001 -1.873234e+001 -6.533389e+001
3095156250 -2.126422e+001 3.326974e+001 -2.723290e+000 -7.338328e+001 -8.528011e+001 1.560949e+001 -1.856605e+001 -6.229294e+001
3096250000 -2.169820e+001 4.149638e+001 -2.832585e+000 -1.404201e+002 -8.111499e+001 1.744352e+001 -1.852503e+001 -5.948862e+001
3097343750 -2.238434e+001 5.004953e+001 -2.986574e+000 1.527481e+002 -8.005498e+001 -2.443355e+001 -1.858126e+001 -5.666544e+001
3098437500 -2.332566e+001 5.873597e+001 -3.145949e+000 8.616534e+001 -8.837377e+001 -2.578449e+001 -1.872801e+001 -5.426724e+001
3099531250 -2.457072e+001 6.779906e+001 -3.322096e+000 1.981410e+001 -8.581774e+001 -8.337269e+001 -1.894539e+001 -5.202156e+001
3100625000 -2.624544e+001 7.731255e+001 -3.509870e+000 -4.632685e+001 -7.780048e+001 -5.382064e+001 -1.920540e+001 -5.021136e+001
3101718750 -2.845051e+001 8.778333e+001 -3.691287e+000 -1.124357e+002 -8.340411e+001 2.967331e+001 -1.949121e+001 -4.868896e+001
3102812500 -3.163724e+001 1.012314e+002 -3.876018e+000 -1.782670e+002 -8.627934e+001 -2.039657e+001 -1.980009e+001 -4.777289e+001
3103906250 -3.646619e+001 1.234858e+002 -4.042604e+000 1.161013e+002 -8.516532e+001 -1.759873e+002 -2.008683e+001 -4.725737e+001
3105000000 -4.210422e+001 -1.730726e+002 -4.164933e+000 5.063144e+001 -8.699306e+001 4.492899e+001 -2.036914e+001 -4.730614e+001
3106093750 -3.701003e+001 -1.067029e+002 -4.236916e+000 -1.470788e+001 -9.161200e+001 4.823403e+001 -2.062014e+001 -4.768961e+001
3107187500 -3.222094e+001 -8.366865e+001 -4.260545e+000 -8.019566e+001 -8.794884e+001 7.608813e+001 -2.085009e+001 -4.833863e+001
3108281250 -2.925556e+001 -6.973751e+001 -4.231344e+000 -1.458416e+002 -8.118131e+001 5.450478e+001 -2.106710e+001 -4.923980e+001
3109375000 -2.716562e+001 -5.899872e+001 -4.176613e+000 1.482891e+002 -8.514822e+001 4.981141e+001 -2.124057e+001 -4.993465e+001
3110468750 -2.567382e+001 -4.940033e+001 -4.117111e+000 8.211304e+001 -8.600340e+001 -5.455904e+001 -2.141861e+001 -5.070273e+001
3111562500 -2.462147e+001 -4.031074e+001 -4.072512e+000 1.574386e+001 -9.610607e+001 1.899727e+001 -2.158041e+001 -5.111496e+001
3112656250 -2.390802e+001 -3.179211e+001 -4.052269e+000 -5.086294e+001 -8.719358e+001 5.457285e+001 -2.176986e+001 -5.165503e+001
3113750000 -2.345599e+001 -2.345271e+001 -4.077120e+000 -1.176912e+002 -8.399203e+001 -5.392582e+001 -2.195910e+001 -5.185297e+001
3114843750 -2.327795e+001 -1.540907e+001 -4.119704e+000 1.755308e+002 -8.280650e+001 -9.023827e+001 -2.215556e+001 -5.238656e+001
3115937500 -2.330263e+001 -7.456307e+000 -4.221940e+000 1.087302e+002 -8.997481e+001 -5.275434e+000 -2.238587e+001 -5.322059e+001
3117031250 -2.357311e+001 3.096941e-001 -4.354920e+000 4.216142e+001 -8.929895e+001 2.429442e+001 -2.263558e+001 -5.453750e+001
3118125000 -2.407189e+001 7.932903e+000 -4.504958e+000 -2.410512e+001 -8.425275e+001 4.186540e+001 -2.285996e+001 -5.658356e+001
3119218750 -2.484881e+001 1.525426e+001 -4.631295e+000 -9.003878e+001 -9.698979e+001 2.109466e+001 -2.306037e+001 -5.881110e+001
3120312500 -2.595607e+001 2.209311e+001 -4.718121e+000 -1.557134e+002 -8.594269e+001 3.688038e+001 -2.319433e+001 -6.180283e+001
3121406250 -2.746887e+001 2.827726e+001 -4.763727e+000 1.386190e+002 -8.760500e+001 3.656377e+001 -2.325099e+001 -6.511888e+001
3122500000 -2.958805e+001 3.365924e+001 -4.767745e+000 7.284350e+001 -9.164102e+001 1.669088e+002 -2.312085e+001 -6.817867e+001
3123593750 -3.257790e+001 3.617537e+001 -4.764504e+000 6.971226e+000 -8.365728e+001 9.368638e+001 -2.289995e+001 -7.093486e+001
3124687500 -3.732022e+001 3.024760e+001 -4.773061e+000 -5.913705e+001 -8.423154e+001 5.576208e+001 -2.258502e+001 -7.283195e+001
3125781250 -4.308577e+001 -1.551628e+001 -4.789088e+000 -1.253210e+002 -8.061413e+001 6.982852e+001 -2.218513e+001 -7.388630e+001
3126875000 -3.812577e+001 -6.917921e+001 -4.810841e+000 1.683939e+002 -8.654137e+001 -1.526660e+002 -2.177034e+001 -7.406413e+001
3127968750 -3.312949e+001 -7.729796e+001 -4.818318e+000 1.020587e+002 -9.405053e+001 1.790852e+002 -2.134157e+001 -7.330006e+001
3129062500 -2.990850e+001 -7.528545e+001 -4.823108e+000 3.560480e+001 -8.303634e+001 1.483888e+002 -2.098837e+001 -7.180102e+001
3130156250 -2.770031e+001 -7.046911e+001 -4.832226e+000 -3.103473e+001 -9.078427e+001 1.140572e+001 -2.068159e+001 -6.942410e+001
3131250000 -2.608674e+001 -6.449073e+001 -4.849044e+000 -9.769337e+001 -8.115971e+001 -7.893285e+001 -2.047536e+001 -6.701827e+001
3132343750 -2.493816e+001 -5.812865e+001 -4.884994e+000 -1.643477e+002 -8.633567e+001 1.201801e+002 -2.040401e+001 -6.386536e+001
3133437500 -2.409330e+001 -5.141168e+001 -4.930741e+000 1.289199e+002 -9.614304e+001 -2.509263e+001 -2.042924e+001 -6.058536e+001
3134531250 -2.354435e+001 -4.432775e+001 -5.009472e+000 6.219949e+001 -8.658334e+001 -1.722621e+002 -2.062527e+001 -5.694334e+001
3135625000 -2.320545e+001 -3.712341e+001 -5.125639e+000 -4.375823e+000 -9.411530e+001 -8.542561e+001 -2.098469e+001 -5.324622e+001
3136718750 -2.311567e+001 -3.011147e+001 -5.277018e+000 -7.075755e+001 -9.113042e+001 -3.263566e+001 -2.147497e+001 -4.956893e+001
3137812500 -2.321337e+001 -2.309188e+001 -5.445068e+000 -1.369597e+002 -9.117410e+001 3.647481e+001 -2.216294e+001 -4.606269e+001
3138906250 -2.353589e+001 -1.618427e+001 -5.632849e+000 1.570647e+002 -8.574650e+001 1.530506e+002 -2.306070e+001 -4.284460e+001
3140000000 -2.409702e+001 -9.457254e+000 -5.800186e+000 9.121387e+001 -8.285285e+001 -1.602693e+002 -2.419609e+001 -4.067115e+001
3141093750 -2.493700e+001 -3.105547e+000 -5.947962e+000 2.558410e+001 -8.441694e+001 -1.551928e+002 -2.565589e+001 -3.988427e+001
3142187500 -2.607676e+001 2.737139e+000 -6.073411e+000 -3.999635e+001 -8.965719e+001 1.694823e+002 -2.746169e+001 -4.206944e+001
3143281250 -2.766839e+001 7.749382e+000 -6.157947e+000 -1.055421e+002 -8.913236e+001 -1.083255e+002 -2.952402e+001 -5.004893e+001
3144375000 -2.980497e+001 1.097714e+001 -6.231205e+000 -1.710141e+002 -8.345225e+001 2.204709e+001 -3.132210e+001 -6.667019e+001
3145468750 -3.286612e+001 1.017892e+001 -6.242410e+000 1.235369e+002 -8.143732e+001 -1.635709e+002 -3.145138e+001 -9.027795e+001
3146562500 -3.701295e+001 -3.599498e+000 -6.237053e+000 5.800861e+001 -8.300880e+001 2.052074e+001 -2.976166e+001 -1.087838e+002
3147656250 -3.928314e+001 -4.701583e+001 -6.205346e+000 -7.680025e+000 -7.800565e+001 -1.580658e+002 -2.762907e+001 -1.179632e+002
3148750000 -3.549290e+001 -8.012817e+001 -6.173767e+000 -7.355016e+001 -8.459331e+001 -2.142498e+001 -2.565915e+001 -1.207610e+002
3149843750 -3.159718e+001 -8.805846e+001 -6.180686e+000 -1.396267e+002 -7.923985e+001 -1.439174e+002 -2.414026e+001 -1.199924e+002
3150937500 -2.886480e+001 -8.733692e+001 -6.231325e+000 1.542998e+002 -8.407808e+001 9.386637e+001 -2.289821e+001 -1.174977e+002
3152031250 -2.685790e+001 -8.334031e+001 -6.311443e+000 8.836769e+001 -8.203241e+001 1.519149e+002 -2.193751e+001 -1.136884e+002
3153125000 -2.534617e+001 -7.791965e+001 -6.386395e+000 2.254544e+001 -8.875809e+001 1.393874e+002 -2.115537e+001 -1.094260e+002
3154218750 -2.424716e+001 -7.172747e+001 -6.450541e+000 -4.297520e+001 -8.293659e+001 -1.973361e+001 -2.059562e+001 -1.047032e+002
3155312500 -2.342515e+001 -6.511192e+001 -6.470947e+000 -1.084800e+002 -8.296806e+001 1.703036e+002 -2.022593e+001 -9.995480e+001
3156406250 -2.285223e+001 -5.812985e+001 -6.443513e+000 -1.741373e+002 -8.618285e+001 -1.125743e+002 -2.001027e+001 -9.518820e+001
3157500000 -2.248393e+001 -5.110262e+001 -6.391429e+000 1.199585e+002 -8.274382e+001 1.762642e+002 -2.000049e+001 -9.063853e+001
3158593750 -2.233629e+001 -4.381693e+001 -6.338263e+000 5.391083e+001 -7.863145e+001 -2.467447e+001 -2.015140e+001 -8.631170e+001
3159687500 -2.237719e+001 -3.658123e+001 -6.310475e+000 -1.213623e+001 -1.192149e+002 -2.283200e+001 -2.048565e+001 -8.224771e+001
3160781250 -2.256925e+001 -2.923109e+001 -6.305588e+000 -7.809891e+001 -8.783215e+001 -5.187376e+001 -2.102187e+001 -7.863398e+001
3161875000 -2.301122e+001 -2.176640e+001 -6.303758e+000 -1.439480e+002 -9.635367e+001 2.267045e+001 -2.169155e+001 -7.594955e+001
3162968750 -2.361981e+001 -1.409528e+001 -6.298109e+000 1.503357e+002 -9.413992e+001 -6.447868e+001 -2.251768e+001 -7.440199e+001
3164062500 -2.452155e+001 -6.805561e+000 -6.293255e+000 8.460658e+001 -8.096560e+001 9.391078e+001 -2.347314e+001 -7.483840e+001
