!Agilent Technologies,E8363B,MY43030572,A.06.04.32
!Agilent E8363B: A.06.04.32
!Date: Tuesday, June 07, 2011 08:30:34
!Correction: S11(Full 2 Port(1,2)) S21(Full 2 Port(1,2)) S12(Full 2 Port(1,2)) S22(Full 2 Port(1,2)) 
!S2P File: Measurements: S11, S21, S12, S22:
# Hz S  dB   R 50
3000000000 -2.143742e+001 5.709977e+001 -3.175127e+001 7.792211e+001 -8.729649e+001 -1.565735e+002 -1.667195e+001 -1.700789e+001
3001093750 -2.095448e+001 6.562980e+001 -3.065016e+001 4.453536e+000 -8.052344e+001 6.582137e+000 -1.686567e+001 -1.389150e+001
3002187500 -2.069110e+001 7.444376e+001 -2.938955e+001 -6.263822e+001 -8.984701e+001 -4.716323e+001 -1.709797e+001 -1.037271e+001
3003281250 -2.063022e+001 8.337904e+001 -2.884080e+001 -1.295775e+002 -9.913200e+001 3.551969e+001 -1.748199e+001 -7.353880e+000
3004375000 -2.072841e+001 9.236409e+001 -2.889663e+001 1.633822e+002 -8.249688e+001 -3.515443e+001 -1.799061e+001 -4.741842e+000
3005468750 -2.106092e+001 1.014276e+002 -2.936622e+001 9.567923e+001 -8.384967e+001 -1.219174e+002 -1.861093e+001 -3.049761e+000
3006562500 -2.162476e+001 1.106542e+002 -2.982926e+001 2.641472e+001 -8.637047e+001 2.016411e+001 -1.934053e+001 -2.532269e+000
3007656250 -2.242703e+001 1.201952e+002 -2.961469e+001 -4.653302e+001 -9.343904e+001 -1.379532e+000 -2.011456e+001 -3.598342e+000
3008750000 -2.353380e+001 1.302318e+002 -2.865055e+001 -1.238812e+002 -7.922939e+001 -1.034313e+002 -2.086334e+001 -6.521810e+000
3009843750 -2.505207e+001 1.411309e+002 -2.725512e+001 1.577112e+002 -8.839941e+001 1.400319e+002 -2.148727e+001 -1.139117e+001
3010937500 -2.711008e+001 1.536442e+002 -2.595891e+001 8.078886e+001 -8.313666e+001 -1.612933e+002 -2.180906e+001 -1.761128e+001
3012031250 -2.997612e+001 1.701052e+002 -2.525684e+001 6.468811e+000 -8.719090e+001 -6.307633e+001 -2.176397e+001 -2.443982e+001
3013125000 -3.394798e+001 -1.630289e+002 -2.520504e+001 -6.559452e+001 -9.702245e+001 -1.598768e+002 -2.131812e+001 -3.022851e+001
3014218750 -3.678614e+001 -1.077151e+002 -2.574841e+001 -1.362720e+002 -8.247722e+001 -5.050976e+001 -2.064813e+001 -3.417804e+001
3015312500 -3.341568e+001 -5.471488e+001 -2.680168e+001 1.528071e+002 -8.761308e+001 -1.234731e+001 -1.990345e+001 -3.618718e+001
3016406250 -2.946566e+001 -2.911418e+001 -2.821989e+001 7.945562e+001 -8.651616e+001 -9.741194e+001 -1.916754e+001 -3.636572e+001
3017500000 -2.661478e+001 -1.336775e+001 -2.975501e+001 3.105640e+000 -9.025854e+001 -4.826298e+001 -1.853316e+001 -3.523964e+001
3018593750 -2.450281e+001 -9.577882e-001 -3.097366e+001 -7.488863e+001 -9.084811e+001 -1.169118e+002 -1.799251e+001 -3.305846e+001
3019687500 -2.293569e+001 9.731348e+000 -3.131960e+001 -1.500991e+002 -8.576515e+001 1.200942e+002 -1.758002e+001 -3.012002e+001
3020781250 -2.175045e+001 1.965760e+001 -3.085094e+001 1.399608e+002 -8.613343e+001 -1.751400e+002 -1.732261e+001 -2.662282e+001
3021875000 -2.085207e+001 2.913178e+001 -3.016058e+001 7.262659e+001 -9.536736e+001 1.098654e+002 -1.719669e+001 -2.285664e+001
3022968750 -2.019940e+001 3.821869e+001 -2.983503e+001 5.868954e+000 -8.205703e+001 1.551514e+002 -1.721001e+001 -1.890111e+001
3024062500 -1.976071e+001 4.705984e+001 -3.033840e+001 -6.064477e+001 -8.230283e+001 1.123047e+002 -1.734460e+001 -1.483680e+001
3025156250 -1.952854e+001 5.602271e+001 -3.190878e+001 -1.264579e+002 -8.293912e+001 7.882585e+001 -1.764351e+001 -1.100558e+001
3026250000 -1.944924e+001 6.467649e+001 -3.459149e+001 1.701183e+002 -8.187595e+001 2.159049e+001 -1.808904e+001 -7.448826e+000
3027343750 -1.956150e+001 7.319563e+001 -3.806927e+001 1.101377e+002 -8.197483e+001 3.028017e+001 -1.870875e+001 -4.214402e+000
3028437500 -1.986501e+001 8.177583e+001 -4.104256e+001 5.227200e+001 -9.207975e+001 -1.370205e+002 -1.951624e+001 -1.995353e+000
3029531250 -2.038220e+001 9.014438e+001 -4.148977e+001 -1.230237e+001 -8.941232e+001 1.793233e+001 -2.049460e+001 -9.239344e-001
3030625000 -2.108729e+001 9.862330e+001 -3.904225e+001 -8.279844e+001 -8.514722e+001 -1.410967e+002 -2.164910e+001 -1.561274e+000
3031718750 -2.208071e+001 1.069118e+002 -3.522995e+001 -1.521430e+002 -8.386673e+001 -9.948047e+001 -2.291350e+001 -4.908290e+000
3032812500 -2.338783e+001 1.149917e+002 -3.185088e+001 1.401248e+002 -8.858648e+001 -1.561843e+000 -2.408926e+001 -1.198839e+001
3033906250 -2.511299e+001 1.230566e+002 -2.933311e+001 7.224287e+001 -8.821243e+001 4.337864e+001 -2.483838e+001 -2.276686e+001
3035000000 -2.750552e+001 1.305816e+002 -2.792802e+001 3.826923e+000 -8.138219e+001 1.416204e+002 -2.475693e+001 -3.514996e+001
3036093750 -3.109743e+001 1.375451e+002 -2.755031e+001 -6.504320e+001 -8.900355e+001 -1.616928e+002 -2.395546e+001 -4.528482e+001
3037187500 -3.753951e+001 1.416394e+002 -2.811663e+001 -1.341132e+002 -9.560049e+001 1.006148e+002 -2.277601e+001 -5.146135e+001
3038281250 -5.170447e+001 3.125429e+001 -2.937024e+001 1.560727e+002 -8.552015e+001 1.586814e+002 -2.152824e+001 -5.419590e+001
3039375000 -3.583927e+001 -6.282898e+000 -3.086946e+001 8.249356e+001 -7.909301e+001 -1.765452e+002 -2.042371e+001 -5.446307e+001
3040468750 -3.049016e+001 -5.411204e-001 -3.180262e+001 3.670900e+000 -9.139045e+001 1.752502e+002 -1.949148e+001 -5.287645e+001
3041562500 -2.737552e+001 6.693824e+000 -3.154054e+001 -7.751617e+001 -8.644398e+001 -2.913187e+000 -1.877654e+001 -5.011926e+001
3042656250 -2.527641e+001 1.480908e+001 -3.033243e+001 -1.541288e+002 -8.212525e+001 -1.654524e+002 -1.822105e+001 -4.662350e+001
3043750000 -2.376882e+001 2.297619e+001 -2.902974e+001 1.356657e+002 -8.438213e+001 1.071311e+002 -1.784469e+001 -4.255960e+001
3044843750 -2.271856e+001 3.167654e+001 -2.798511e+001 6.968179e+001 -8.593665e+001 -3.364381e+001 -1.763781e+001 -3.834508e+001
3045937500 -2.192564e+001 4.042250e+001 -2.727243e+001 5.089652e+000 -8.432874e+001 -1.653004e+002 -1.757597e+001 -3.381398e+001
3047031250 -2.140431e+001 4.932565e+001 -2.697208e+001 -6.074925e+001 -8.504070e+001 1.392777e+002 -1.768148e+001 -2.930284e+001
3048125000 -2.114498e+001 5.838729e+001 -2.723622e+001 -1.300228e+002 -7.953113e+001 2.305717e+001 -1.794274e+001 -2.492504e+001
3049218750 -2.105850e+001 6.765992e+001 -2.821383e+001 1.561153e+002 -8.990327e+001 -5.411459e+001 -1.838978e+001 -2.077059e+001
3050312500 -2.119708e+001 7.723223e+001 -2.968982e+001 7.745240e+001 -8.791763e+001 1.467365e+002 -1.902750e+001 -1.727854e+001
3051406250 -2.151591e+001 8.728511e+001 -3.099636e+001 -4.913583e+000 -8.635252e+001 -3.650076e+001 -1.982992e+001 -1.457093e+001
3052500000 -2.203824e+001 9.775278e+001 -3.155459e+001 -8.508289e+001 -9.844540e+001 -7.269113e+001 -2.089445e+001 -1.325772e+001
3053593750 -2.280942e+001 1.090916e+002 -3.143342e+001 -1.576253e+002 -8.316222e+001 -1.515665e+002 -2.217089e+001 -1.388822e+001
3054687500 -2.380507e+001 1.215189e+002 -3.103281e+001 1.365070e+002 -8.153670e+001 1.143109e+002 -2.361064e+001 -1.778039e+001
3055781250 -2.504812e+001 1.356382e+002 -3.080927e+001 7.477663e+001 -7.941438e+001 -3.972557e+001 -2.495880e+001 -2.620702e+001
3056875000 -2.651123e+001 1.525982e+002 -3.092035e+001 1.515118e+001 -9.288982e+001 -1.649356e+002 -2.574470e+001 -3.968573e+001
3057968750 -2.806080e+001 1.740579e+002 -3.144030e+001 -4.323697e+001 -8.357832e+001 -5.858704e+001 -2.544763e+001 -5.462951e+001
3059062500 -2.924124e+001 -1.586612e+002 -3.196061e+001 -1.008682e+002 -8.050191e+001 -5.141008e+000 -2.420937e+001 -6.572543e+001
3060156250 -2.934797e+001 -1.284675e+002 -3.220136e+001 -1.615074e+002 -1.000729e+002 -1.638668e+002 -2.265517e+001 -7.200375e+001
3061250000 -2.830324e+001 -1.002948e+002 -3.219584e+001 1.299705e+002 -8.502666e+001 -1.728348e+002 -2.117108e+001 -7.409726e+001
3062343750 -2.680298e+001 -7.788350e+001 -3.166885e+001 5.426447e+001 -8.339244e+001 -3.512909e+000 -1.989059e+001 -7.329457e+001
3063437500 -2.530896e+001 -5.998433e+001 -3.056605e+001 -2.427031e+001 -7.984213e+001 -8.316702e+001 -1.879401e+001 -7.105237e+001
3064531250 -2.398216e+001 -4.546235e+001 -2.910170e+001 -1.007583e+002 -8.919867e+001 1.269422e+001 -1.793728e+001 -6.777990e+001
3065625000 -2.294757e+001 -3.283686e+001 -2.773471e+001 -1.735596e+002 -8.232348e+001 -9.859507e+001 -1.724319e+001 -6.371270e+001
3066718750 -2.214157e+001 -2.152868e+001 -2.680710e+001 1.156050e+002 -9.015324e+001 -5.641824e+001 -1.673215e+001 -5.926270e+001
3067812500 -2.155079e+001 -1.119355e+001 -2.649501e+001 4.515559e+001 -8.143031e+001 7.665353e+001 -1.637242e+001 -5.441887e+001
3068906250 -2.114901e+001 -1.316306e+000 -2.688699e+001 -2.610520e+001 -8.803805e+001 1.745034e+002 -1.614721e+001 -4.928540e+001
3070000000 -2.099194e+001 8.046277e+000 -2.795974e+001 -9.897770e+001 -8.018713e+001 -1.702384e+002 -1.604548e+001 -4.429721e+001
3071093750 -2.097862e+001 1.707903e+001 -2.939695e+001 -1.748259e+002 -8.648301e+001 1.480381e+001 -1.610171e+001 -3.908089e+001
3072187500 -2.116786e+001 2.579182e+001 -3.050789e+001 1.057795e+002 -8.533934e+001 -1.707543e+002 -1.626036e+001 -3.403396e+001
3073281250 -2.156436e+001 3.411636e+001 -3.079654e+001 2.577280e+001 -8.770869e+001 7.079243e+001 -1.657646e+001 -2.908337e+001
3074375000 -2.216938e+001 4.214517e+001 -3.057034e+001 -4.983232e+001 -8.366701e+001 1.300139e+002 -1.701115e+001 -2.444487e+001
3075468750 -2.303518e+001 4.961288e+001 -3.041717e+001 -1.180654e+002 -8.056571e+001 1.110402e+000 -1.758852e+001 -2.025063e+001
3076562500 -2.423031e+001 5.658320e+001 -3.042462e+001 -1.786736e+002 -8.930739e+001 -1.518996e+002 -1.833831e+001 -1.665177e+001
3077656250 -2.581942e+001 6.265779e+001 -3.025039e+001 1.255766e+002 -8.497424e+001 8.365601e+001 -1.925796e+001 -1.385265e+001
3078750000 -2.799032e+001 6.707010e+001 -2.993687e+001 6.897713e+001 -9.930836e+001 1.507594e+002 -2.037549e+001 -1.225856e+001
3079843750 -3.103818e+001 6.789615e+001 -2.989468e+001 9.551529e+000 -7.908714e+001 -8.884583e+001 -2.166432e+001 -1.231852e+001
3080937500 -3.534671e+001 5.743706e+001 -3.036138e+001 -5.284600e+001 -8.631741e+001 9.128534e+001 -2.311278e+001 -1.495729e+001
3082031250 -3.848466e+001 1.487059e+001 -3.107807e+001 -1.187071e+002 -8.520209e+001 -7.858727e+001 -2.454957e+001 -2.113506e+001
3083125000 -3.458847e+001 -2.307137e+001 -3.152496e+001 1.701191e+002 -9.263339e+001 1.200410e+001 -2.563047e+001 -3.190639e+001
3084218750 -3.043088e+001 -3.116855e+001 -3.102339e+001 9.371076e+001 -1.046425e+002 -6.264391e+001 -2.594909e+001 -4.527995e+001
3085312500 -2.761714e+001 -2.968513e+001 -2.933767e+001 1.644738e+001 -8.965826e+001 1.586329e+002 -2.536897e+001 -5.737970e+001
3086406250 -2.557451e+001 -2.502654e+001 -2.711227e+001 -5.736309e+001 -8.421645e+001 -1.376747e+002 -2.425020e+001 -6.558636e+001
3087500000 -2.405744e+001 -1.922338e+001 -2.509448e+001 -1.288420e+002 -8.403442e+001 2.884963e+001 -2.301913e+001 -7.005074e+001
3088593750 -2.293868e+001 -1.222912e+001 -2.358504e+001 1.604902e+002 -8.033813e+001 -1.186229e+002 -2.188576e+001 -7.154260e+001
3089687500 -2.211337e+001 -5.141208e+000 -2.269027e+001 8.933367e+001 -9.875239e+001 4.395179e+001 -2.092870e+001 -7.124145e+001
3090781250 -2.154300e+001 2.459991e+000 -2.238871e+001 1.665891e+001 -8.650215e+001 5.793837e+001 -2.015113e+001 -6.978558e+001
3091875000 -2.117594e+001 1.018045e+001 -2.252626e+001 -5.862264e+001 -8.226419e+001 1.735596e+002 -1.955005e+001 -6.750485e+001
3092968750 -2.102057e+001 1.808386e+001 -2.287213e+001 -1.375417e+002 -8.093226e+001 -1.382395e+002 -1.911038e+001 -6.472893e+001
3094062500 -2.105877e+001 2.601542e+001 -2.302863e+001 1.409705e+002 -7.702416e+001 -1.526186e+002 -1.879110e+001 -6.181609e+001
3095156250 -2.129285e+001 3.424776e+001 -2.276798e+001 5.957779e+001 -9.044062e+001 1.174124e+002 -1.859493e+001 -5.877786e+001
3096250000 -2.170905e+001 4.257511e+001 -2.221786e+001 -1.857042e+001 -8.459711e+001 -4.146452e+001 -1.850313e+001 -5.577865e+001
3097343750 -2.235001e+001 5.109158e+001 -2.170241e+001 -9.321809e+001 -8.502949e+001 1.708858e+002 -1.851102e+001 -5.286306e+001
3098437500 -2.325795e+001 5.989967e+001 -2.141148e+001 -1.657589e+002 -8.091309e+001 1.805578e+000 -1.859822e+001 -5.037832e+001
3099531250 -2.445947e+001 6.907256e+001 -2.155232e+001 1.221310e+002 -8.164857e+001 2.183884e+001 -1.875253e+001 -4.807163e+001
3100625000 -2.605293e+001 7.874703e+001 -2.208835e+001 4.910563e+001 -8.655087e+001 1.553019e+002 -1.895898e+001 -4.626130e+001
3101718750 -2.813706e+001 8.932448e+001 -2.298871e+001 -2.658839e+001 -8.374825e+001 1.142108e+002 -1.922263e+001 -4.474227e+001
3102812500 -3.111522e+001 1.026570e+002 -2.393777e+001 -1.053202e+002 -1.075575e+002 1.039029e+002 -1.950895e+001 -4.379385e+001
3103906250 -3.554022e+001 1.236431e+002 -2.455373e+001 1.736314e+002 -8.737082e+001 1.115385e+002 -1.978497e+001 -4.318978e+001
3105000000 -4.098227e+001 1.760461e+002 -2.463993e+001 9.299303e+001 -8.310170e+001 1.716509e+002 -2.006745e+001 -4.292605e+001
3106093750 -3.762346e+001 -1.129442e+002 -2.449388e+001 1.554113e+001 -8.300242e+001 1.056503e+002 -2.034948e+001 -4.309827e+001
3107187500 -3.280234e+001 -8.601772e+001 -2.451177e+001 -5.805785e+001 -8.148502e+001 -1.019712e+002 -2.056704e+001 -4.341989e+001
3108281250 -2.964458e+001 -7.054208e+001 -2.498957e+001 -1.287559e+002 -8.445325e+001 6.360777e+001 -2.077758e+001 -4.394396e+001
3109375000 -2.750697e+001 -5.913032e+001 -2.589944e+001 1.622340e+002 -8.674171e+001 -1.559117e+002 -2.095164e+001 -4.435249e+001
3110468750 -2.597180e+001 -4.912084e+001 -2.725534e+001 9.250869e+001 -7.831387e+001 -9.939626e+001 -2.110890e+001 -4.483735e+001
3111562500 -2.485434e+001 -3.991530e+001 -2.905243e+001 1.897509e+001 -7.872238e+001 -4.536915e+001 -2.125352e+001 -4.522678e+001
3112656250 -2.409508e+001 -3.112098e+001 -3.097214e+001 -6.047282e+001 -7.993619e+001 -1.072050e+001 -2.141831e+001 -4.564787e+001
3113750000 -2.361269e+001 -2.271475e+001 -3.240799e+001 -1.461543e+002 -8.621616e+001 -1.765045e+002 -2.161228e+001 -4.589544e+001
3114843750 -2.340028e+001 -1.443907e+001 -3.297751e+001 1.300331e+002 -8.470261e+001 1.116667e+002 -2.182227e+001 -4.649727e+001
3115937500 -2.341644e+001 -6.410200e+000 -3.366601e+001 5.346445e+001 -8.798839e+001 1.291335e+002 -2.208324e+001 -4.721086e+001
3117031250 -2.364685e+001 1.564405e+000 -3.569810e+001 -1.294222e+001 -8.769053e+001 -1.711029e+002 -2.234196e+001 -4.835428e+001
3118125000 -2.412117e+001 9.396871e+000 -3.973160e+001 -5.680773e+001 -8.138741e+001 -9.863914e+001 -2.260068e+001 -4.995656e+001
3119218750 -2.487304e+001 1.676996e+001 -3.860733e+001 -6.271594e+001 -8.457577e+001 -7.708640e+001 -2.284197e+001 -5.198412e+001
3120312500 -2.594476e+001 2.401306e+001 -3.316071e+001 -1.079023e+002 -8.711586e+001 1.521281e+002 -2.303079e+001 -5.474703e+001
3121406250 -2.742734e+001 3.055581e+001 -2.983213e+001 -1.739253e+002 -7.828064e+001 1.410991e+002 -2.310094e+001 -5.767016e+001
3122500000 -2.946181e+001 3.652798e+001 -2.816358e+001 1.124503e+002 -8.184878e+001 1.908577e+001 -2.304864e+001 -6.082516e+001
3123593750 -3.241574e+001 4.019303e+001 -2.741893e+001 3.349601e+001 -1.019078e+002 -1.219021e+002 -2.287442e+001 -6.364489e+001
3124687500 -3.706717e+001 3.774512e+001 -2.685425e+001 -4.958315e+001 -8.790192e+001 1.061273e+002 -2.257468e+001 -6.570982e+001
3125781250 -4.420374e+001 -1.805839e+000 -2.590693e+001 -1.341070e+002 -8.107344e+001 -1.227099e+002 -2.216382e+001 -6.717223e+001
3126875000 -3.945070e+001 -6.975275e+001 -2.458137e+001 1.439449e+002 -9.367502e+001 -7.792352e+001 -2.174462e+001 -6.775068e+001
3127968750 -3.379003e+001 -7.795573e+001 -2.320738e+001 6.578228e+001 -9.494003e+001 -6.799505e+001 -2.130651e+001 -6.748991e+001
3129062500 -3.035805e+001 -7.576627e+001 -2.214808e+001 -9.820113e+000 -8.106745e+001 2.419419e+001 -2.093070e+001 -6.636708e+001
3130156250 -2.804180e+001 -7.053690e+001 -2.153080e+001 -8.509794e+001 -9.087628e+001 1.155399e+002 -2.062089e+001 -6.437427e+001
3131250000 -2.635076e+001 -6.434753e+001 -2.138400e+001 -1.611549e+002 -9.475002e+001 8.805494e+001 -2.040231e+001 -6.196172e+001
3132343750 -2.515798e+001 -5.777926e+001 -2.160884e+001 1.212865e+002 -8.784023e+001 -1.431027e+002 -2.030340e+001 -5.900583e+001
3133437500 -2.426894e+001 -5.086788e+001 -2.188080e+001 4.206365e+001 -8.447570e+001 -6.008041e+001 -2.028425e+001 -5.556170e+001
3134531250 -2.369676e+001 -4.363784e+001 -2.189284e+001 -3.794882e+001 -8.824844e+001 1.309424e+002 -2.042362e+001 -5.204624e+001
3135625000 -2.333451e+001 -3.632726e+001 -2.151756e+001 -1.169641e+002 -9.373164e+001 -1.155675e+002 -2.067750e+001 -4.818797e+001
3136718750 -2.322953e+001 -2.914723e+001 -2.096206e+001 1.660893e+002 -8.363915e+001 1.659643e+002 -2.107710e+001 -4.432071e+001
3137812500 -2.330024e+001 -2.194885e+001 -2.048514e+001 9.125923e+001 -8.879123e+001 -1.230347e+002 -2.165943e+001 -4.075536e+001
3138906250 -2.359489e+001 -1.491150e+001 -2.031503e+001 1.766553e+001 -8.799101e+001 6.936794e+001 -2.244812e+001 -3.759079e+001
3140000000 -2.414498e+001 -8.033380e+000 -2.043328e+001 -5.519225e+001 -8.456509e+001 -4.221265e+001 -2.346520e+001 -3.505723e+001
3141093750 -2.496311e+001 -1.385686e+000 -2.074414e+001 -1.287603e+002 -8.707392e+001 2.942885e+001 -2.477845e+001 -3.350303e+001
3142187500 -2.607387e+001 4.714797e+000 -2.104999e+001 1.558513e+002 -9.222960e+001 5.219418e+001 -2.642801e+001 -3.412286e+001
3143281250 -2.760504e+001 1.022165e+001 -2.122883e+001 7.856224e+001 -9.259978e+001 3.637485e+001 -2.845428e+001 -3.892870e+001
3144375000 -2.974822e+001 1.409221e+001 -2.116930e+001 8.321319e-001 -8.054656e+001 6.751947e+001 -3.053130e+001 -5.064524e+001
3145468750 -3.275370e+001 1.443121e+001 -2.087502e+001 -7.539320e+001 -8.438676e+001 1.639338e+002 -3.175733e+001 -7.166049e+001
3146562500 -3.712846e+001 3.854491e+000 -2.046057e+001 -1.492865e+002 -9.712541e+001 -1.885081e+001 -3.085135e+001 -9.389973e+001
3147656250 -4.035382e+001 -4.152131e+001 -2.006388e+001 1.382340e+002 -8.085909e+001 1.170603e+002 -2.882801e+001 -1.071001e+002
3148750000 -3.639073e+001 -8.013141e+001 -1.987091e+001 6.587643e+001 -9.543361e+001 1.934208e+001 -2.663384e+001 -1.123745e+002
3149843750 -3.211563e+001 -8.829849e+001 -2.000129e+001 -7.459720e+000 -8.273547e+001 1.770517e+002 -2.490876e+001 -1.129589e+002
3150937500 -2.921187e+001 -8.746483e+001 -2.046297e+001 -8.213937e+001 -9.095468e+001 -1.707574e+002 -2.348307e+001 -1.112959e+002
3152031250 -2.712180e+001 -8.334032e+001 -2.112825e+001 -1.578841e+002 -7.985079e+001 -9.164405e+001 -2.236608e+001 -1.083605e+002
3153125000 -2.556766e+001 -7.764148e+001 -2.158286e+001 1.255328e+002 -8.065007e+001 7.108334e+001 -2.148634e+001 -1.044740e+002
3154218750 -2.445524e+001 -7.132640e+001 -2.166759e+001 4.913242e+001 -8.784322e+001 -4.329100e+001 -2.086506e+001 -1.001474e+002
3155312500 -2.358260e+001 -6.459061e+001 -2.141475e+001 -2.612259e+001 -9.643784e+001 1.020017e+002 -2.043978e+001 -9.553291e+001
3156406250 -2.298301e+001 -5.746122e+001 -2.110834e+001 -9.978405e+001 -7.967747e+001 5.951673e+001 -2.017186e+001 -9.072480e+001
3157500000 -2.260054e+001 -5.023279e+001 -2.099266e+001 -1.718795e+002 -9.113159e+001 6.412139e+001 -2.011073e+001 -8.598991e+001
3158593750 -2.242319e+001 -4.296185e+001 -2.117100e+001 1.169667e+002 -8.068114e+001 1.680974e+001 -2.020319e+001 -8.140936e+001
3159687500 -2.244390e+001 -3.555823e+001 -2.163195e+001 4.593397e+001 -8.218593e+001 1.416560e+002 -2.045396e+001 -7.716206e+001
3160781250 -2.262535e+001 -2.809553e+001 -2.233967e+001 -2.638338e+001 -9.436167e+001 3.488685e+001 -2.091052e+001 -7.325436e+001
3161875000 -2.303392e+001 -2.040244e+001 -2.319226e+001 -1.007156e+002 -9.439223e+001 1.022716e+001 -2.149215e+001 -7.021553e+001
3162968750 -2.364464e+001 -1.268728e+001 -2.407031e+001 -1.773624e+002 -8.139944e+001 1.530786e+002 -2.225184e+001 -6.847867e+001
3164062500 -2.449700e+001 -5.180456e+000 -2.488674e+001 1.054844e+002 -9.309009e+001 2.209883e+001 -2.318685e+001 -6.814423e+001
