!Agilent Technologies,E8363B,MY43030572,A.06.04.32
!Agilent E8363B: A.06.04.32
!Date: Tuesday, June 07, 2011 08:34:10
!Correction: S11(Full 2 Port(1,2)) S21(Full 2 Port(1,2)) S12(Full 2 Port(1,2)) S22(Full 2 Port(1,2)) 
!S2P File: Measurements: S11, S21, S12, S22:
# Hz S  dB   R 50
3000000000 -2.147102e+001 5.732077e+001 -1.788329e+001 -4.338414e+001 -8.270042e+001 -7.416109e+001 -1.660635e+001 -1.948458e+001
3001093750 -2.098800e+001 6.571709e+001 -1.823902e+001 -1.192017e+002 -8.436224e+001 7.496552e+001 -1.682818e+001 -1.633959e+001
3002187500 -2.071907e+001 7.455900e+001 -1.789956e+001 1.697330e+002 -9.082896e+001 1.152053e+001 -1.707672e+001 -1.294685e+001
3003281250 -2.064017e+001 8.351199e+001 -1.781685e+001 9.798687e+001 -8.444293e+001 1.413737e+002 -1.747956e+001 -9.851686e+000
3004375000 -2.074962e+001 9.255649e+001 -1.798130e+001 2.503039e+001 -9.128539e+001 -1.530984e+002 -1.799894e+001 -7.539979e+000
3005468750 -2.105997e+001 1.016495e+002 -1.831712e+001 -4.930492e+001 -8.865833e+001 -4.880925e+001 -1.862191e+001 -6.120957e+000
3006562500 -2.160839e+001 1.109185e+002 -1.866464e+001 -1.244757e+002 -9.193451e+001 1.133013e+002 -1.935010e+001 -5.941062e+000
3007656250 -2.241071e+001 1.204678e+002 -1.882158e+001 1.603474e+002 -8.041277e+001 -6.030759e+001 -2.012678e+001 -7.351224e+000
3008750000 -2.352798e+001 1.304251e+002 -1.871635e+001 8.600809e+001 -8.491806e+001 1.888576e+000 -2.087715e+001 -1.058950e+001
3009843750 -2.501930e+001 1.413483e+002 -1.844744e+001 1.285601e+001 -8.669204e+001 -1.245551e+002 -2.145775e+001 -1.563848e+001
3010937500 -2.705569e+001 1.539464e+002 -1.825174e+001 -5.916608e+001 -8.292017e+001 -2.444598e+001 -2.172625e+001 -2.202618e+001
3012031250 -2.986744e+001 1.703880e+002 -1.834789e+001 -1.302257e+002 -8.574506e+001 -1.397121e+002 -2.159692e+001 -2.864989e+001
3013125000 -3.377053e+001 -1.629687e+002 -1.881651e+001 1.597692e+002 -8.712080e+001 -7.624902e+001 -2.110291e+001 -3.409637e+001
3014218750 -3.672862e+001 -1.090498e+002 -1.955962e+001 9.053398e+001 -8.523331e+001 1.502466e+002 -2.042314e+001 -3.762801e+001
3015312500 -3.350004e+001 -5.564777e+001 -2.036744e+001 2.081737e+001 -7.916296e+001 8.202343e+001 -1.967151e+001 -3.935173e+001
3016406250 -2.952272e+001 -2.956252e+001 -2.112039e+001 -5.034554e+001 -7.990793e+001 -8.146974e+001 -1.896390e+001 -3.934363e+001
3017500000 -2.668523e+001 -1.351942e+001 -2.166543e+001 -1.233948e+002 -8.017012e+001 -1.567231e+002 -1.834927e+001 -3.803263e+001
3018593750 -2.455971e+001 -1.054210e+000 -2.184444e+001 1.628315e+002 -8.724047e+001 8.915582e+001 -1.784580e+001 -3.577930e+001
3019687500 -2.298072e+001 9.740546e+000 -2.165697e+001 9.013760e+001 -8.589227e+001 -1.286956e+002 -1.746183e+001 -3.267845e+001
3020781250 -2.177590e+001 1.975675e+001 -2.122557e+001 1.887577e+001 -8.887379e+001 -1.506734e+002 -1.722969e+001 -2.922558e+001
3021875000 -2.087227e+001 2.924055e+001 -2.083469e+001 -5.149319e+001 -8.760430e+001 -1.413520e+002 -1.712209e+001 -2.539611e+001
3022968750 -2.022622e+001 3.836112e+001 -2.075956e+001 -1.214912e+002 -8.870007e+001 -9.487888e+001 -1.716817e+001 -2.159904e+001
3024062500 -1.977423e+001 4.723584e+001 -2.114709e+001 1.685331e+002 -8.050966e+001 -1.165990e+002 -1.734158e+001 -1.760753e+001
3025156250 -1.954082e+001 5.617371e+001 -2.204859e+001 9.850140e+001 -8.262962e+001 -1.041843e+002 -1.767496e+001 -1.370987e+001
3026250000 -1.947256e+001 6.488589e+001 -2.329094e+001 2.848668e+001 -8.218819e+001 -1.533840e+002 -1.814269e+001 -1.023564e+001
3027343750 -1.955932e+001 7.347528e+001 -2.461008e+001 -4.203051e+001 -7.861124e+001 5.938166e+000 -1.881057e+001 -7.186200e+000
3028437500 -1.986883e+001 8.196646e+001 -2.561027e+001 -1.128925e+002 -8.310515e+001 -1.447229e+002 -1.962882e+001 -5.246917e+000
3029531250 -2.036679e+001 9.042827e+001 -2.603389e+001 1.765440e+002 -9.225057e+001 -1.314495e+002 -2.063564e+001 -4.698376e+000
3030625000 -2.107236e+001 9.886903e+001 -2.593034e+001 1.081396e+002 -8.359887e+001 2.526262e+000 -2.180983e+001 -5.917462e+000
3031718750 -2.207306e+001 1.070112e+002 -2.548286e+001 4.285694e+001 -9.758914e+001 -1.393084e+002 -2.306132e+001 -1.003345e+001
3032812500 -2.335316e+001 1.152939e+002 -2.479954e+001 -2.031217e+001 -8.381717e+001 -1.388974e+002 -2.415841e+001 -1.799279e+001
3033906250 -2.509992e+001 1.233290e+002 -2.401167e+001 -8.319093e+001 -8.311158e+001 -1.731241e+002 -2.474519e+001 -2.914956e+001
3035000000 -2.746508e+001 1.310811e+002 -2.334888e+001 -1.476304e+002 -8.858992e+001 -8.848109e+001 -2.446741e+001 -4.114700e+001
3036093750 -3.098725e+001 1.381663e+002 -2.294706e+001 1.454957e+002 -9.879688e+001 2.183486e+001 -2.356614e+001 -5.032977e+001
3037187500 -3.736061e+001 1.423809e+002 -2.287889e+001 7.584010e+001 -8.511433e+001 2.815141e+001 -2.236985e+001 -5.558749e+001
3038281250 -5.284906e+001 3.681221e+001 -2.300019e+001 3.628385e+000 -8.811050e+001 1.463916e+002 -2.116523e+001 -5.773780e+001
3039375000 -3.609666e+001 -6.022387e+000 -2.303402e+001 -7.087848e+001 -9.047623e+001 3.965980e+001 -2.011200e+001 -5.755786e+001
3040468750 -3.064311e+001 -7.254347e-001 -2.276077e+001 -1.461669e+002 -9.122096e+001 9.748974e+001 -1.922405e+001 -5.574318e+001
3041562500 -2.745567e+001 7.081521e+000 -2.213368e+001 1.392688e+002 -1.004114e+002 8.739618e+001 -1.853951e+001 -5.282212e+001
3042656250 -2.533281e+001 1.497409e+001 -2.142163e+001 6.612106e+001 -8.883559e+001 -4.817167e+001 -1.803560e+001 -4.929496e+001
3043750000 -2.383037e+001 2.318109e+001 -2.085858e+001 -5.473248e+000 -8.989155e+001 9.897263e+001 -1.769196e+001 -4.521617e+001
3044843750 -2.273248e+001 3.185081e+001 -2.057828e+001 -7.593333e+001 -9.061041e+001 2.972181e+001 -1.753108e+001 -4.096972e+001
3045937500 -2.195708e+001 4.055288e+001 -2.060455e+001 -1.457831e+002 -9.963881e+001 -1.680577e+002 -1.750315e+001 -3.645727e+001
3047031250 -2.143358e+001 4.952755e+001 -2.082217e+001 1.437196e+002 -9.412461e+001 -1.777535e+002 -1.764503e+001 -3.200938e+001
3048125000 -2.116431e+001 5.851678e+001 -2.110765e+001 7.134914e+001 -8.358179e+001 -7.977462e+000 -1.793363e+001 -2.774303e+001
3049218750 -2.107615e+001 6.785542e+001 -2.141210e+001 -3.865812e+000 -8.271672e+001 -1.035802e+001 -1.840503e+001 -2.385955e+001
3050312500 -2.118909e+001 7.742117e+001 -2.160248e+001 -8.107232e+001 -8.675603e+001 1.660054e+002 -1.908111e+001 -2.051806e+001
3051406250 -2.150769e+001 8.745479e+001 -2.167032e+001 -1.585577e+002 -9.130524e+001 6.749398e+001 -1.992145e+001 -1.834079e+001
3052500000 -2.203349e+001 9.798365e+001 -2.171921e+001 1.258714e+002 -8.567056e+001 8.769688e+001 -2.103164e+001 -1.730805e+001
3053593750 -2.278270e+001 1.093408e+002 -2.191900e+001 5.297367e+001 -8.834436e+001 -7.182878e+001 -2.231368e+001 -1.857990e+001
3054687500 -2.376940e+001 1.218409e+002 -2.234339e+001 -1.747257e+001 -8.329896e+001 -7.748479e+001 -2.373280e+001 -2.336736e+001
3055781250 -2.500198e+001 1.358363e+002 -2.309150e+001 -8.655322e+001 -8.145586e+001 -1.740246e+002 -2.494535e+001 -3.259424e+001
3056875000 -2.645300e+001 1.527130e+002 -2.418135e+001 -1.554518e+002 -7.640639e+001 -7.121777e+001 -2.547285e+001 -4.635973e+001
3057968750 -2.799849e+001 1.738857e+002 -2.573347e+001 1.344362e+002 -8.903596e+001 -7.368063e+001 -2.495434e+001 -6.043114e+001
3059062500 -2.916718e+001 -1.590695e+002 -2.766848e+001 6.328739e+001 -8.553281e+001 1.488643e+002 -2.364254e+001 -7.016920e+001
3060156250 -2.930463e+001 -1.284551e+002 -2.984293e+001 -7.833353e+000 -8.804736e+001 8.578799e+000 -2.213290e+001 -7.546631e+001
3061250000 -2.832291e+001 -1.006229e+002 -3.162675e+001 -7.429946e+001 -7.991495e+001 1.398244e+000 -2.072154e+001 -7.692297e+001
3062343750 -2.682330e+001 -7.800903e+001 -3.201081e+001 -1.343322e+002 -8.156506e+001 -1.488331e+002 -1.950855e+001 -7.587691e+001
3063437500 -2.535537e+001 -6.012194e+001 -3.071117e+001 1.679152e+002 -8.064674e+001 8.226015e+001 -1.850773e+001 -7.351961e+001
3064531250 -2.403527e+001 -4.545519e+001 -2.871878e+001 1.077156e+002 -7.910005e+001 9.593933e+001 -1.769072e+001 -7.002776e+001
3065625000 -2.296942e+001 -3.281914e+001 -2.675033e+001 4.437503e+001 -9.064944e+001 -3.916571e+001 -1.704664e+001 -6.585224e+001
3066718750 -2.216666e+001 -2.144674e+001 -2.523672e+001 -2.152295e+001 -8.345673e+001 -6.613007e+001 -1.656310e+001 -6.139397e+001
3067812500 -2.157340e+001 -1.099224e+001 -2.428720e+001 -9.000138e+001 -8.285896e+001 -5.548629e+001 -1.623179e+001 -5.652797e+001
3068906250 -2.117272e+001 -1.177505e+000 -2.381327e+001 -1.610045e+002 -8.134447e+001 4.948642e+001 -1.603955e+001 -5.147725e+001
3070000000 -2.099940e+001 8.238377e+000 -2.374952e+001 1.255516e+002 -8.879720e+001 -3.719805e+001 -1.596923e+001 -4.640940e+001
3071093750 -2.099620e+001 1.725655e+001 -2.381308e+001 5.006630e+001 -8.592158e+001 2.440555e+001 -1.604870e+001 -4.140910e+001
3072187500 -2.117316e+001 2.599703e+001 -2.372983e+001 -2.660871e+001 -8.315193e+001 1.425432e+002 -1.625651e+001 -3.640588e+001
3073281250 -2.155788e+001 3.435317e+001 -2.345430e+001 -1.031000e+002 -8.709456e+001 2.921931e+001 -1.660197e+001 -3.158613e+001
3074375000 -2.217269e+001 4.238908e+001 -2.317469e+001 -1.779939e+002 -8.416983e+001 -4.189947e+001 -1.706975e+001 -2.711403e+001
3075468750 -2.303021e+001 4.985935e+001 -2.311863e+001 1.095490e+002 -8.278384e+001 -9.222918e+000 -1.769276e+001 -2.299154e+001
3076562500 -2.424047e+001 5.689528e+001 -2.340698e+001 3.963247e+001 -8.570238e+001 1.416443e+002 -1.847197e+001 -1.963416e+001
3077656250 -2.579257e+001 6.316041e+001 -2.399663e+001 -2.788068e+001 -8.181171e+001 -1.798442e+002 -1.945009e+001 -1.694367e+001
3078750000 -2.794197e+001 6.754173e+001 -2.477193e+001 -9.426160e+001 -8.201388e+001 -3.790657e+001 -2.060577e+001 -1.569678e+001
3079843750 -3.096112e+001 6.873188e+001 -2.557563e+001 -1.610145e+002 -9.050951e+001 -3.025227e+001 -2.191829e+001 -1.640713e+001
3080937500 -3.528903e+001 5.848115e+001 -2.629144e+001 1.304996e+002 -8.231104e+001 1.014352e+002 -2.336802e+001 -1.988861e+001
3082031250 -3.856110e+001 1.642210e+001 -2.672581e+001 5.992001e+001 -9.163114e+001 1.654755e+001 -2.472215e+001 -2.734830e+001
3083125000 -3.474133e+001 -2.230703e+001 -2.667595e+001 -1.119957e+001 -8.639871e+001 -8.010268e+001 -2.565031e+001 -3.877834e+001
3084218750 -3.055237e+001 -3.093603e+001 -2.612610e+001 -8.107488e+001 -9.233040e+001 8.473363e+001 -2.573875e+001 -5.243510e+001
3085312500 -2.768527e+001 -2.975112e+001 -2.525048e+001 -1.492757e+002 -8.967159e+001 -9.672994e+001 -2.495950e+001 -6.380920e+001
3086406250 -2.562736e+001 -2.481316e+001 -2.427558e+001 1.436935e+002 -9.197202e+001 -1.122829e+002 -2.381817e+001 -7.096869e+001
3087500000 -2.411944e+001 -1.898936e+001 -2.342161e+001 7.671738e+001 -9.023171e+001 9.599665e+001 -2.260950e+001 -7.459933e+001
3088593750 -2.297607e+001 -1.205613e+001 -2.280415e+001 8.933262e+000 -8.347231e+001 1.627201e+001 -2.151932e+001 -7.533897e+001
3089687500 -2.213694e+001 -4.947443e+000 -2.246486e+001 -6.055322e+001 -8.558797e+001 -1.034671e+002 -2.062457e+001 -7.470146e+001
3090781250 -2.156627e+001 2.687608e+000 -2.233565e+001 -1.321188e+002 -7.901403e+001 2.927322e+001 -1.989015e+001 -7.299720e+001
3091875000 -2.120045e+001 1.043540e+001 -2.227084e+001 1.539179e+002 -8.765721e+001 1.325148e+002 -1.932502e+001 -7.044762e+001
3092968750 -2.102162e+001 1.831689e+001 -2.211386e+001 7.780511e+001 -8.635098e+001 -1.035570e+002 -1.890203e+001 -6.763949e+001
3094062500 -2.107445e+001 2.634272e+001 -2.180485e+001 1.227716e+000 -9.193867e+001 2.038238e+001 -1.861538e+001 -6.468377e+001
3095156250 -2.129287e+001 3.449651e+001 -2.147273e+001 -7.432455e+001 -8.118751e+001 -8.333976e+001 -1.843556e+001 -6.167858e+001
3096250000 -2.170914e+001 4.275965e+001 -2.124103e+001 -1.474840e+002 -8.862804e+001 2.856974e+001 -1.837786e+001 -5.879760e+001
3097343750 -2.234414e+001 5.143070e+001 -2.122836e+001 1.415227e+002 -8.794498e+001 5.769383e+000 -1.841734e+001 -5.593705e+001
3098437500 -2.325328e+001 6.025633e+001 -2.145269e+001 7.171958e+001 -9.181523e+001 -1.359414e+000 -1.853099e+001 -5.345532e+001
3099531250 -2.440748e+001 6.936002e+001 -2.191324e+001 1.803143e+000 -8.576247e+001 2.070206e+001 -1.871613e+001 -5.124637e+001
3100625000 -2.601272e+001 7.909586e+001 -2.257316e+001 -6.915313e+001 -8.540059e+001 1.571273e+002 -1.894892e+001 -4.945112e+001
3101718750 -2.808156e+001 8.965280e+001 -2.332138e+001 -1.423867e+002 -8.459985e+001 1.786249e+002 -1.921283e+001 -4.800806e+001
3102812500 -3.102258e+001 1.028909e+002 -2.392882e+001 1.427832e+002 -7.723710e+001 -4.655994e+000 -1.951728e+001 -4.707826e+001
3103906250 -3.537653e+001 1.237898e+002 -2.423194e+001 6.741886e+001 -8.106444e+001 8.500311e+001 -1.980151e+001 -4.664534e+001
3105000000 -4.083604e+001 1.754655e+002 -2.420900e+001 -6.237967e+000 -9.499127e+001 4.226846e+001 -2.007771e+001 -4.654633e+001
3106093750 -3.777107e+001 -1.138966e+002 -2.411914e+001 -7.711880e+001 -9.267781e+001 6.606193e+001 -2.035217e+001 -4.681406e+001
3107187500 -3.293909e+001 -8.621761e+001 -2.424385e+001 -1.450348e+002 -9.449126e+001 -1.663834e+002 -2.057967e+001 -4.730581e+001
3108281250 -2.973779e+001 -7.063001e+001 -2.465395e+001 1.501263e+002 -8.785085e+001 -1.455010e+002 -2.077872e+001 -4.794856e+001
3109375000 -2.758106e+001 -5.914460e+001 -2.531546e+001 8.740936e+001 -8.257622e+001 1.491575e+002 -2.098404e+001 -4.853725e+001
3110468750 -2.600950e+001 -4.909369e+001 -2.618469e+001 2.559188e+001 -7.945491e+001 6.278513e+001 -2.112634e+001 -4.919577e+001
3111562500 -2.488511e+001 -3.970333e+001 -2.719548e+001 -3.638872e+001 -8.426238e+001 1.466027e+002 -2.128749e+001 -4.949962e+001
3112656250 -2.413245e+001 -3.088445e+001 -2.806973e+001 -9.980709e+001 -8.270583e+001 -3.835852e+001 -2.145101e+001 -5.002313e+001
3113750000 -2.364476e+001 -2.249325e+001 -2.849709e+001 -1.666853e+002 -8.627080e+001 -1.684890e+002 -2.165267e+001 -5.047973e+001
3114843750 -2.342707e+001 -1.418859e+001 -2.811145e+001 1.229254e+002 -7.554041e+001 7.892250e+001 -2.185844e+001 -5.101239e+001
3115937500 -2.342563e+001 -6.082540e+000 -2.696138e+001 5.106715e+001 -8.536166e+001 5.800138e+001 -2.209748e+001 -5.186834e+001
3117031250 -2.365636e+001 1.899300e+000 -2.539009e+001 -1.960973e+001 -8.542942e+001 1.718699e+002 -2.236618e+001 -5.321015e+001
3118125000 -2.412718e+001 9.690345e+000 -2.387548e+001 -8.851071e+001 -8.791705e+001 8.031305e+001 -2.259491e+001 -5.484546e+001
3119218750 -2.486696e+001 1.722414e+001 -2.258643e+001 -1.557568e+002 -8.811484e+001 -1.282658e+002 -2.281840e+001 -5.702085e+001
3120312500 -2.591510e+001 2.446116e+001 -2.157711e+001 1.374537e+002 -8.498240e+001 1.971686e+001 -2.296485e+001 -5.978909e+001
3121406250 -2.738996e+001 3.110652e+001 -2.086461e+001 6.937109e+001 -8.196114e+001 -1.353621e+002 -2.300732e+001 -6.296554e+001
3122500000 -2.944022e+001 3.725689e+001 -2.050432e+001 -7.987123e-001 -9.088352e+001 4.553055e+001 -2.290341e+001 -6.599405e+001
3123593750 -3.234021e+001 4.106719e+001 -2.041705e+001 -7.350274e+001 -8.557965e+001 1.657944e+001 -2.270050e+001 -6.868646e+001
3124687500 -3.701418e+001 3.907420e+001 -2.043215e+001 -1.485195e+002 -8.925276e+001 -1.045079e+002 -2.238263e+001 -7.069245e+001
3125781250 -4.439268e+001 8.990895e-001 -2.027387e+001 1.349404e+002 -9.200565e+001 5.680069e+001 -2.199581e+001 -7.186790e+001
3126875000 -3.975425e+001 -6.955386e+001 -1.981674e+001 5.859449e+001 -8.733041e+001 6.999441e+001 -2.158949e+001 -7.215162e+001
3127968750 -3.393495e+001 -7.816581e+001 -1.911299e+001 -1.654601e+001 -9.476529e+001 -3.522839e+001 -2.117267e+001 -7.169722e+001
3129062500 -3.043323e+001 -7.572554e+001 -1.840132e+001 -9.021822e+001 -8.724648e+001 1.320143e+002 -2.081781e+001 -7.038728e+001
3130156250 -2.809643e+001 -7.044003e+001 -1.789688e+001 -1.631711e+002 -9.015269e+001 -1.503125e+002 -2.052040e+001 -6.827037e+001
3131250000 -2.641910e+001 -6.408235e+001 -1.770738e+001 1.241624e+002 -8.776775e+001 -3.898542e+001 -2.034524e+001 -6.585378e+001
3132343750 -2.518765e+001 -5.759279e+001 -1.789785e+001 5.138529e+001 -8.082512e+001 -1.462633e+002 -2.026471e+001 -6.286627e+001
3133437500 -2.431120e+001 -5.056397e+001 -1.830707e+001 -2.216563e+001 -7.857234e+001 -1.554052e+002 -2.028922e+001 -5.943003e+001
3134531250 -2.372094e+001 -4.345601e+001 -1.881307e+001 -9.690430e+001 -1.004442e+002 -5.015038e+001 -2.045656e+001 -5.586591e+001
3135625000 -2.335504e+001 -3.605388e+001 -1.923325e+001 -1.729832e+002 -9.201865e+001 -2.785218e+001 -2.075740e+001 -5.224636e+001
3136718750 -2.323728e+001 -2.885739e+001 -1.949067e+001 1.105537e+002 -8.734059e+001 1.451688e+002 -2.122037e+001 -4.856710e+001
3137812500 -2.331743e+001 -2.159763e+001 -1.970833e+001 3.508142e+001 -8.195898e+001 -1.761571e+002 -2.186037e+001 -4.519046e+001
3138906250 -2.360258e+001 -1.461818e+001 -1.997569e+001 -3.816047e+001 -8.588110e+001 -1.562435e+002 -2.271615e+001 -4.240858e+001
3140000000 -2.413594e+001 -7.689833e+000 -2.039481e+001 -1.086952e+002 -8.135760e+001 -2.927608e+001 -2.380348e+001 -4.039412e+001
3141093750 -2.494212e+001 -1.090520e+000 -2.099467e+001 -1.772628e+002 -1.031510e+002 1.098774e+002 -2.521353e+001 -3.970885e+001
3142187500 -2.604356e+001 5.190533e+000 -2.174603e+001 1.154382e+002 -9.359789e+001 1.214858e+002 -2.693773e+001 -4.165147e+001
3143281250 -2.759890e+001 1.064397e+001 -2.258403e+001 4.863984e+001 -1.009939e+002 -7.244431e+000 -2.894728e+001 -4.870192e+001
3144375000 -2.969871e+001 1.467364e+001 -2.328525e+001 -1.815595e+001 -8.467748e+001 2.359711e+001 -3.072636e+001 -6.345615e+001
3145468750 -3.273341e+001 1.557052e+001 -2.360283e+001 -8.616096e+001 -9.002857e+001 -1.143117e+002 -3.116381e+001 -8.508709e+001
3146562500 -3.704112e+001 4.921440e+000 -2.342063e+001 -1.559817e+002 -9.281715e+001 -8.938454e+001 -2.974032e+001 -1.037129e+002
3147656250 -4.056715e+001 -3.955930e+001 -2.287496e+001 1.332204e+002 -9.553949e+001 9.613712e+001 -2.767390e+001 -1.137001e+002
3148750000 -3.659313e+001 -7.935679e+001 -2.216088e+001 6.262467e+001 -8.478868e+001 9.362389e+001 -2.571399e+001 -1.171796e+002
3149843750 -3.223288e+001 -8.800101e+001 -2.146985e+001 -6.925433e+000 -9.243132e+001 -1.154349e+002 -2.412384e+001 -1.170777e+002
3150937500 -2.932124e+001 -8.730038e+001 -2.089453e+001 -7.571790e+001 -9.722213e+001 3.650971e+001 -2.285426e+001 -1.150205e+002
3152031250 -2.719287e+001 -8.322637e+001 -2.045805e+001 -1.449686e+002 -8.912659e+001 -5.309351e+001 -2.184326e+001 -1.118768e+002
3153125000 -2.560982e+001 -7.748625e+001 -2.021902e+001 1.439821e+002 -8.858276e+001 1.672820e+002 -2.107194e+001 -1.079499e+002
3154218750 -2.448695e+001 -7.108360e+001 -2.020512e+001 7.073995e+001 -8.222735e+001 -1.651741e+002 -2.051357e+001 -1.034936e+002
3155312500 -2.360567e+001 -6.437253e+001 -2.033495e+001 -4.755896e+000 -8.793678e+001 1.021055e+002 -2.014128e+001 -9.883900e+001
3156406250 -2.300128e+001 -5.716679e+001 -2.042982e+001 -8.176665e+001 -8.517195e+001 -3.396236e+001 -1.994941e+001 -9.408274e+001
3157500000 -2.261993e+001 -5.006736e+001 -2.037341e+001 -1.586112e+002 -8.236707e+001 7.434891e+001 -1.990825e+001 -8.942287e+001
3158593750 -2.244839e+001 -4.264866e+001 -2.024992e+001 1.258547e+002 -9.224531e+001 1.447100e+001 -2.003138e+001 -8.498872e+001
3159687500 -2.245702e+001 -3.529900e+001 -2.019863e+001 5.228484e+001 -8.144984e+001 -8.918696e+001 -2.033413e+001 -8.093888e+001
3160781250 -2.262270e+001 -2.782785e+001 -2.036058e+001 -1.920222e+001 -8.654953e+001 4.743891e+001 -2.080780e+001 -7.743745e+001
3161875000 -2.304251e+001 -2.015732e+001 -2.081711e+001 -8.910117e+001 -7.703559e+001 -5.732829e+001 -2.143798e+001 -7.472166e+001
3162968750 -2.363223e+001 -1.237067e+001 -2.156423e+001 -1.580633e+002 -9.192183e+001 -1.783789e+002 -2.223199e+001 -7.333916e+001
3164062500 -2.447317e+001 -4.828409e+000 -2.243763e+001 1.331435e+002 -1.066895e+002 -1.787641e+002 -2.316255e+001 -7.381718e+001
