!Agilent Technologies,E8363B,MY43030572,A.06.04.32
!Agilent E8363B: A.06.04.32
!Date: Tuesday, June 07, 2011 08:39:25
!Correction: S11(Full 2 Port(1,2)) S21(Full 2 Port(1,2)) S12(Full 2 Port(1,2)) S22(Full 2 Port(1,2)) 
!S2P File: Measurements: S11, S21, S12, S22:
# Hz S  dB   R 50
3000000000 -2.149495e+001 5.735925e+001 -3.441273e+001 -1.726426e+002 -8.260992e+001 1.092802e+002 -1.660355e+001 -1.867245e+001
3001093750 -2.099791e+001 6.580539e+001 -4.189549e+001 1.223707e+002 -8.579968e+001 1.247036e+002 -1.680596e+001 -1.563201e+001
3002187500 -2.072590e+001 7.474404e+001 -6.123521e+001 1.277239e+002 -8.512104e+001 8.531226e+000 -1.705161e+001 -1.221954e+001
3003281250 -2.065141e+001 8.371419e+001 -4.577873e+001 1.521795e+002 -8.285043e+001 -1.390038e+001 -1.744358e+001 -9.224237e+000
3004375000 -2.076203e+001 9.272113e+001 -4.322189e+001 9.422854e+001 -8.285995e+001 7.727122e+001 -1.796764e+001 -6.776361e+000
3005468750 -2.106977e+001 1.018510e+002 -4.419828e+001 3.816296e+001 -8.116929e+001 -4.501617e+001 -1.859974e+001 -5.390129e+000
3006562500 -2.161906e+001 1.111157e+002 -4.720683e+001 -2.509803e+001 -8.120058e+001 1.053432e+002 -1.931926e+001 -5.013634e+000
3007656250 -2.241119e+001 1.206680e+002 -5.151931e+001 -1.412864e+002 -8.356719e+001 8.962941e+001 -2.008829e+001 -6.253071e+000
3008750000 -2.350129e+001 1.306063e+002 -4.318302e+001 9.516695e+001 -1.060998e+002 -7.729251e+001 -2.084721e+001 -9.467315e+000
3009843750 -2.500167e+001 1.417334e+002 -3.715295e+001 2.037495e+001 -8.371836e+001 -1.314022e+002 -2.142505e+001 -1.438879e+001
3010937500 -2.701928e+001 1.541710e+002 -3.403167e+001 -4.713522e+001 -9.733232e+001 -6.607772e+001 -2.170338e+001 -2.071229e+001
3012031250 -2.982951e+001 1.705532e+002 -3.245072e+001 -1.108273e+002 -8.827478e+001 3.637178e+001 -2.158848e+001 -2.730402e+001
3013125000 -3.365089e+001 -1.628399e+002 -3.179428e+001 -1.734292e+002 -8.729694e+001 -1.775933e+002 -2.111436e+001 -3.286359e+001
3014218750 -3.659974e+001 -1.096410e+002 -3.166057e+001 1.227344e+002 -8.795057e+001 -9.180325e+001 -2.043735e+001 -3.664226e+001
3015312500 -3.354819e+001 -5.619952e+001 -3.219622e+001 5.417510e+001 -8.343166e+001 -3.539991e+001 -1.970489e+001 -3.835505e+001
3016406250 -2.958776e+001 -2.979542e+001 -3.338842e+001 -2.079915e+001 -9.554290e+001 1.613036e+002 -1.898416e+001 -3.849557e+001
3017500000 -2.673363e+001 -1.367623e+001 -3.460289e+001 -1.033898e+002 -8.172964e+001 -1.777396e+002 -1.837410e+001 -3.725328e+001
3018593750 -2.459359e+001 -1.154401e+000 -3.462314e+001 1.714491e+002 -8.113321e+001 -1.240409e+002 -1.787109e+001 -3.490493e+001
3019687500 -2.301281e+001 9.713140e+000 -3.338237e+001 9.329302e+001 -8.237285e+001 9.067976e+001 -1.747930e+001 -3.191036e+001
3020781250 -2.180408e+001 1.973986e+001 -3.175517e+001 2.268625e+001 -9.097939e+001 -7.017263e+001 -1.724143e+001 -2.838755e+001
3021875000 -2.091096e+001 2.934504e+001 -3.041513e+001 -4.400814e+001 -8.615641e+001 8.844324e-001 -1.711889e+001 -2.462562e+001
3022968750 -2.025739e+001 3.845695e+001 -2.963709e+001 -1.093665e+002 -1.009061e+002 -2.943022e+001 -1.715040e+001 -2.075990e+001
3024062500 -1.980885e+001 4.736818e+001 -2.939404e+001 -1.751087e+002 -9.841048e+001 7.388028e+001 -1.730721e+001 -1.681243e+001
3025156250 -1.954235e+001 5.632564e+001 -2.968334e+001 1.175855e+002 -9.250305e+001 -7.945850e+001 -1.761985e+001 -1.309441e+001
3026250000 -1.946856e+001 6.501423e+001 -3.023743e+001 4.753944e+001 -9.918544e+001 1.072805e+002 -1.809622e+001 -9.566785e+000
3027343750 -1.958639e+001 7.363482e+001 -3.056349e+001 -2.644410e+001 -8.264114e+001 1.630909e+002 -1.875989e+001 -6.534280e+000
3028437500 -1.986872e+001 8.215819e+001 -3.030688e+001 -1.039871e+002 -8.638274e+001 -1.776509e+002 -1.957611e+001 -4.431546e+000
3029531250 -2.038281e+001 9.055507e+001 -2.933564e+001 1.787227e+002 -9.126128e+001 -1.473881e+001 -2.058385e+001 -3.654003e+000
3030625000 -2.107871e+001 9.902086e+001 -2.806767e+001 1.038704e+002 -7.912479e+001 1.590977e+002 -2.173451e+001 -4.690902e+000
3031718750 -2.206116e+001 1.073023e+002 -2.697190e+001 3.139655e+001 -8.159287e+001 2.720235e+001 -2.300040e+001 -8.490115e+000
3032812500 -2.335770e+001 1.154949e+002 -2.634270e+001 -4.006604e+001 -8.566441e+001 -1.449305e+002 -2.408202e+001 -1.615484e+001
3033906250 -2.507281e+001 1.235844e+002 -2.620441e+001 -1.114780e+002 -8.195492e+001 -7.756613e+001 -2.470063e+001 -2.718815e+001
3035000000 -2.742353e+001 1.314419e+002 -2.655395e+001 1.753045e+002 -8.260258e+001 -8.520012e+001 -2.447264e+001 -3.917868e+001
3036093750 -3.094167e+001 1.383710e+002 -2.718934e+001 9.898346e+001 -8.861076e+001 1.526117e+002 -2.358332e+001 -4.875849e+001
3037187500 -3.720696e+001 1.434504e+002 -2.778706e+001 1.798883e+001 -8.135104e+001 1.600574e+001 -2.242048e+001 -5.437395e+001
3038281250 -5.382974e+001 4.300240e+001 -2.796808e+001 -6.503848e+001 -8.953838e+001 -1.205390e+002 -2.120857e+001 -5.672680e+001
3039375000 -3.622520e+001 -6.104064e+000 -2.774365e+001 -1.466334e+002 -8.830340e+001 -1.128644e+002 -2.015755e+001 -5.675567e+001
3040468750 -3.070893e+001 -4.849674e-001 -2.754244e+001 1.355864e+002 -8.337241e+001 4.787740e+001 -1.927856e+001 -5.496270e+001
3041562500 -2.752468e+001 7.151404e+000 -2.785025e+001 6.182066e+001 -9.159464e+001 1.743115e+002 -1.858542e+001 -5.209827e+001
3042656250 -2.536151e+001 1.515659e+001 -2.894925e+001 -9.223068e+000 -8.131166e+001 4.593354e+001 -1.806373e+001 -4.840688e+001
3043750000 -2.385402e+001 2.335246e+001 -3.108004e+001 -7.869083e+001 -8.593379e+001 6.248426e+001 -1.770942e+001 -4.431519e+001
3044843750 -2.275170e+001 3.212972e+001 -3.456410e+001 -1.456197e+002 -8.952709e+001 -9.494632e+001 -1.751980e+001 -4.013109e+001
3045937500 -2.197867e+001 4.074147e+001 -3.961737e+001 1.520150e+002 -8.443124e+001 8.106400e+001 -1.748768e+001 -3.558518e+001
3047031250 -2.145058e+001 4.970427e+001 -4.548040e+001 9.624023e+001 -8.166765e+001 1.566429e+002 -1.761573e+001 -3.125515e+001
3048125000 -2.117406e+001 5.870094e+001 -4.782969e+001 3.508067e+001 -8.604151e+001 1.406068e+002 -1.789811e+001 -2.713608e+001
3049218750 -2.107991e+001 6.808226e+001 -4.498814e+001 -5.027190e+001 -8.733412e+001 -1.257181e+002 -1.835911e+001 -2.309756e+001
3050312500 -2.119096e+001 7.764492e+001 -4.085030e+001 -1.259400e+002 -9.086160e+001 -5.964506e+001 -1.903099e+001 -1.976497e+001
3051406250 -2.151201e+001 8.771976e+001 -3.814198e+001 1.678711e+002 -8.023209e+001 -1.220498e+002 -1.986553e+001 -1.734505e+001
3052500000 -2.202212e+001 9.816037e+001 -3.667693e+001 1.089007e+002 -8.207877e+001 -6.669821e+001 -2.094487e+001 -1.629311e+001
3053593750 -2.277834e+001 1.094105e+002 -3.582971e+001 5.615543e+001 -8.147495e+001 -1.295368e+002 -2.223274e+001 -1.735206e+001
3054687500 -2.374460e+001 1.218404e+002 -3.498849e+001 4.531490e+000 -8.281695e+001 -6.910218e+001 -2.363860e+001 -2.182179e+001
3055781250 -2.496706e+001 1.359653e+002 -3.410530e+001 -4.989165e+001 -7.993732e+001 -1.450497e+002 -2.488615e+001 -3.093843e+001
3056875000 -2.641233e+001 1.527779e+002 -3.369627e+001 -1.097567e+002 -8.488752e+001 -4.594820e+001 -2.549622e+001 -4.431556e+001
3057968750 -2.793380e+001 1.739703e+002 -3.381067e+001 -1.744452e+002 -9.315215e+001 8.101698e+000 -2.501581e+001 -5.851083e+001
3059062500 -2.914919e+001 -1.594152e+002 -3.422303e+001 1.141800e+002 -9.162193e+001 -1.648208e+002 -2.373237e+001 -6.874052e+001
3060156250 -2.930568e+001 -1.292175e+002 -3.414454e+001 3.587652e+001 -8.537076e+001 -3.399020e+001 -2.224192e+001 -7.417651e+001
3061250000 -2.836372e+001 -1.010851e+002 -3.287822e+001 -4.641050e+001 -8.768098e+001 1.578546e+002 -2.079990e+001 -7.594469e+001
3062343750 -2.686032e+001 -7.830566e+001 -3.098380e+001 -1.252785e+002 -7.871976e+001 7.405556e+001 -1.958379e+001 -7.502142e+001
3063437500 -2.539280e+001 -6.022523e+001 -2.927458e+001 1.607598e+002 -8.469352e+001 3.638949e+001 -1.854735e+001 -7.264120e+001
3064531250 -2.406045e+001 -4.556786e+001 -2.803870e+001 9.054582e+001 -8.638298e+001 1.706806e+002 -1.773153e+001 -6.933865e+001
3065625000 -2.299941e+001 -3.296808e+001 -2.718317e+001 2.155770e+001 -9.645420e+001 -9.781252e+001 -1.707979e+001 -6.520317e+001
3066718750 -2.220170e+001 -2.146311e+001 -2.677375e+001 -4.854551e+001 -8.511983e+001 1.780505e+002 -1.659035e+001 -6.066415e+001
3067812500 -2.160604e+001 -1.093030e+001 -2.666288e+001 -1.218145e+002 -8.627966e+001 -1.182749e+002 -1.625394e+001 -5.584038e+001
3068906250 -2.120233e+001 -1.141223e+000 -2.671786e+001 1.604939e+002 -8.998849e+001 -3.939725e+001 -1.603924e+001 -5.079264e+001
3070000000 -2.102262e+001 8.354218e+000 -2.654210e+001 7.930468e+001 -1.136449e+002 -9.585726e+000 -1.596810e+001 -4.584476e+001
3071093750 -2.101517e+001 1.738414e+001 -2.602244e+001 -2.706774e+000 -8.467852e+001 -5.608977e+001 -1.603364e+001 -4.072140e+001
3072187500 -2.119502e+001 2.616927e+001 -2.525137e+001 -8.254811e+001 -8.835588e+001 9.200558e+001 -1.623089e+001 -3.578701e+001
3073281250 -2.156899e+001 3.452150e+001 -2.467762e+001 -1.600219e+002 -9.828546e+001 -1.031481e+002 -1.656754e+001 -3.089992e+001
3074375000 -2.217501e+001 4.249919e+001 -2.463776e+001 1.240560e+002 -8.780582e+001 -8.271056e+001 -1.702786e+001 -2.635017e+001
3075468750 -2.302684e+001 5.009926e+001 -2.526773e+001 4.846529e+001 -9.211151e+001 5.955106e+001 -1.763847e+001 -2.225216e+001
3076562500 -2.421563e+001 5.717333e+001 -2.649302e+001 -2.801131e+001 -8.693121e+001 -1.319051e+002 -1.840608e+001 -1.882476e+001
3077656250 -2.578352e+001 6.332645e+001 -2.805495e+001 -1.072174e+002 -9.088599e+001 1.060487e+002 -1.934573e+001 -1.624887e+001
3078750000 -2.794114e+001 6.792624e+001 -2.933079e+001 1.689603e+002 -9.636446e+001 4.409185e+001 -2.049757e+001 -1.486686e+001
3079843750 -3.092701e+001 6.922655e+001 -2.981485e+001 8.302166e+001 -7.974620e+001 3.804923e+000 -2.179692e+001 -1.542391e+001
3080937500 -3.525838e+001 5.975795e+001 -2.977406e+001 1.031997e+000 -9.149721e+001 1.609962e+002 -2.325359e+001 -1.869525e+001
3082031250 -3.866405e+001 1.732171e+001 -2.994019e+001 -7.443226e+001 -8.348582e+001 -9.260493e+001 -2.463446e+001 -2.575873e+001
3083125000 -3.487051e+001 -2.212671e+001 -3.077080e+001 -1.438415e+002 -9.132033e+001 7.655997e+001 -2.560222e+001 -3.699286e+001
3084218750 -3.065872e+001 -3.074975e+001 -3.233476e+001 1.515390e+002 -8.223470e+001 1.786125e+002 -2.575812e+001 -5.041718e+001
3085312500 -2.777756e+001 -2.960253e+001 -3.459452e+001 8.881327e+001 -9.242825e+001 1.231321e+002 -2.502370e+001 -6.174594e+001
3086406250 -2.568733e+001 -2.472873e+001 -3.784383e+001 2.237967e+001 -8.028147e+001 1.304090e+002 -2.388330e+001 -6.919614e+001
3087500000 -2.414367e+001 -1.891020e+001 -4.270951e+001 -6.038665e+001 -8.317053e+001 1.309282e+002 -2.267699e+001 -7.314258e+001
3088593750 -2.301373e+001 -1.203908e+001 -4.471516e+001 -1.787137e+002 -9.368645e+001 4.620738e+001 -2.158542e+001 -7.410498e+001
3089687500 -2.216121e+001 -4.830033e+000 -4.086179e+001 8.759796e+001 -9.659254e+001 3.038330e+001 -2.066193e+001 -7.356886e+001
3090781250 -2.158816e+001 2.724978e+000 -3.873903e+001 1.996427e+001 -7.810575e+001 1.351337e+002 -1.992586e+001 -7.207605e+001
3091875000 -2.122357e+001 1.051737e+001 -3.803705e+001 -3.537307e+001 -8.616699e+001 7.643902e+000 -1.933755e+001 -6.958726e+001
3092968750 -2.104741e+001 1.844078e+001 -3.779926e+001 -8.331409e+001 -8.672265e+001 -1.310944e+002 -1.892902e+001 -6.685200e+001
3094062500 -2.108300e+001 2.643525e+001 -3.725244e+001 -1.314147e+002 -8.735793e+001 8.035711e+001 -1.863886e+001 -6.390261e+001
3095156250 -2.129987e+001 3.463861e+001 -3.708430e+001 1.732892e+002 -8.699252e+001 -1.913302e+001 -1.845703e+001 -6.084499e+001
3096250000 -2.170662e+001 4.300312e+001 -3.850900e+001 1.079907e+002 -9.005849e+001 1.166864e+002 -1.839643e+001 -5.789079e+001
3097343750 -2.233693e+001 5.164870e+001 -4.290252e+001 2.302304e+001 -8.980888e+001 1.378787e+001 -1.841432e+001 -5.501457e+001
3098437500 -2.322605e+001 6.037188e+001 -4.409392e+001 -1.160521e+002 -8.336046e+001 1.383102e+002 -1.852342e+001 -5.255541e+001
3099531250 -2.438300e+001 6.964064e+001 -3.815165e+001 1.457009e+002 -8.154070e+001 1.092094e+002 -1.868776e+001 -5.028668e+001
3100625000 -2.596458e+001 7.921174e+001 -3.511536e+001 7.469991e+001 -8.455087e+001 -9.390850e+001 -1.890784e+001 -4.849957e+001
3101718750 -2.802480e+001 8.976748e+001 -3.397100e+001 1.236859e+001 -8.934954e+001 -9.464915e+001 -1.916764e+001 -4.711046e+001
3102812500 -3.093769e+001 1.031231e+002 -3.362410e+001 -4.536512e+001 -9.044689e+001 -1.645755e+002 -1.946683e+001 -4.625756e+001
3103906250 -3.521014e+001 1.232465e+002 -3.370737e+001 -1.030513e+002 -8.513467e+001 -1.355701e+001 -1.975562e+001 -4.578794e+001
3105000000 -4.062760e+001 1.737801e+002 -3.410591e+001 -1.635458e+002 -8.732791e+001 1.254499e+002 -2.004421e+001 -4.562104e+001
3106093750 -3.794349e+001 -1.153222e+002 -3.484980e+001 1.273478e+002 -8.231665e+001 -1.707001e+002 -2.031993e+001 -4.596097e+001
3107187500 -3.298523e+001 -8.645168e+001 -3.512217e+001 4.424840e+001 -9.203676e+001 3.305024e+001 -2.055230e+001 -4.618211e+001
3108281250 -2.981765e+001 -7.080451e+001 -3.354076e+001 -4.695943e+001 -1.011095e+002 1.182563e+002 -2.076637e+001 -4.678613e+001
3109375000 -2.762465e+001 -5.904258e+001 -3.065012e+001 -1.316267e+002 -8.346358e+001 -7.061772e+001 -2.094817e+001 -4.732630e+001
3110468750 -2.606685e+001 -4.897178e+001 -2.808320e+001 1.520483e+002 -8.243501e+001 1.067253e+002 -2.109935e+001 -4.770572e+001
3111562500 -2.492712e+001 -3.956797e+001 -2.634764e+001 7.989826e+001 -8.530052e+001 -7.020889e+000 -2.123165e+001 -4.826157e+001
3112656250 -2.416113e+001 -3.086766e+001 -2.542198e+001 9.041994e+000 -8.922553e+001 1.761091e+002 -2.138961e+001 -4.870900e+001
3113750000 -2.367847e+001 -2.229480e+001 -2.523155e+001 -6.232490e+001 -8.059896e+001 -5.410025e+001 -2.158485e+001 -4.922803e+001
3114843750 -2.344818e+001 -1.406814e+001 -2.566849e+001 -1.354301e+002 -8.256321e+001 1.174826e+002 -2.179498e+001 -4.988570e+001
3115937500 -2.344592e+001 -5.919953e+000 -2.642791e+001 1.484635e+002 -8.343444e+001 1.125285e+002 -2.204082e+001 -5.072455e+001
3117031250 -2.367683e+001 2.061778e+000 -2.697173e+001 6.865943e+001 -8.886861e+001 1.380112e+002 -2.231446e+001 -5.216439e+001
3118125000 -2.413218e+001 9.886488e+000 -2.685368e+001 -1.263674e+001 -8.870303e+001 -9.537482e+001 -2.257345e+001 -5.364384e+001
3119218750 -2.487862e+001 1.746270e+001 -2.618205e+001 -9.124907e+001 -9.279540e+001 9.242710e+001 -2.279657e+001 -5.577831e+001
3120312500 -2.591470e+001 2.472091e+001 -2.542848e+001 -1.652359e+002 -8.849340e+001 1.379098e+002 -2.297517e+001 -5.844698e+001
3121406250 -2.739772e+001 3.145333e+001 -2.492256e+001 1.245770e+002 -8.000215e+001 1.415680e+002 -2.300421e+001 -6.143796e+001
3122500000 -2.941422e+001 3.761680e+001 -2.471819e+001 5.674267e+001 -7.918181e+001 7.525855e+001 -2.289849e+001 -6.447187e+001
3123593750 -3.229943e+001 4.154539e+001 -2.483358e+001 -9.893661e+000 -9.963047e+001 -3.982448e+001 -2.269115e+001 -6.716798e+001
3124687500 -3.694086e+001 4.005373e+001 -2.509775e+001 -7.691695e+001 -8.759418e+001 1.059741e+002 -2.236220e+001 -6.931522e+001
3125781250 -4.453682e+001 3.551030e+000 -2.538139e+001 -1.459911e+002 -9.438743e+001 -5.735530e+001 -2.197978e+001 -7.058916e+001
3126875000 -3.994368e+001 -6.920118e+001 -2.547945e+001 1.418403e+002 -8.817435e+001 -5.493382e+001 -2.158208e+001 -7.100536e+001
3127968750 -3.407019e+001 -7.856679e+001 -2.529489e+001 6.687498e+001 -8.295782e+001 1.469268e+002 -2.116849e+001 -7.057558e+001
3129062500 -3.050001e+001 -7.549881e+001 -2.488816e+001 -8.558540e+000 -8.503651e+001 -2.462127e+001 -2.081834e+001 -6.930322e+001
3130156250 -2.814474e+001 -7.029433e+001 -2.432828e+001 -8.232537e+001 -9.049741e+001 4.185559e+001 -2.051847e+001 -6.719080e+001
3131250000 -2.644750e+001 -6.420779e+001 -2.375874e+001 -1.531539e+002 -8.107872e+001 -1.705889e+002 -2.032364e+001 -6.485539e+001
3132343750 -2.523480e+001 -5.756688e+001 -2.318557e+001 1.378124e+002 -8.137468e+001 3.237901e+001 -2.025242e+001 -6.183885e+001
3133437500 -2.434875e+001 -5.047084e+001 -2.261965e+001 6.855488e+001 -8.851428e+001 -4.927298e+001 -2.025640e+001 -5.850205e+001
3134531250 -2.374399e+001 -4.328028e+001 -2.222970e+001 -2.454928e+000 -8.360786e+001 -1.680669e+002 -2.040910e+001 -5.498167e+001
3135625000 -2.337869e+001 -3.591114e+001 -2.204194e+001 -7.537167e+001 -8.138226e+001 7.057698e+001 -2.070890e+001 -5.123481e+001
3136718750 -2.325330e+001 -2.866622e+001 -2.193921e+001 -1.496729e+002 -8.210483e+001 -1.730188e+002 -2.114655e+001 -4.763699e+001
3137812500 -2.331436e+001 -2.149820e+001 -2.174005e+001 1.352138e+002 -8.631290e+001 2.256432e+001 -2.177715e+001 -4.415282e+001
3138906250 -2.360044e+001 -1.441114e+001 -2.133459e+001 6.017539e+001 -9.119508e+001 -1.869794e+001 -2.259600e+001 -4.124639e+001
3140000000 -2.413152e+001 -7.408969e+000 -2.085138e+001 -1.438675e+001 -8.487751e+001 6.023663e+001 -2.366373e+001 -3.912417e+001
3141093750 -2.493528e+001 -8.289633e-001 -2.046548e+001 -8.831246e+001 -9.294788e+001 1.175825e+002 -2.503053e+001 -3.830989e+001
3142187500 -2.604114e+001 5.647588e+000 -2.031869e+001 -1.617347e+002 -8.619111e+001 -8.559386e+001 -2.672942e+001 -3.986535e+001
3143281250 -2.758553e+001 1.100825e+001 -2.039795e+001 1.251359e+002 -1.061463e+002 -4.534025e+000 -2.874105e+001 -4.630082e+001
3144375000 -2.965317e+001 1.527120e+001 -2.065656e+001 5.135988e+001 -9.746788e+001 2.819957e+001 -3.059031e+001 -6.031489e+001
3145468750 -3.268907e+001 1.606834e+001 -2.099127e+001 -2.377155e+001 -9.189951e+001 -6.916308e+000 -3.117607e+001 -8.175658e+001
3146562500 -3.705278e+001 6.231502e+000 -2.137489e+001 -1.000154e+002 -7.957012e+001 1.686611e+002 -2.992676e+001 -1.010979e+002
3147656250 -4.086962e+001 -3.777039e+001 -2.169886e+001 -1.763897e+002 -8.333972e+001 -1.595888e+002 -2.787733e+001 -1.117194e+002
3148750000 -3.674522e+001 -7.925626e+001 -2.192577e+001 1.086329e+002 -9.421346e+001 -2.364160e+001 -2.589645e+001 -1.158122e+002
3149843750 -3.234466e+001 -8.815765e+001 -2.208652e+001 3.600601e+001 -9.981885e+001 1.473875e+002 -2.428921e+001 -1.158237e+002
3150937500 -2.937500e+001 -8.734040e+001 -2.226875e+001 -3.459892e+001 -8.836493e+001 -1.604202e+002 -2.298143e+001 -1.138157e+002
3152031250 -2.724142e+001 -8.315670e+001 -2.265871e+001 -1.045420e+002 -9.363828e+001 -6.474689e+001 -2.195615e+001 -1.107048e+002
3153125000 -2.565737e+001 -7.750576e+001 -2.339470e+001 -1.747423e+002 -8.285902e+001 1.170335e+002 -2.112324e+001 -1.067616e+002
3154218750 -2.451222e+001 -7.104094e+001 -2.456660e+001 1.149536e+002 -8.203802e+001 -2.960610e+001 -2.055887e+001 -1.024195e+002
3155312500 -2.364708e+001 -6.426803e+001 -2.597451e+001 4.430598e+001 -8.124855e+001 -2.714705e+001 -2.017453e+001 -9.785485e+001
3156406250 -2.302509e+001 -5.712975e+001 -2.727955e+001 -2.775064e+001 -8.460040e+001 1.729596e+002 -1.995524e+001 -9.328261e+001
3157500000 -2.263050e+001 -4.985659e+001 -2.815744e+001 -1.010129e+002 -8.404397e+001 -1.533732e+002 -1.993022e+001 -8.852776e+001
3158593750 -2.245137e+001 -4.257520e+001 -2.858611e+001 -1.736593e+002 -9.242134e+001 1.663914e+002 -2.004170e+001 -8.411644e+001
3159687500 -2.246234e+001 -3.520859e+001 -2.869421e+001 1.170225e+002 -8.218532e+001 -2.010841e+001 -2.032872e+001 -7.994015e+001
3160781250 -2.261871e+001 -2.768435e+001 -2.877892e+001 5.208990e+001 -8.681419e+001 1.020434e+002 -2.080591e+001 -7.630272e+001
3161875000 -2.303005e+001 -1.995839e+001 -2.887362e+001 -8.048149e+000 -8.022716e+001 -2.358344e+001 -2.140047e+001 -7.348895e+001
3162968750 -2.363080e+001 -1.216359e+001 -2.892250e+001 -6.434697e+001 -9.145807e+001 1.767543e+002 -2.218080e+001 -7.199663e+001
3164062500 -2.447227e+001 -4.613384e+000 -2.866285e+001 -1.190190e+002 -8.524894e+001 9.423919e+001 -2.309946e+001 -7.231538e+001
