!Agilent Technologies,E8363B,MY43030572,A.06.04.32
!Agilent E8363B: A.06.04.32
!Date: Tuesday, June 07, 2011 08:35:29
!Correction: S11(Full 2 Port(1,2)) S21(Full 2 Port(1,2)) S12(Full 2 Port(1,2)) S22(Full 2 Port(1,2)) 
!S2P File: Measurements: S11, S21, S12, S22:
# Hz S  dB   R 50
3000000000 -2.148518e+001 5.724060e+001 -1.953230e+001 -8.506719e+001 -8.684727e+001 -7.743428e+001 -1.660599e+001 -1.935835e+001
3001093750 -2.098838e+001 6.577502e+001 -1.940545e+001 -1.571046e+002 -7.842568e+001 -6.207481e+001 -1.681599e+001 -1.626964e+001
3002187500 -2.072107e+001 7.465250e+001 -1.872704e+001 1.328085e+002 -8.381914e+001 -5.216378e+001 -1.708050e+001 -1.282900e+001
3003281250 -2.064920e+001 8.356892e+001 -1.830923e+001 6.034596e+001 -8.798694e+001 1.604292e+002 -1.746678e+001 -9.770253e+000
3004375000 -2.076184e+001 9.259411e+001 -1.810078e+001 -1.431102e+001 -8.854632e+001 4.833439e+001 -1.799111e+001 -7.419818e+000
3005468750 -2.106791e+001 1.016596e+002 -1.800719e+001 -9.046573e+001 -7.850980e+001 -1.779410e+002 -1.861191e+001 -6.018765e+000
3006562500 -2.161483e+001 1.109996e+002 -1.788590e+001 -1.664357e+002 -8.429833e+001 6.773291e+001 -1.934240e+001 -5.708661e+000
3007656250 -2.242728e+001 1.204102e+002 -1.766180e+001 1.190321e+002 -8.547160e+001 -6.545834e+001 -2.012232e+001 -7.167719e+000
3008750000 -2.351111e+001 1.304655e+002 -1.734783e+001 4.650821e+001 -7.901268e+001 1.090781e+002 -2.086735e+001 -1.037270e+001
3009843750 -2.500778e+001 1.414646e+002 -1.703285e+001 -2.446753e+001 -8.293204e+001 7.722548e+001 -2.144360e+001 -1.547253e+001
3010937500 -2.705250e+001 1.540194e+002 -1.681687e+001 -9.487954e+001 -8.576134e+001 1.724278e+002 -2.171254e+001 -2.186343e+001
3012031250 -2.984056e+001 1.702499e+002 -1.685104e+001 -1.653912e+002 -8.279063e+001 8.542288e+001 -2.160682e+001 -2.838290e+001
3013125000 -3.374134e+001 -1.632766e+002 -1.713915e+001 1.237890e+002 -8.269650e+001 7.232567e+001 -2.111874e+001 -3.391048e+001
3014218750 -3.665778e+001 -1.090210e+002 -1.759407e+001 5.232545e+001 -8.755444e+001 -1.162146e+002 -2.042046e+001 -3.749032e+001
3015312500 -3.352122e+001 -5.576254e+001 -1.800375e+001 -2.021923e+001 -7.923587e+001 1.101824e+002 -1.968052e+001 -3.920161e+001
3016406250 -2.957795e+001 -2.948319e+001 -1.824580e+001 -9.394867e+001 -9.486707e+001 -2.301044e+001 -1.895959e+001 -3.916285e+001
3017500000 -2.669441e+001 -1.356935e+001 -1.827493e+001 -1.681329e+002 -8.487130e+001 -1.468659e+002 -1.834245e+001 -3.794766e+001
3018593750 -2.458744e+001 -1.037210e+000 -1.815983e+001 1.183419e+002 -8.561816e+001 8.227612e+001 -1.784758e+001 -3.560890e+001
3019687500 -2.299867e+001 9.791570e+000 -1.799092e+001 4.633226e+001 -8.074471e+001 -1.248043e+002 -1.746629e+001 -3.259235e+001
3020781250 -2.177856e+001 1.974650e+001 -1.786963e+001 -2.411950e+001 -7.842445e+001 -1.476391e+002 -1.722656e+001 -2.910135e+001
3021875000 -2.089303e+001 2.928755e+001 -1.787346e+001 -9.382702e+001 -9.033359e+001 -7.430985e+001 -1.712269e+001 -2.528858e+001
3022968750 -2.024076e+001 3.840157e+001 -1.806573e+001 -1.639004e+002 -9.036468e+001 1.817867e+001 -1.715884e+001 -2.143575e+001
3024062500 -1.979368e+001 4.727707e+001 -1.850667e+001 1.248955e+002 -8.446983e+001 1.225850e+002 -1.733736e+001 -1.745976e+001
3025156250 -1.953500e+001 5.627665e+001 -1.917842e+001 5.227507e+001 -9.937759e+001 7.615924e+001 -1.766355e+001 -1.362967e+001
3026250000 -1.947016e+001 6.491843e+001 -1.998542e+001 -2.133087e+001 -1.012076e+002 1.073311e+002 -1.814019e+001 -1.018799e+001
3027343750 -1.957757e+001 7.347585e+001 -2.076938e+001 -9.476154e+001 -9.067065e+001 1.756917e+002 -1.879394e+001 -7.108182e+000
3028437500 -1.986922e+001 8.200705e+001 -2.134240e+001 -1.663721e+002 -8.625403e+001 2.690296e+001 -1.961382e+001 -5.172501e+000
3029531250 -2.037735e+001 9.039848e+001 -2.166881e+001 1.247182e+002 -7.967118e+001 -4.612968e+001 -2.061828e+001 -4.496886e+000
3030625000 -2.108746e+001 9.886718e+001 -2.182161e+001 5.864380e+001 -8.478597e+001 1.656779e+002 -2.179461e+001 -5.709671e+000
3031718750 -2.206662e+001 1.071680e+002 -2.183053e+001 -5.234177e+000 -8.373714e+001 1.419438e+001 -2.305127e+001 -9.822994e+000
3032812500 -2.335012e+001 1.153305e+002 -2.176725e+001 -6.825377e+001 -7.985038e+001 1.083365e+002 -2.415669e+001 -1.765213e+001
3033906250 -2.509418e+001 1.233774e+002 -2.169059e+001 -1.318170e+002 -8.342860e+001 7.838602e+001 -2.472265e+001 -2.886913e+001
3035000000 -2.745820e+001 1.309829e+002 -2.160217e+001 1.629817e+002 -7.931081e+001 -8.389362e+001 -2.449055e+001 -4.090590e+001
3036093750 -3.098290e+001 1.381648e+002 -2.156499e+001 9.491405e+001 -8.567602e+001 -6.671957e+001 -2.356368e+001 -5.005505e+001
3037187500 -3.730102e+001 1.422751e+002 -2.154374e+001 2.380754e+001 -7.955957e+001 -2.067882e+001 -2.237866e+001 -5.547623e+001
3038281250 -5.321477e+001 3.929732e+001 -2.146819e+001 -4.924324e+001 -7.870106e+001 1.625450e+002 -2.116909e+001 -5.749660e+001
3039375000 -3.614112e+001 -6.446775e+000 -2.121289e+001 -1.225352e+002 -1.091176e+002 1.467507e+002 -2.011760e+001 -5.743678e+001
3040468750 -3.064770e+001 -5.018815e-001 -2.080532e+001 1.656221e+002 -8.258758e+001 5.564429e+001 -1.924116e+001 -5.565022e+001
3041562500 -2.747464e+001 6.939332e+000 -2.028906e+001 9.601018e+001 -8.468305e+001 -6.729707e+001 -1.853758e+001 -5.270913e+001
3042656250 -2.535469e+001 1.504723e+001 -1.977087e+001 2.778996e+001 -8.690227e+001 8.087295e+001 -1.803356e+001 -4.914319e+001
3043750000 -2.383457e+001 2.321367e+001 -1.935853e+001 -3.985476e+001 -9.006264e+001 -1.521569e+002 -1.768800e+001 -4.507487e+001
3044843750 -2.273944e+001 3.185870e+001 -1.911288e+001 -1.076341e+002 -8.172112e+001 3.311573e+001 -1.751853e+001 -4.084573e+001
3045937500 -2.196452e+001 4.057384e+001 -1.899197e+001 -1.762012e+002 -8.779927e+001 -1.463235e+002 -1.749331e+001 -3.633575e+001
3047031250 -2.143547e+001 4.956416e+001 -1.892207e+001 1.136652e+002 -8.590687e+001 1.607666e+002 -1.763469e+001 -3.190133e+001
3048125000 -2.115702e+001 5.862131e+001 -1.879739e+001 4.145416e+001 -9.004937e+001 -7.052278e+001 -1.792248e+001 -2.767196e+001
3049218750 -2.106808e+001 6.795527e+001 -1.855714e+001 -3.267879e+001 -7.896241e+001 6.595605e+001 -1.839958e+001 -2.373510e+001
3050312500 -2.119856e+001 7.750263e+001 -1.821260e+001 -1.075601e+002 -9.337111e+001 4.130229e+001 -1.905912e+001 -2.036257e+001
3051406250 -2.151311e+001 8.751653e+001 -1.785321e+001 1.780729e+002 -8.966439e+001 -1.249395e+002 -1.991417e+001 -1.812117e+001
3052500000 -2.201916e+001 9.804581e+001 -1.756112e+001 1.050665e+002 -8.255018e+001 1.593783e+002 -2.100544e+001 -1.713867e+001
3053593750 -2.278819e+001 1.092419e+002 -1.742120e+001 3.314643e+001 -7.993969e+001 6.439366e+001 -2.229821e+001 -1.835533e+001
3054687500 -2.376261e+001 1.218247e+002 -1.749002e+001 -3.813155e+001 -8.506062e+001 -1.352114e+002 -2.370429e+001 -2.312939e+001
3055781250 -2.500489e+001 1.357551e+002 -1.780641e+001 -1.095618e+002 -8.193993e+001 1.124977e+002 -2.492272e+001 -3.234060e+001
3056875000 -2.642896e+001 1.527218e+002 -1.833640e+001 1.782280e+002 -8.553979e+001 -6.476881e+001 -2.548031e+001 -4.600980e+001
3057968750 -2.797252e+001 1.739104e+002 -1.905953e+001 1.048338e+002 -7.986209e+001 8.297516e+001 -2.497364e+001 -6.010234e+001
3059062500 -2.917339e+001 -1.590303e+002 -1.984538e+001 3.074178e+001 -8.289127e+001 6.501091e+001 -2.364329e+001 -6.997102e+001
3060156250 -2.930868e+001 -1.289244e+002 -2.063494e+001 -4.311245e+001 -8.373766e+001 9.766369e+001 -2.215012e+001 -7.521842e+001
3061250000 -2.834268e+001 -1.006607e+002 -2.133939e+001 -1.146823e+002 -8.343851e+001 2.218756e+001 -2.072741e+001 -7.681275e+001
3062343750 -2.683047e+001 -7.818990e+001 -2.187492e+001 1.771953e+002 -8.033971e+001 8.304353e+001 -1.951579e+001 -7.572199e+001
3063437500 -2.537932e+001 -6.017380e+001 -2.221517e+001 1.124122e+002 -8.963587e+001 1.613392e+002 -1.850426e+001 -7.335719e+001
3064531250 -2.402536e+001 -4.553201e+001 -2.234582e+001 4.990242e+001 -8.441519e+001 -1.722944e+002 -1.769062e+001 -6.992885e+001
3065625000 -2.299039e+001 -3.286919e+001 -2.227431e+001 -1.201579e+001 -8.298842e+001 -1.224402e+002 -1.704661e+001 -6.580892e+001
3066718750 -2.218255e+001 -2.143460e+001 -2.206641e+001 -7.482016e+001 -9.935811e+001 -1.021053e+002 -1.656596e+001 -6.124505e+001
3067812500 -2.158300e+001 -1.101231e+001 -2.181544e+001 -1.399954e+002 -8.326745e+001 -2.184389e+001 -1.623362e+001 -5.641085e+001
3068906250 -2.117905e+001 -1.153848e+000 -2.148436e+001 1.522653e+002 -9.721781e+001 -3.448387e+001 -1.603530e+001 -5.134100e+001
3070000000 -2.101331e+001 8.220326e+000 -2.106636e+001 8.178005e+001 -8.400105e+001 -1.372519e+002 -1.596022e+001 -4.633305e+001
3071093750 -2.100085e+001 1.730769e+001 -2.052115e+001 9.441741e+000 -8.776105e+001 1.733302e+002 -1.604355e+001 -4.127866e+001
3072187500 -2.117678e+001 2.604312e+001 -1.989028e+001 -6.346513e+001 -8.285528e+001 -6.793538e+001 -1.623853e+001 -3.627305e+001
3073281250 -2.156145e+001 3.441046e+001 -1.927626e+001 -1.360793e+002 -8.053145e+001 -1.238363e+001 -1.657912e+001 -3.152857e+001
3074375000 -2.217248e+001 4.241530e+001 -1.883810e+001 1.522314e+002 -9.335191e+001 -2.199957e+001 -1.705100e+001 -2.696740e+001
3075468750 -2.302403e+001 4.992361e+001 -1.864338e+001 8.174024e+001 -7.848495e+001 -6.999455e+001 -1.768092e+001 -2.288439e+001
3076562500 -2.422280e+001 5.697166e+001 -1.863400e+001 1.226248e+001 -8.352384e+001 1.239219e+002 -1.846951e+001 -1.945431e+001
3077656250 -2.577424e+001 6.310905e+001 -1.872888e+001 -5.696321e+001 -9.349655e+001 1.326181e+002 -1.943837e+001 -1.683581e+001
3078750000 -2.794840e+001 6.777460e+001 -1.883827e+001 -1.269902e+002 -9.377632e+001 -1.187179e+002 -2.057830e+001 -1.559355e+001
3079843750 -3.095162e+001 6.887807e+001 -1.888948e+001 1.615946e+002 -8.156590e+001 6.772609e+001 -2.190298e+001 -1.620095e+001
3080937500 -3.528742e+001 5.891161e+001 -1.882595e+001 8.880585e+001 -8.818997e+001 -1.528991e+001 -2.334188e+001 -1.969386e+001
3082031250 -3.860185e+001 1.722165e+001 -1.862226e+001 1.531070e+001 -8.078683e+001 1.129194e+002 -2.472255e+001 -2.714537e+001
3083125000 -3.478814e+001 -2.210112e+001 -1.836694e+001 -5.783822e+001 -8.945373e+001 -1.603729e+002 -2.562834e+001 -3.857311e+001
3084218750 -3.055278e+001 -3.092645e+001 -1.814729e+001 -1.297275e+002 -8.977594e+001 1.719171e+002 -2.570954e+001 -5.217933e+001
3085312500 -2.773834e+001 -2.965353e+001 -1.806406e+001 1.598134e+002 -8.500333e+001 1.006982e+002 -2.495800e+001 -6.348279e+001
3086406250 -2.566597e+001 -2.477411e+001 -1.813968e+001 9.054698e+001 -8.285507e+001 1.567322e+002 -2.382957e+001 -7.072926e+001
3087500000 -2.411978e+001 -1.901447e+001 -1.831797e+001 2.197599e+001 -8.279552e+001 8.691253e+001 -2.261762e+001 -7.430503e+001
3088593750 -2.299888e+001 -1.211610e+001 -1.852405e+001 -4.661710e+001 -7.907359e+001 1.075606e+002 -2.153648e+001 -7.515204e+001
3089687500 -2.214787e+001 -4.934986e+000 -1.869592e+001 -1.162863e+002 -8.370393e+001 4.271642e+001 -2.063023e+001 -7.446548e+001
3090781250 -2.157366e+001 2.713953e+000 -1.870996e+001 1.727709e+002 -8.704156e+001 -5.267671e+001 -1.988862e+001 -7.273400e+001
3091875000 -2.120457e+001 1.045115e+001 -1.849121e+001 1.003686e+002 -8.681790e+001 1.058933e+002 -1.930702e+001 -7.030110e+001
3092968750 -2.103897e+001 1.830695e+001 -1.809832e+001 2.704958e+001 -8.770263e+001 -7.348457e+001 -1.890237e+001 -6.752586e+001
3094062500 -2.107954e+001 2.631483e+001 -1.766558e+001 -4.619659e+001 -8.159465e+001 1.223276e+002 -1.861701e+001 -6.458498e+001
3095156250 -2.129498e+001 3.450344e+001 -1.735174e+001 -1.188888e+002 -8.506460e+001 -1.057002e+002 -1.843949e+001 -6.151784e+001
3096250000 -2.170010e+001 4.284372e+001 -1.726254e+001 1.694678e+002 -8.224238e+001 2.561120e+001 -1.837862e+001 -5.856725e+001
3097343750 -2.234535e+001 5.145768e+001 -1.743654e+001 9.863286e+001 -7.988689e+001 -7.326992e+001 -1.841189e+001 -5.575125e+001
3098437500 -2.324813e+001 6.025550e+001 -1.778220e+001 2.803017e+001 -9.010226e+001 -1.487594e+002 -1.853201e+001 -5.336030e+001
3099531250 -2.440808e+001 6.933701e+001 -1.823051e+001 -4.313370e+001 -8.471147e+001 -1.513126e+002 -1.871377e+001 -5.110367e+001
3100625000 -2.599279e+001 7.900067e+001 -1.863316e+001 -1.153936e+002 -9.226503e+001 8.974257e+001 -1.893405e+001 -4.928381e+001
3101718750 -2.805542e+001 8.950166e+001 -1.893624e+001 1.710765e+002 -8.927150e+001 -1.750034e+000 -1.921364e+001 -4.790960e+001
3102812500 -3.098926e+001 1.028797e+002 -1.907381e+001 9.721680e+001 -8.996460e+001 -1.674649e+002 -1.950233e+001 -4.697901e+001
3103906250 -3.534501e+001 1.236034e+002 -1.908129e+001 2.406540e+001 -8.531762e+001 -1.773723e+002 -1.979169e+001 -4.652282e+001
3105000000 -4.083401e+001 1.745183e+002 -1.907344e+001 -4.744236e+001 -8.790778e+001 -1.198621e+002 -2.006381e+001 -4.634618e+001
3106093750 -3.784068e+001 -1.144572e+002 -1.916824e+001 -1.176456e+002 -9.212132e+001 -1.762147e+001 -2.033944e+001 -4.667985e+001
3107187500 -3.295375e+001 -8.617232e+001 -1.947875e+001 1.732661e+002 -9.094767e+001 1.507247e+002 -2.055796e+001 -4.712534e+001
3108281250 -2.977081e+001 -7.061626e+001 -2.007365e+001 1.048250e+002 -8.502201e+001 -1.509690e+002 -2.077307e+001 -4.776185e+001
3109375000 -2.757884e+001 -5.909123e+001 -2.087888e+001 3.630036e+001 -8.702283e+001 3.691422e+001 -2.096081e+001 -4.841188e+001
3110468750 -2.603004e+001 -4.901526e+001 -2.177877e+001 -3.302597e+001 -9.091826e+001 7.212810e+001 -2.112084e+001 -4.885308e+001
3111562500 -2.489470e+001 -3.958402e+001 -2.263966e+001 -1.038220e+002 -8.864349e+001 2.619660e+001 -2.126699e+001 -4.937819e+001
3112656250 -2.414719e+001 -3.087054e+001 -2.324443e+001 -1.755355e+002 -9.083270e+001 1.114500e+002 -2.144736e+001 -4.972674e+001
3113750000 -2.365870e+001 -2.240599e+001 -2.341354e+001 1.131155e+002 -9.026256e+001 1.619091e+002 -2.164206e+001 -5.017525e+001
3114843750 -2.343537e+001 -1.415143e+001 -2.319411e+001 4.337733e+001 -8.480612e+001 1.659263e+000 -2.184934e+001 -5.086016e+001
3115937500 -2.344152e+001 -6.031010e+000 -2.283978e+001 -2.454813e+001 -8.812208e+001 -3.187324e+001 -2.209851e+001 -5.167659e+001
3117031250 -2.366436e+001 1.859252e+000 -2.256026e+001 -9.049345e+001 -9.581551e+001 -1.562343e+002 -2.234062e+001 -5.297301e+001
3118125000 -2.414157e+001 9.760827e+000 -2.249100e+001 -1.548959e+002 -8.731725e+001 -1.187122e+002 -2.258871e+001 -5.464825e+001
3119218750 -2.487411e+001 1.735175e+001 -2.258044e+001 1.416256e+002 -8.789990e+001 -9.713235e+001 -2.280652e+001 -5.684203e+001
3120312500 -2.592495e+001 2.443130e+001 -2.276540e+001 7.792973e+001 -8.396476e+001 -1.701666e+002 -2.295573e+001 -5.965746e+001
3121406250 -2.740751e+001 3.122655e+001 -2.293368e+001 1.229208e+001 -8.470478e+001 2.968371e+001 -2.298791e+001 -6.277871e+001
3122500000 -2.944010e+001 3.738138e+001 -2.304718e+001 -5.689827e+001 -9.250484e+001 -7.266410e+001 -2.288364e+001 -6.570535e+001
3123593750 -3.234063e+001 4.092835e+001 -2.304783e+001 -1.293839e+002 -8.883190e+001 2.696753e+001 -2.269834e+001 -6.847105e+001
3124687500 -3.702606e+001 3.934827e+001 -2.274430e+001 1.559305e+002 -8.627497e+001 1.737094e+002 -2.238518e+001 -7.042770e+001
3125781250 -4.434928e+001 1.524193e+000 -2.218715e+001 8.158591e+001 -9.024600e+001 1.341992e+001 -2.199322e+001 -7.166355e+001
3126875000 -3.971870e+001 -6.887654e+001 -2.149178e+001 9.518735e+000 -9.253249e+001 -1.557209e+002 -2.159341e+001 -7.201622e+001
3127968750 -3.396592e+001 -7.829407e+001 -2.078101e+001 -6.039053e+001 -8.323426e+001 -1.737521e+002 -2.116235e+001 -7.149171e+001
3129062500 -3.047331e+001 -7.583376e+001 -2.017962e+001 -1.291718e+002 -8.718483e+001 9.382439e+001 -2.082117e+001 -7.018697e+001
3130156250 -2.811838e+001 -7.042509e+001 -1.980118e+001 1.615269e+002 -8.583968e+001 -6.216050e+001 -2.052131e+001 -6.815727e+001
3131250000 -2.641948e+001 -6.422562e+001 -1.973100e+001 9.082413e+001 -8.253514e+001 -6.316782e+001 -2.033051e+001 -6.565599e+001
3132343750 -2.521042e+001 -5.756319e+001 -2.001612e+001 1.841859e+001 -8.553497e+001 2.796877e+001 -2.026087e+001 -6.270417e+001
3133437500 -2.431809e+001 -5.059832e+001 -2.048145e+001 -5.576102e+001 -8.540558e+001 1.689698e+002 -2.028595e+001 -5.926232e+001
3134531250 -2.372566e+001 -4.339713e+001 -2.092636e+001 -1.313079e+002 -8.549055e+001 1.508726e+002 -2.044237e+001 -5.580191e+001
3135625000 -2.335691e+001 -3.604704e+001 -2.111243e+001 1.527441e+002 -8.379963e+001 -3.791328e+001 -2.075590e+001 -5.212977e+001
3136718750 -2.323139e+001 -2.883558e+001 -2.109702e+001 7.761160e+001 -8.503098e+001 -1.430202e+002 -2.119479e+001 -4.845546e+001
3137812500 -2.331072e+001 -2.160554e+001 -2.105674e+001 3.880316e+000 -9.126826e+001 1.681435e+002 -2.183651e+001 -4.518328e+001
3138906250 -2.360038e+001 -1.454151e+001 -2.122806e+001 -6.811218e+001 -9.463802e+001 1.376244e+002 -2.268750e+001 -4.223310e+001
3140000000 -2.412820e+001 -7.533003e+000 -2.168815e+001 -1.383572e+002 -8.240310e+001 -8.038840e+001 -2.379233e+001 -4.023939e+001
3141093750 -2.493047e+001 -9.171634e-001 -2.250093e+001 1.523777e+002 -7.898177e+001 4.552156e+001 -2.517825e+001 -3.952250e+001
3142187500 -2.603941e+001 5.178917e+000 -2.365672e+001 8.353303e+001 -1.010070e+002 1.094517e+002 -2.689872e+001 -4.145218e+001
3143281250 -2.758702e+001 1.081047e+001 -2.506329e+001 1.497496e+001 -8.230748e+001 1.705919e+002 -2.893249e+001 -4.826751e+001
3144375000 -2.967813e+001 1.481888e+001 -2.638950e+001 -5.219240e+001 -8.364834e+001 -1.153836e+002 -3.072619e+001 -6.301791e+001
3145468750 -3.268994e+001 1.537663e+001 -2.702447e+001 -1.181640e+002 -1.074725e+002 -1.042638e+002 -3.114570e+001 -8.448587e+001
3146562500 -3.706162e+001 5.348390e+000 -2.676342e+001 1.760826e+002 -8.646008e+001 2.771923e+000 -2.971799e+001 -1.030554e+002
3147656250 -4.062939e+001 -3.864570e+001 -2.584403e+001 1.090091e+002 -8.470778e+001 -4.235851e+001 -2.771855e+001 -1.134355e+002
3148750000 -3.659904e+001 -7.953288e+001 -2.484172e+001 4.139316e+001 -8.776192e+001 -9.682989e+001 -2.573112e+001 -1.169127e+002
3149843750 -3.227257e+001 -8.810287e+001 -2.406650e+001 -2.624244e+001 -1.187394e+002 -9.243813e+001 -2.414566e+001 -1.169988e+002
3150937500 -2.933975e+001 -8.727071e+001 -2.350170e+001 -9.375762e+001 -8.330266e+001 1.252633e+002 -2.287616e+001 -1.148377e+002
3152031250 -2.722668e+001 -8.325544e+001 -2.315067e+001 -1.625616e+002 -8.937875e+001 3.037922e+001 -2.187033e+001 -1.117268e+002
3153125000 -2.564137e+001 -7.749696e+001 -2.301506e+001 1.257912e+002 -8.707397e+001 -2.671063e+001 -2.107458e+001 -1.077275e+002
3154218750 -2.449047e+001 -7.111598e+001 -2.308829e+001 5.079198e+001 -8.135681e+001 -1.719867e+002 -2.052075e+001 -1.032938e+002
3155312500 -2.363313e+001 -6.439433e+001 -2.317793e+001 -2.683833e+001 -8.277023e+001 -1.568503e+002 -2.014978e+001 -9.864233e+001
3156406250 -2.301063e+001 -5.727589e+001 -2.311742e+001 -1.054156e+002 -8.995202e+001 -1.092291e+002 -1.995125e+001 -9.392916e+001
3157500000 -2.262685e+001 -5.011586e+001 -2.289541e+001 1.773586e+002 -8.293902e+001 -1.347934e+002 -1.990886e+001 -8.924788e+001
3158593750 -2.244862e+001 -4.271026e+001 -2.267577e+001 1.023445e+002 -8.737456e+001 6.474358e+001 -2.002892e+001 -8.487016e+001
3159687500 -2.244709e+001 -3.533773e+001 -2.270327e+001 2.941402e+001 -8.311445e+001 -9.930771e+001 -2.032257e+001 -8.083128e+001
3160781250 -2.262209e+001 -2.785597e+001 -2.318799e+001 -4.266098e+001 -8.514657e+001 -3.121976e+001 -2.080415e+001 -7.719199e+001
3161875000 -2.303129e+001 -2.010493e+001 -2.425256e+001 -1.142395e+002 -8.894077e+001 5.114722e+001 -2.142594e+001 -7.460358e+001
3162968750 -2.363078e+001 -1.232303e+001 -2.599018e+001 1.735036e+002 -8.566202e+001 -9.857348e+001 -2.221252e+001 -7.318304e+001
3164062500 -2.447111e+001 -4.876549e+000 -2.829685e+001 9.943983e+001 -8.761800e+001 1.234994e+002 -2.314680e+001 -7.357642e+001
