!Agilent Technologies,E8363B,MY43030572,A.06.04.32
!Agilent E8363B: A.06.04.32
!Date: Tuesday, June 07, 2011 08:51:55
!Correction: S11(Full 2 Port(1,2)) S21(Full 2 Port(1,2)) S12(Full 2 Port(1,2)) S22(Full 2 Port(1,2)) 
!S2P File: Measurements: S11, S21, S12, S22:
# Hz S  dB   R 50
3000000000 -2.158067e+001 5.658052e+001 -2.956416e+001 1.565124e+000 -8.393857e+001 -1.196929e+002 -1.664343e+001 -2.048068e+001
3001093750 -2.105862e+001 6.513750e+001 -3.025898e+001 -7.627134e+001 -8.481541e+001 -1.661618e+002 -1.687328e+001 -1.736997e+001
3002187500 -2.076898e+001 7.415239e+001 -3.027726e+001 -1.495042e+002 -8.382258e+001 -1.557244e+002 -1.713084e+001 -1.398875e+001
3003281250 -2.066577e+001 8.310522e+001 -3.064151e+001 1.366854e+002 -8.394490e+001 -3.370124e+001 -1.753259e+001 -1.089727e+001
3004375000 -2.076619e+001 9.227147e+001 -3.116733e+001 6.137929e+001 -9.064971e+001 6.036702e+001 -1.805768e+001 -8.682735e+000
3005468750 -2.105390e+001 1.014548e+002 -3.161247e+001 -1.765219e+001 -7.986056e+001 -8.983886e+001 -1.870501e+001 -7.339187e+000
3006562500 -2.157896e+001 1.107877e+002 -3.166435e+001 -9.949974e+001 -8.628481e+001 1.052402e+002 -1.945226e+001 -7.280919e+000
3007656250 -2.234849e+001 1.202578e+002 -3.128118e+001 1.769638e+002 -7.813239e+001 -2.255314e+001 -2.023443e+001 -8.811264e+000
3008750000 -2.340877e+001 1.305307e+002 -3.070606e+001 9.520316e+001 -8.620910e+001 1.061996e+002 -2.098986e+001 -1.223372e+001
3009843750 -2.485810e+001 1.414279e+002 -3.037453e+001 1.542497e+001 -8.728838e+001 1.362607e+002 -2.154952e+001 -1.753313e+001
3010937500 -2.683523e+001 1.539747e+002 -3.063146e+001 -6.271392e+001 -8.499883e+001 -8.692244e+001 -2.178127e+001 -2.402637e+001
3012031250 -2.951847e+001 1.702533e+002 -3.162782e+001 -1.404519e+002 -8.930682e+001 1.034287e+002 -2.163573e+001 -3.057640e+001
3013125000 -3.321436e+001 -1.645222e+002 -3.333139e+001 1.404126e+002 -9.120506e+001 1.328757e+002 -2.112558e+001 -3.592135e+001
3014218750 -3.626021e+001 -1.141166e+002 -3.535074e+001 5.672084e+001 -9.744491e+001 1.734799e+002 -2.043034e+001 -3.932799e+001
3015312500 -3.369613e+001 -6.005285e+001 -3.657915e+001 -3.347080e+001 -8.809666e+001 -7.954898e+001 -1.966802e+001 -4.080869e+001
3016406250 -2.977399e+001 -3.207192e+001 -3.609603e+001 -1.238571e+002 -9.021812e+001 1.249689e+002 -1.895484e+001 -4.061321e+001
3017500000 -2.688599e+001 -1.520854e+001 -3.482236e+001 1.523164e+002 -8.289632e+001 -4.435284e+001 -1.834015e+001 -3.920456e+001
3018593750 -2.471613e+001 -2.274222e+000 -3.381390e+001 7.346101e+001 -8.892078e+001 -1.097767e+002 -1.783642e+001 -3.681809e+001
3019687500 -2.311803e+001 8.752988e+000 -3.350851e+001 -3.788195e+000 -8.119231e+001 -9.218463e+001 -1.746634e+001 -3.381332e+001
3020781250 -2.187492e+001 1.898295e+001 -3.396093e+001 -8.306863e+001 -8.883024e+001 -9.859637e+000 -1.724856e+001 -3.031651e+001
3021875000 -2.096331e+001 2.858379e+001 -3.489227e+001 -1.677104e+002 -9.095935e+001 -1.227391e+002 -1.716014e+001 -2.657450e+001
3022968750 -2.029568e+001 3.779800e+001 -3.539619e+001 9.947813e+001 -8.764747e+001 1.010620e+002 -1.722421e+001 -2.261394e+001
3024062500 -1.982321e+001 4.681364e+001 -3.448487e+001 4.105080e+000 -8.619505e+001 4.312099e+001 -1.741573e+001 -1.862016e+001
3025156250 -1.956647e+001 5.583008e+001 -3.268847e+001 -8.531319e+001 -1.025352e+002 4.948452e+001 -1.776298e+001 -1.478093e+001
3026250000 -1.947775e+001 6.457487e+001 -3.097944e+001 -1.688943e+002 -8.266248e+001 -7.738779e+001 -1.825669e+001 -1.134082e+001
3027343750 -1.956244e+001 7.322266e+001 -2.988579e+001 1.087911e+002 -1.018828e+002 -1.708889e+001 -1.893425e+001 -8.258900e+000
3028437500 -1.984113e+001 8.189517e+001 -2.936915e+001 2.504995e+001 -9.032841e+001 1.052195e+002 -1.977479e+001 -6.377338e+000
3029531250 -2.032617e+001 9.021729e+001 -2.923845e+001 -6.149357e+001 -8.229350e+001 -1.711314e+001 -2.079227e+001 -5.895051e+000
3030625000 -2.100901e+001 9.886009e+001 -2.902670e+001 -1.503293e+002 -8.105670e+001 -8.027065e+001 -2.199128e+001 -7.351201e+000
3031718750 -2.195977e+001 1.072631e+002 -2.843554e+001 1.217294e+002 -8.629760e+001 8.601366e+001 -2.322925e+001 -1.175825e+001
3032812500 -2.322734e+001 1.154886e+002 -2.769324e+001 3.693181e+001 -9.225301e+001 6.941470e+001 -2.431523e+001 -2.031664e+001
3033906250 -2.490881e+001 1.237268e+002 -2.708215e+001 -4.443330e+001 -8.359174e+001 7.903023e+001 -2.483555e+001 -3.188260e+001
3035000000 -2.717583e+001 1.316941e+002 -2.674913e+001 -1.235434e+002 -8.195933e+001 1.284447e+002 -2.447182e+001 -4.402717e+001
3036093750 -3.053693e+001 1.394026e+002 -2.672430e+001 1.577337e+002 -8.342225e+001 1.750685e+002 -2.352625e+001 -5.290313e+001
3037187500 -3.643186e+001 1.459862e+002 -2.689580e+001 7.785883e+001 -8.973084e+001 -6.679155e+000 -2.231717e+001 -5.788169e+001
3038281250 -5.850270e+001 9.143881e+001 -2.704969e+001 -3.738023e+000 -8.069453e+001 5.298170e+001 -2.112942e+001 -5.960837e+001
3039375000 -3.709442e+001 -8.813231e+000 -2.699482e+001 -8.685268e+001 -9.209937e+001 8.998149e+001 -2.008618e+001 -5.905678e+001
3040468750 -3.111928e+001 -1.901919e+000 -2.663827e+001 -1.690603e+002 -8.510944e+001 1.098586e+002 -1.920815e+001 -5.712285e+001
3041562500 -2.779302e+001 5.717045e+000 -2.619885e+001 1.108224e+002 -8.308194e+001 -1.624451e+002 -1.854326e+001 -5.407856e+001
3042656250 -2.556932e+001 1.414363e+001 -2.582454e+001 3.363034e+001 -9.103245e+001 -1.402216e+002 -1.804266e+001 -5.032209e+001
3043750000 -2.400829e+001 2.236617e+001 -2.563019e+001 -4.249583e+001 -8.860746e+001 8.036765e+001 -1.767899e+001 -4.640557e+001
3044843750 -2.287329e+001 3.117192e+001 -2.558494e+001 -1.191956e+002 -8.778425e+001 -6.997426e+001 -1.753949e+001 -4.209441e+001
3045937500 -2.205514e+001 3.995767e+001 -2.573616e+001 1.621861e+002 -8.459983e+001 1.658625e+002 -1.752819e+001 -3.759547e+001
3047031250 -2.150965e+001 4.895681e+001 -2.600299e+001 8.094582e+001 -8.159308e+001 4.940284e+000 -1.768465e+001 -3.321362e+001
3048125000 -2.121176e+001 5.801850e+001 -2.616973e+001 -1.951284e+000 -9.692240e+001 1.148112e+002 -1.800836e+001 -2.905422e+001
3049218750 -2.109213e+001 6.741710e+001 -2.613732e+001 -8.445757e+001 -8.054500e+001 1.451378e+002 -1.851150e+001 -2.506465e+001
3050312500 -2.118277e+001 7.705183e+001 -2.595622e+001 -1.646767e+002 -8.325133e+001 -1.333587e+002 -1.920745e+001 -2.168221e+001
3051406250 -2.147521e+001 8.700016e+001 -2.583576e+001 1.175488e+002 -8.167990e+001 -7.647308e+001 -2.008891e+001 -1.947871e+001
3052500000 -2.198050e+001 9.757590e+001 -2.590115e+001 4.131658e+001 -8.917056e+001 1.386866e+002 -2.118919e+001 -1.870307e+001
3053593750 -2.269071e+001 1.087114e+002 -2.619067e+001 -3.454135e+001 -8.148413e+001 -4.815487e+001 -2.249014e+001 -2.019795e+001
3054687500 -2.362159e+001 1.211760e+002 -2.669489e+001 -1.120233e+002 -8.590916e+001 -5.355735e+001 -2.388213e+001 -2.542555e+001
3055781250 -2.481520e+001 1.350365e+002 -2.732372e+001 1.681950e+002 -8.467485e+001 1.103092e+002 -2.506559e+001 -3.516605e+001
3056875000 -2.621782e+001 1.516445e+002 -2.781255e+001 8.607316e+001 -8.183740e+001 1.035087e+002 -2.548811e+001 -4.927004e+001
3057968750 -2.773539e+001 1.723211e+002 -2.808327e+001 3.435744e+000 -9.564443e+001 -3.688193e+001 -2.484853e+001 -6.315585e+001
3059062500 -2.893720e+001 -1.617554e+002 -2.828552e+001 -7.708095e+001 -9.722976e+001 -1.574783e+001 -2.351052e+001 -7.247978e+001
3060156250 -2.919595e+001 -1.320363e+002 -2.862300e+001 -1.538293e+002 -8.208061e+001 1.561575e+002 -2.202885e+001 -7.738886e+001
3061250000 -2.837399e+001 -1.036521e+002 -2.928354e+001 1.327614e+002 -7.744839e+001 -1.838508e+001 -2.063126e+001 -7.846907e+001
3062343750 -2.694722e+001 -8.063571e+001 -3.029612e+001 6.210836e+001 -8.388401e+001 5.052801e+001 -1.944837e+001 -7.722945e+001
3063437500 -2.547185e+001 -6.213867e+001 -3.170813e+001 -8.790312e+000 -8.370324e+001 -9.133255e+000 -1.844811e+001 -7.467805e+001
3064531250 -2.414774e+001 -4.701357e+001 -3.353481e+001 -8.105272e+001 -8.101231e+001 9.905801e+001 -1.765389e+001 -7.110438e+001
3065625000 -2.308276e+001 -3.419182e+001 -3.552048e+001 -1.566282e+002 -8.176899e+001 -2.145312e+000 -1.702650e+001 -6.695322e+001
3066718750 -2.225774e+001 -2.258528e+001 -3.670586e+001 1.251433e+002 -8.741351e+001 4.658460e+001 -1.655243e+001 -6.227907e+001
3067812500 -2.163648e+001 -1.196279e+001 -3.646442e+001 4.858669e+001 -8.699920e+001 1.179271e+002 -1.623655e+001 -5.743277e+001
3068906250 -2.122545e+001 -2.054451e+000 -3.505170e+001 -2.449149e+001 -9.270651e+001 3.426030e+001 -1.605327e+001 -5.236572e+001
3070000000 -2.102449e+001 7.468120e+000 -3.335359e+001 -9.523941e+001 -9.165543e+001 -4.011566e+001 -1.599352e+001 -4.733166e+001
3071093750 -2.098500e+001 1.657918e+001 -3.221304e+001 -1.664470e+002 -8.806829e+001 6.664468e+001 -1.608113e+001 -4.232810e+001
3072187500 -2.115103e+001 2.545253e+001 -3.206628e+001 1.207475e+002 -8.287764e+001 1.109482e+002 -1.630511e+001 -3.729869e+001
3073281250 -2.150730e+001 3.389314e+001 -3.311494e+001 4.530449e+001 -8.140581e+001 2.610390e+001 -1.666562e+001 -3.252311e+001
3074375000 -2.206506e+001 4.211853e+001 -3.547133e+001 -3.642160e+001 -8.761964e+001 -4.647435e+001 -1.716284e+001 -2.801434e+001
3075468750 -2.290057e+001 4.976381e+001 -3.882729e+001 -1.320914e+002 -8.645825e+001 6.814209e+001 -1.780348e+001 -2.390952e+001
3076562500 -2.404412e+001 5.699860e+001 -3.993134e+001 1.178821e+002 -9.252834e+001 1.397942e+002 -1.861423e+001 -2.056076e+001
3077656250 -2.554162e+001 6.349118e+001 -3.826488e+001 2.221050e+001 -8.229842e+001 1.437950e+002 -1.960138e+001 -1.791855e+001
3078750000 -2.762293e+001 6.865159e+001 -3.763284e+001 -5.961176e+001 -9.289604e+001 1.777402e+002 -2.075762e+001 -1.674120e+001
3079843750 -3.052280e+001 7.091634e+001 -3.956796e+001 -1.388081e+002 -8.835372e+001 1.335394e+002 -2.210280e+001 -1.766518e+001
3080937500 -3.472176e+001 6.443011e+001 -4.788042e+001 1.306656e+002 -8.051377e+001 1.569651e+002 -2.356027e+001 -2.143428e+001
3082031250 -3.914516e+001 2.679204e+001 -4.464026e+001 -7.823009e+001 -7.920286e+001 -5.476216e+001 -2.492314e+001 -2.951502e+001
3083125000 -3.585583e+001 -2.063818e+001 -3.641985e+001 -1.631493e+002 -7.909175e+001 -2.275906e+000 -2.578882e+001 -4.156325e+001
3084218750 -3.125792e+001 -3.116014e+001 -3.318982e+001 1.221157e+002 -9.488601e+001 1.149215e+002 -2.580527e+001 -5.537761e+001
3085312500 -2.818439e+001 -3.054710e+001 -3.206776e+001 4.835467e+001 -8.408871e+001 -1.476710e+002 -2.497972e+001 -6.645854e+001
3086406250 -2.599962e+001 -2.580463e+001 -3.229155e+001 -2.697094e+001 -8.689569e+001 -1.267763e+002 -2.377232e+001 -7.321533e+001
3087500000 -2.436516e+001 -1.998035e+001 -3.381221e+001 -1.085461e+002 -8.011782e+001 -9.958562e+001 -2.256341e+001 -7.656783e+001
3088593750 -2.318781e+001 -1.306715e+001 -3.589378e+001 1.586041e+002 -9.875149e+001 5.675235e+001 -2.148272e+001 -7.709116e+001
3089687500 -2.230003e+001 -5.874440e+000 -3.666042e+001 5.513254e+001 -8.883632e+001 7.396951e+001 -2.060176e+001 -7.632143e+001
3090781250 -2.167756e+001 1.689376e+000 -3.578734e+001 -3.858493e+001 -8.357788e+001 1.405649e+001 -1.988167e+001 -7.435851e+001
3091875000 -2.127206e+001 9.554160e+000 -3.543741e+001 -1.156224e+002 -8.656004e+001 -2.401250e+001 -1.931190e+001 -7.180843e+001
3092968750 -2.107761e+001 1.748674e+001 -3.603167e+001 1.798459e+002 -8.690125e+001 -1.583736e+002 -1.890440e+001 -6.882900e+001
3094062500 -2.106882e+001 2.558845e+001 -3.703034e+001 1.255997e+002 -8.303692e+001 4.921958e+001 -1.862048e+001 -6.595020e+001
3095156250 -2.125817e+001 3.372336e+001 -3.770076e+001 7.598076e+001 -9.268365e+001 -5.792785e+001 -1.843978e+001 -6.285851e+001
3096250000 -2.163491e+001 4.209872e+001 -3.821335e+001 2.556704e+001 -8.148779e+001 1.093348e+002 -1.839607e+001 -6.004765e+001
3097343750 -2.223701e+001 5.078170e+001 -3.898360e+001 -2.704488e+001 -8.725620e+001 -4.583006e+001 -1.844523e+001 -5.715591e+001
3098437500 -2.309010e+001 5.970956e+001 -3.957626e+001 -8.710526e+001 -9.296067e+001 -1.325799e+002 -1.856771e+001 -5.471625e+001
3099531250 -2.420684e+001 6.896017e+001 -4.029667e+001 -1.621325e+002 -8.699272e+001 1.572407e+002 -1.876892e+001 -5.244626e+001
3100625000 -2.571203e+001 7.860100e+001 -4.004657e+001 1.039270e+002 -8.332578e+001 1.378823e+002 -1.900504e+001 -5.069534e+001
3101718750 -2.763838e+001 8.927316e+001 -3.763615e+001 7.855009e+000 -8.620823e+001 1.210083e+002 -1.928823e+001 -4.920965e+001
3102812500 -3.037761e+001 1.023313e+002 -3.499429e+001 -7.454601e+001 -9.123617e+001 3.481729e+001 -1.959886e+001 -4.833105e+001
3103906250 -3.430799e+001 1.220990e+002 -3.347432e+001 -1.475128e+002 -8.287136e+001 1.759012e+002 -1.987974e+001 -4.791292e+001
3105000000 -3.948090e+001 1.651205e+002 -3.262681e+001 1.450485e+002 -8.646723e+001 -1.309229e+002 -2.015946e+001 -4.774918e+001
3106093750 -3.832064e+001 -1.243485e+002 -3.224636e+001 7.840269e+001 -8.942094e+001 2.372600e+001 -2.043463e+001 -4.816518e+001
3107187500 -3.341581e+001 -9.151843e+001 -3.245319e+001 8.818457e+000 -7.765549e+001 -1.104377e+002 -2.066895e+001 -4.857376e+001
3108281250 -3.012423e+001 -7.402622e+001 -3.320624e+001 -6.651292e+001 -8.760109e+001 -6.609657e+001 -2.088783e+001 -4.933043e+001
3109375000 -2.784556e+001 -6.150939e+001 -3.432836e+001 -1.489254e+002 -8.046701e+001 -6.825575e+001 -2.108131e+001 -4.994733e+001
3110468750 -2.620400e+001 -5.108099e+001 -3.505217e+001 1.229604e+002 -8.852219e+001 -1.361620e+002 -2.123158e+001 -5.061218e+001
3111562500 -2.503146e+001 -4.143383e+001 -3.474838e+001 3.770190e+001 -8.857748e+001 1.262198e+002 -2.139809e+001 -5.108728e+001
3112656250 -2.420974e+001 -3.242629e+001 -3.402104e+001 -3.856565e+001 -8.873698e+001 1.594525e+002 -2.156033e+001 -5.157527e+001
3113750000 -2.367123e+001 -2.378710e+001 -3.356249e+001 -1.091033e+002 -8.589419e+001 -1.732164e+002 -2.175339e+001 -5.209998e+001
3114843750 -2.343647e+001 -1.531708e+001 -3.375435e+001 -1.769011e+002 -8.127349e+001 1.007524e+001 -2.195689e+001 -5.268214e+001
3115937500 -2.337432e+001 -7.157982e+000 -3.516074e+001 1.177406e+002 -8.952268e+001 1.617927e+002 -2.221517e+001 -5.364648e+001
3117031250 -2.357473e+001 9.762871e-001 -3.787780e+001 6.061230e+001 -8.317277e+001 3.645311e+001 -2.247431e+001 -5.488868e+001
3118125000 -2.399301e+001 9.049847e+000 -4.006255e+001 1.807945e+001 -9.697155e+001 1.121273e+001 -2.270538e+001 -5.668120e+001
3119218750 -2.468368e+001 1.671000e+001 -3.915112e+001 -3.004049e+001 -8.765766e+001 1.301316e+002 -2.290378e+001 -5.889885e+001
3120312500 -2.566918e+001 2.423646e+001 -3.715824e+001 -1.004421e+002 -9.759714e+001 -4.506849e+001 -2.304599e+001 -6.169271e+001
3121406250 -2.705242e+001 3.122663e+001 -3.487273e+001 1.750103e+002 -8.861327e+001 1.089937e+002 -2.305725e+001 -6.482845e+001
3122500000 -2.897024e+001 3.803217e+001 -3.193888e+001 8.928774e+001 -8.421716e+001 1.406158e+002 -2.292842e+001 -6.787505e+001
3123593750 -3.168013e+001 4.306893e+001 -2.907783e+001 8.738896e+000 -8.721536e+001 1.669568e+002 -2.272174e+001 -7.063207e+001
3124687500 -3.601999e+001 4.448686e+001 -2.673368e+001 -6.745705e+001 -8.095736e+001 1.720394e+002 -2.239765e+001 -7.263033e+001
3125781250 -4.405098e+001 2.241718e+001 -2.499955e+001 -1.419764e+002 -7.912905e+001 -6.860210e+001 -2.202510e+001 -7.372395e+001
3126875000 -4.200170e+001 -6.857675e+001 -2.378686e+001 1.433555e+002 -8.365324e+001 8.534545e+001 -2.163389e+001 -7.400529e+001
3127968750 -3.498779e+001 -8.069594e+001 -2.301588e+001 6.657058e+001 -9.009760e+001 1.416072e+002 -2.123451e+001 -7.325653e+001
3129062500 -3.107844e+001 -7.794708e+001 -2.254233e+001 -1.321611e+001 -8.204435e+001 -7.847085e+001 -2.088048e+001 -7.172311e+001
3130156250 -2.850838e+001 -7.253403e+001 -2.214875e+001 -9.635444e+001 -9.206027e+001 -5.113902e+000 -2.059151e+001 -6.951759e+001
3131250000 -2.669253e+001 -6.600104e+001 -2.162217e+001 1.790396e+002 -8.320531e+001 -9.253705e+001 -2.039942e+001 -6.703346e+001
3132343750 -2.538991e+001 -5.927280e+001 -2.091459e+001 9.556952e+001 -8.693591e+001 -1.190806e+002 -2.032887e+001 -6.409086e+001
3133437500 -2.445563e+001 -5.218882e+001 -2.017490e+001 1.462185e+001 -8.576560e+001 1.472377e+002 -2.036015e+001 -6.079045e+001
3134531250 -2.379345e+001 -4.480977e+001 -1.964064e+001 -6.420908e+001 -8.578564e+001 1.433070e+002 -2.054424e+001 -5.739937e+001
3135625000 -2.339052e+001 -3.720377e+001 -1.940482e+001 -1.420800e+002 -8.364468e+001 -1.089512e-001 -2.088535e+001 -5.379132e+001
3136718750 -2.322960e+001 -2.990899e+001 -1.951098e+001 1.398744e+002 -9.701131e+001 9.767575e+000 -2.138568e+001 -5.014599e+001
3137812500 -2.325040e+001 -2.255223e+001 -1.988370e+001 6.081316e+001 -8.127045e+001 1.576134e+002 -2.205427e+001 -4.673239e+001
3138906250 -2.349710e+001 -1.536660e+001 -2.032776e+001 -1.978156e+001 -8.700858e+001 -1.871809e+001 -2.293798e+001 -4.377616e+001
3140000000 -2.400179e+001 -8.237359e+000 -2.055489e+001 -1.011079e+002 -9.198212e+001 -5.519443e+001 -2.406040e+001 -4.169954e+001
3141093750 -2.474201e+001 -1.325667e+000 -2.049851e+001 1.784054e+002 -8.950800e+001 6.132692e+001 -2.548766e+001 -4.118689e+001
3142187500 -2.579077e+001 5.200613e+000 -2.026613e+001 9.969016e+001 -8.529836e+001 -5.142424e+001 -2.723860e+001 -4.354098e+001
3143281250 -2.724995e+001 1.111220e+001 -2.011410e+001 2.310632e+001 -8.297567e+001 7.932710e+001 -2.924520e+001 -5.157154e+001
3144375000 -2.924123e+001 1.602697e+001 -2.025518e+001 -5.184322e+001 -8.920284e+001 -7.498711e+001 -3.093520e+001 -6.798112e+001
3145468750 -3.209804e+001 1.826189e+001 -2.074032e+001 -1.260641e+002 -8.320975e+001 -2.388514e+001 -3.111714e+001 -9.011359e+001
3146562500 -3.639905e+001 1.252278e+001 -2.155238e+001 1.597409e+002 -8.040090e+001 -1.174801e+001 -2.951694e+001 -1.080383e+002
3147656250 -4.147400e+001 -2.598995e+001 -2.252218e+001 8.466925e+001 -8.425755e+001 -9.695214e+001 -2.748524e+001 -1.173620e+002
3148750000 -3.809006e+001 -7.842251e+001 -2.336491e+001 7.943098e+000 -8.620786e+001 -3.549941e+001 -2.554272e+001 -1.199389e+002
3149843750 -3.310508e+001 -8.946979e+001 -2.376011e+001 -6.987228e+001 -8.583400e+001 9.881755e+001 -2.399955e+001 -1.192729e+002
3150937500 -2.984135e+001 -8.906525e+001 -2.369040e+001 -1.472052e+002 -9.459077e+001 -6.414919e+001 -2.276136e+001 -1.169142e+002
3152031250 -2.756689e+001 -8.497632e+001 -2.332805e+001 1.379551e+002 -8.453226e+001 1.695624e+002 -2.178000e+001 -1.134686e+002
3153125000 -2.588919e+001 -7.908278e+001 -2.298539e+001 6.578381e+001 -9.473811e+001 1.637316e+002 -2.101185e+001 -1.095148e+002
3154218750 -2.465219e+001 -7.253590e+001 -2.284125e+001 -4.143649e+000 -9.955810e+001 2.144451e+001 -2.047515e+001 -1.049422e+002
3155312500 -2.373145e+001 -6.573388e+001 -2.286890e+001 -7.348412e+001 -9.190047e+001 1.230406e+002 -2.011440e+001 -1.003801e+002
3156406250 -2.307672e+001 -5.837304e+001 -2.310361e+001 -1.438035e+002 -8.531761e+001 8.372227e+001 -1.993150e+001 -9.560461e+001
3157500000 -2.264011e+001 -5.106141e+001 -2.352977e+001 1.433456e+002 -9.951600e+001 3.375039e+001 -1.992504e+001 -9.096925e+001
3158593750 -2.242722e+001 -4.365038e+001 -2.401375e+001 6.718009e+001 -1.033756e+002 7.043335e+001 -2.006656e+001 -8.647445e+001
3159687500 -2.239622e+001 -3.600596e+001 -2.424906e+001 -1.121627e+001 -8.007949e+001 -1.307088e+002 -2.036744e+001 -8.241721e+001
3160781250 -2.253989e+001 -2.852446e+001 -2.394501e+001 -8.970134e+001 -9.065505e+001 -1.652547e+002 -2.086582e+001 -7.896854e+001
3161875000 -2.291199e+001 -2.056723e+001 -2.318466e+001 -1.660986e+002 -8.247588e+001 -1.313749e+002 -2.151993e+001 -7.639764e+001
3162968750 -2.346654e+001 -1.259799e+001 -2.233392e+001 1.194306e+002 -8.061362e+001 1.143090e+002 -2.231352e+001 -7.512490e+001
3164062500 -2.426694e+001 -4.888865e+000 -2.171954e+001 4.591579e+001 -9.056303e+001 -1.653147e+002 -2.328923e+001 -7.572908e+001
