!Agilent Technologies,E8363B,MY43030572,A.06.04.32
!Agilent E8363B: A.06.04.32
!Date: Tuesday, June 07, 2011 08:46:38
!Correction: S11(Full 2 Port(1,2)) S21(Full 2 Port(1,2)) S12(Full 2 Port(1,2)) S22(Full 2 Port(1,2)) 
!S2P File: Measurements: S11, S21, S12, S22:
# Hz S  dB   R 50
3000000000 -2.156263e+001 5.653779e+001 -2.851358e+001 8.734409e+001 -9.205684e+001 1.739441e+001 -1.661530e+001 -2.001101e+001
3001093750 -2.105974e+001 6.507170e+001 -2.871701e+001 2.480637e+000 -8.318346e+001 1.143543e+002 -1.683263e+001 -1.691423e+001
3002187500 -2.076468e+001 7.398206e+001 -2.810676e+001 -7.688529e+001 -8.278786e+001 -1.716989e+002 -1.710416e+001 -1.342177e+001
3003281250 -2.065784e+001 8.299718e+001 -2.793547e+001 -1.537082e+002 -8.582679e+001 -1.136818e+002 -1.750269e+001 -1.046513e+001
3004375000 -2.074594e+001 9.204041e+001 -2.826815e+001 1.304557e+002 -8.350273e+001 -1.394171e+001 -1.803544e+001 -8.078656e+000
3005468750 -2.102999e+001 1.012181e+002 -2.919023e+001 5.479881e+001 -7.925419e+001 -5.295983e+000 -1.867217e+001 -6.683577e+000
3006562500 -2.154768e+001 1.105433e+002 -3.055900e+001 -2.141264e+001 -8.343004e+001 1.328092e+001 -1.941056e+001 -6.462938e+000
3007656250 -2.232733e+001 1.200097e+002 -3.218457e+001 -9.892355e+001 -8.066065e+001 -3.244316e+001 -2.018144e+001 -7.892034e+000
3008750000 -2.337125e+001 1.301767e+002 -3.357806e+001 -1.771396e+002 -8.629202e+001 -1.428758e+001 -2.092638e+001 -1.119398e+001
3009843750 -2.481351e+001 1.411324e+002 -3.440968e+001 1.072082e+002 -8.592008e+001 1.102468e+002 -2.148178e+001 -1.638341e+001
3010937500 -2.676649e+001 1.535530e+002 -3.451036e+001 3.756942e+001 -8.691252e+001 -1.653629e+002 -2.172594e+001 -2.293618e+001
3012031250 -2.942668e+001 1.700290e+002 -3.382432e+001 -2.808540e+001 -7.899602e+001 7.794421e+001 -2.159644e+001 -2.954593e+001
3013125000 -3.312754e+001 -1.648450e+002 -3.293771e+001 -9.310162e+001 -8.341843e+001 8.708683e+000 -2.110353e+001 -3.508242e+001
3014218750 -3.619045e+001 -1.154075e+002 -3.233034e+001 -1.595395e+002 -9.222964e+001 -1.167743e+002 -2.042827e+001 -3.851057e+001
3015312500 -3.373874e+001 -6.065317e+001 -3.230821e+001 1.332395e+002 -8.999900e+001 -7.064918e+001 -1.968628e+001 -4.011621e+001
3016406250 -2.976516e+001 -3.251055e+001 -3.279161e+001 6.599017e+001 -8.925552e+001 -9.431438e+001 -1.898276e+001 -3.998310e+001
3017500000 -2.689481e+001 -1.564904e+001 -3.343288e+001 -1.388932e+000 -8.956779e+001 1.031913e+002 -1.836125e+001 -3.859326e+001
3018593750 -2.471512e+001 -2.700364e+000 -3.391864e+001 -7.124273e+001 -7.773293e+001 1.307700e+002 -1.785168e+001 -3.618449e+001
3019687500 -2.309247e+001 8.436267e+000 -3.388767e+001 -1.440426e+002 -8.500018e+001 -1.046007e+001 -1.747743e+001 -3.313107e+001
3020781250 -2.185876e+001 1.869571e+001 -3.321099e+001 1.414678e+002 -8.856463e+001 -2.023608e+001 -1.724422e+001 -2.967684e+001
3021875000 -2.094161e+001 2.829576e+001 -3.198435e+001 6.654501e+001 -8.067445e+001 -1.775771e+002 -1.714231e+001 -2.587623e+001
3022968750 -2.025492e+001 3.753482e+001 -3.064468e+001 -8.092269e+000 -9.127398e+001 1.105234e+002 -1.717765e+001 -2.202401e+001
3024062500 -1.978406e+001 4.652164e+001 -2.958310e+001 -8.187222e+001 -8.304439e+001 1.176208e+002 -1.737096e+001 -1.810069e+001
3025156250 -1.952479e+001 5.562090e+001 -2.902476e+001 -1.550026e+002 -8.092072e+001 3.132692e+001 -1.771933e+001 -1.423220e+001
3026250000 -1.942181e+001 6.431793e+001 -2.886881e+001 1.321519e+002 -9.284377e+001 1.168402e+002 -1.819906e+001 -1.078289e+001
3027343750 -1.950596e+001 7.308477e+001 -2.903175e+001 5.914273e+001 -9.034999e+001 2.705601e+001 -1.887870e+001 -7.825919e+000
3028437500 -1.977557e+001 8.166418e+001 -2.930984e+001 -1.440579e+001 -7.795767e+001 -3.314239e+001 -1.971028e+001 -5.770287e+000
3029531250 -2.025095e+001 9.015910e+001 -2.940754e+001 -8.917151e+001 -8.196924e+001 1.414912e+002 -2.073146e+001 -5.093400e+000
3030625000 -2.093618e+001 9.871230e+001 -2.909803e+001 -1.648228e+002 -8.568463e+001 -1.546443e+002 -2.191532e+001 -6.336482e+000
3031718750 -2.188195e+001 1.071471e+002 -2.851515e+001 1.193716e+002 -9.155193e+001 -7.230523e+001 -2.316229e+001 -1.061701e+001
3032812500 -2.312976e+001 1.154886e+002 -2.786460e+001 4.359684e+001 -9.416828e+001 -2.604957e+001 -2.424624e+001 -1.870011e+001
3033906250 -2.478668e+001 1.237994e+002 -2.739388e+001 -3.124323e+001 -9.771734e+001 -7.045325e+001 -2.477011e+001 -3.009752e+001
3035000000 -2.705975e+001 1.320560e+002 -2.725143e+001 -1.054128e+002 -9.208861e+001 -5.798945e+001 -2.444414e+001 -4.221149e+001
3036093750 -3.040482e+001 1.401059e+002 -2.745345e+001 -1.792068e+002 -8.435542e+001 7.083330e+001 -2.351996e+001 -5.139146e+001
3037187500 -3.614749e+001 1.472348e+002 -2.784728e+001 1.066271e+002 -9.143378e+001 -1.186650e+001 -2.232857e+001 -5.667012e+001
3038281250 -6.023656e+001 1.184033e+002 -2.834971e+001 3.193649e+001 -9.030614e+001 1.605374e+002 -2.114663e+001 -5.879766e+001
3039375000 -3.720718e+001 -1.110020e+001 -2.866592e+001 -4.373848e+001 -8.276337e+001 -4.802972e+000 -2.010287e+001 -5.844637e+001
3040468750 -3.116872e+001 -3.384843e+000 -2.864276e+001 -1.190870e+002 -8.560244e+001 8.877955e+001 -1.924147e+001 -5.659953e+001
3041562500 -2.778366e+001 4.665508e+000 -2.827936e+001 1.672318e+002 -9.560143e+001 -7.436273e+000 -1.856411e+001 -5.347939e+001
3042656250 -2.555549e+001 1.327227e+001 -2.763224e+001 9.559093e+001 -9.129546e+001 6.353290e+001 -1.805432e+001 -4.972475e+001
3043750000 -2.396461e+001 2.169326e+001 -2.688539e+001 2.414939e+001 -8.281493e+001 -6.317019e+001 -1.771131e+001 -4.567372e+001
3044843750 -2.281868e+001 3.054868e+001 -2.625571e+001 -4.823685e+001 -8.277538e+001 1.351334e+002 -1.753028e+001 -4.138855e+001
3045937500 -2.199924e+001 3.948112e+001 -2.602068e+001 -1.225980e+002 -9.299035e+001 -5.637246e+001 -1.750049e+001 -3.692788e+001
3047031250 -2.144078e+001 4.854926e+001 -2.621993e+001 1.610731e+002 -8.264806e+001 1.486772e+002 -1.764854e+001 -3.250671e+001
3048125000 -2.113611e+001 5.771661e+001 -2.674041e+001 8.252811e+001 -8.513255e+001 -1.310814e+002 -1.795404e+001 -2.842264e+001
3049218750 -2.101667e+001 6.702994e+001 -2.728891e+001 2.341643e+000 -8.575178e+001 -1.580232e+002 -1.846111e+001 -2.449602e+001
3050312500 -2.111460e+001 7.676842e+001 -2.758153e+001 -7.825278e+001 -8.365184e+001 -3.927682e+001 -1.914459e+001 -2.112421e+001
3051406250 -2.139585e+001 8.682471e+001 -2.759310e+001 -1.579099e+002 -8.009375e+001 -7.680241e+001 -2.000583e+001 -1.881823e+001
3052500000 -2.188364e+001 9.742671e+001 -2.758564e+001 1.250517e+002 -9.452568e+001 -1.687265e+002 -2.112720e+001 -1.798914e+001
3053593750 -2.259911e+001 1.086830e+002 -2.779303e+001 5.079559e+001 -8.438643e+001 6.615826e+001 -2.240669e+001 -1.919699e+001
3054687500 -2.351903e+001 1.211134e+002 -2.846530e+001 -2.107207e+001 -1.004301e+002 -8.027937e+001 -2.381783e+001 -2.418465e+001
3055781250 -2.469152e+001 1.351187e+002 -2.973133e+001 -9.086176e+001 -7.797934e+001 -1.733259e+002 -2.502305e+001 -3.365709e+001
3056875000 -2.608554e+001 1.515988e+002 -3.138564e+001 -1.585969e+002 -8.887254e+001 -1.790153e+001 -2.551231e+001 -4.759485e+001
3057968750 -2.755658e+001 1.724188e+002 -3.326987e+001 1.347440e+002 -9.457549e+001 2.726523e+001 -2.492863e+001 -6.159068e+001
3059062500 -2.875069e+001 -1.615860e+002 -3.456176e+001 6.844508e+001 -1.004401e+002 8.120844e+000 -2.359377e+001 -7.115188e+001
3060156250 -2.899331e+001 -1.322615e+002 -3.441146e+001 -1.345373e+000 -9.445249e+001 -2.606631e+001 -2.208899e+001 -7.621867e+001
3061250000 -2.818141e+001 -1.040660e+002 -3.302766e+001 -7.686743e+001 -8.549319e+001 -1.640370e+002 -2.067708e+001 -7.753011e+001
3062343750 -2.676919e+001 -8.099670e+001 -3.119085e+001 -1.540245e+002 -9.939683e+001 9.229169e+001 -1.946805e+001 -7.649147e+001
3063437500 -2.534274e+001 -6.261880e+001 -2.969507e+001 1.302330e+002 -8.058950e+001 1.586526e+002 -1.846502e+001 -7.407677e+001
3064531250 -2.402368e+001 -4.742422e+001 -2.869134e+001 5.705474e+001 -9.041599e+001 -1.567272e+002 -1.766870e+001 -7.054204e+001
3065625000 -2.295831e+001 -3.443494e+001 -2.829439e+001 -1.507826e+001 -9.493508e+001 3.134005e+001 -1.702938e+001 -6.640194e+001
3066718750 -2.213869e+001 -2.282957e+001 -2.844802e+001 -8.676714e+001 -8.129601e+001 -2.710810e+000 -1.656751e+001 -6.184470e+001
3067812500 -2.151606e+001 -1.219797e+001 -2.905444e+001 -1.604766e+002 -9.303834e+001 1.351374e+002 -1.624827e+001 -5.691068e+001
3068906250 -2.110821e+001 -2.102000e+000 -3.000534e+001 1.225618e+002 -8.775385e+001 -1.459742e+002 -1.606179e+001 -5.185798e+001
3070000000 -2.091529e+001 7.467691e+000 -3.095109e+001 4.083782e+001 -8.985964e+001 6.739388e+001 -1.599375e+001 -4.677537e+001
3071093750 -2.089042e+001 1.663985e+001 -3.138708e+001 -4.324108e+001 -8.306844e+001 1.459687e+002 -1.607096e+001 -4.172723e+001
3072187500 -2.104858e+001 2.555896e+001 -3.118825e+001 -1.250517e+002 -8.791888e+001 -8.994806e+001 -1.627169e+001 -3.675062e+001
3073281250 -2.139366e+001 3.421675e+001 -3.091092e+001 1.583205e+002 -8.444296e+001 -9.925087e+001 -1.661442e+001 -3.193863e+001
3074375000 -2.196920e+001 4.240118e+001 -3.097840e+001 8.744984e+001 -8.197742e+001 1.321740e+002 -1.710093e+001 -2.747112e+001
3075468750 -2.280309e+001 5.020119e+001 -3.138351e+001 2.126504e+001 -8.771409e+001 5.352573e+001 -1.773689e+001 -2.348535e+001
3076562500 -2.395405e+001 5.757110e+001 -3.208327e+001 -4.236036e+001 -9.275637e+001 -1.252354e+001 -1.854660e+001 -2.013985e+001
3077656250 -2.546900e+001 6.427234e+001 -3.315359e+001 -1.050163e+002 -8.343269e+001 -9.949885e+001 -1.953673e+001 -1.754884e+001
3078750000 -2.757470e+001 6.966138e+001 -3.447218e+001 -1.690752e+002 -9.071851e+001 -8.845353e+001 -2.070259e+001 -1.623632e+001
3079843750 -3.048774e+001 7.239967e+001 -3.586044e+001 1.234711e+002 -9.922987e+001 6.600970e+001 -2.203374e+001 -1.697220e+001
3080937500 -3.490509e+001 6.624820e+001 -3.672225e+001 4.753161e+001 -8.357851e+001 6.315200e+000 -2.348113e+001 -2.045049e+001
3082031250 -3.980604e+001 2.710730e+001 -3.662453e+001 -3.724358e+001 -8.938578e+001 -1.789247e+002 -2.486379e+001 -2.811116e+001
3083125000 -3.604437e+001 -2.282965e+001 -3.531424e+001 -1.207284e+002 -8.778422e+001 9.941653e+001 -2.575600e+001 -3.973871e+001
3084218750 -3.123953e+001 -3.295665e+001 -3.383545e+001 1.623068e+002 -8.055559e+001 -1.537892e+002 -2.576637e+001 -5.341046e+001
3085312500 -2.811836e+001 -3.162932e+001 -3.276098e+001 9.217131e+001 -9.392872e+001 8.477743e+001 -2.495627e+001 -6.468160e+001
3086406250 -2.589964e+001 -2.681738e+001 -3.211746e+001 2.539075e+001 -8.505265e+001 6.358170e+001 -2.377722e+001 -7.178661e+001
3087500000 -2.427000e+001 -2.075696e+001 -3.202018e+001 -4.030472e+001 -8.030289e+001 8.112123e+001 -2.255967e+001 -7.536410e+001
3088593750 -2.308425e+001 -1.355852e+001 -3.241999e+001 -1.043246e+002 -8.809226e+001 -1.755318e+002 -2.149446e+001 -7.630372e+001
3089687500 -2.219612e+001 -6.189309e+000 -3.309585e+001 -1.680256e+002 -8.625638e+001 -8.454861e+001 -2.059912e+001 -7.549734e+001
3090781250 -2.157549e+001 1.516208e+000 -3.338232e+001 1.287261e+002 -9.163351e+001 4.579562e+001 -1.989066e+001 -7.370935e+001
3091875000 -2.117752e+001 9.371445e+000 -3.285701e+001 6.058741e+001 -9.042210e+001 -1.164356e+002 -1.933996e+001 -7.123164e+001
3092968750 -2.097481e+001 1.746336e+001 -3.164093e+001 -1.441905e+001 -8.908002e+001 1.600320e+002 -1.893012e+001 -6.825426e+001
3094062500 -2.098167e+001 2.554075e+001 -3.007386e+001 -9.311768e+001 -8.587883e+001 -5.307061e+000 -1.864422e+001 -6.512758e+001
3095156250 -2.117134e+001 3.381035e+001 -2.844904e+001 -1.718380e+002 -8.398804e+001 1.398807e+002 -1.845968e+001 -6.204587e+001
3096250000 -2.154980e+001 4.228152e+001 -2.700288e+001 1.110398e+002 -9.225042e+001 -5.906712e+001 -1.840379e+001 -5.922592e+001
3097343750 -2.216145e+001 5.101343e+001 -2.585096e+001 3.462444e+001 -8.963876e+001 2.460590e+001 -1.843431e+001 -5.633480e+001
3098437500 -2.299897e+001 6.003505e+001 -2.503683e+001 -4.199837e+001 -1.039011e+002 4.278970e+001 -1.853953e+001 -5.397120e+001
3099531250 -2.410643e+001 6.938209e+001 -2.453748e+001 -1.198369e+002 -8.351966e+001 1.467444e+002 -1.872231e+001 -5.175890e+001
3100625000 -2.562521e+001 7.927193e+001 -2.423372e+001 1.609775e+002 -8.648161e+001 1.240220e+002 -1.895859e+001 -5.000960e+001
3101718750 -2.757698e+001 9.005679e+001 -2.401125e+001 8.079296e+001 -8.871452e+001 6.375151e+001 -1.923188e+001 -4.864759e+001
3102812500 -3.031205e+001 1.033516e+002 -2.370945e+001 4.849397e-001 -8.327465e+001 1.280998e+002 -1.955300e+001 -4.781297e+001
3103906250 -3.419048e+001 1.237569e+002 -2.334966e+001 -7.895999e+001 -8.500364e+001 1.688344e+002 -1.985650e+001 -4.731186e+001
3105000000 -3.904533e+001 1.674889e+002 -2.299731e+001 -1.571553e+002 -8.602637e+001 -1.771805e+002 -2.014877e+001 -4.715967e+001
3106093750 -3.778500e+001 -1.247076e+002 -2.279893e+001 1.252335e+002 -9.531950e+001 -1.369704e+002 -2.043042e+001 -4.740314e+001
3107187500 -3.315992e+001 -9.207771e+001 -2.281322e+001 4.780430e+001 -7.906198e+001 1.566229e+002 -2.064394e+001 -4.766661e+001
3108281250 -2.992759e+001 -7.446773e+001 -2.305936e+001 -3.027155e+001 -8.247536e+001 -6.421758e+000 -2.084288e+001 -4.837855e+001
3109375000 -2.768498e+001 -6.185375e+001 -2.344643e+001 -1.091078e+002 -7.724246e+001 3.489715e+001 -2.101043e+001 -4.894809e+001
3110468750 -2.608045e+001 -5.129248e+001 -2.384873e+001 1.715239e+002 -8.182912e+001 -1.519118e+002 -2.116112e+001 -4.954613e+001
3111562500 -2.491475e+001 -4.153956e+001 -2.413027e+001 9.234534e+001 -7.961984e+001 1.618101e+002 -2.130409e+001 -5.007584e+001
3112656250 -2.410500e+001 -3.247748e+001 -2.430059e+001 1.448568e+001 -8.188019e+001 3.781039e+001 -2.146962e+001 -5.073411e+001
3113750000 -2.358246e+001 -2.374109e+001 -2.437961e+001 -6.169599e+001 -7.989726e+001 1.613997e+002 -2.167701e+001 -5.123109e+001
3114843750 -2.332580e+001 -1.527337e+001 -2.456433e+001 -1.369268e+002 -9.740522e+001 -6.439990e+001 -2.190437e+001 -5.194749e+001
3115937500 -2.329241e+001 -7.002224e+000 -2.506355e+001 1.480979e+002 -8.935165e+001 -5.678230e+001 -2.217056e+001 -5.287236e+001
3117031250 -2.348489e+001 1.150430e+000 -2.601896e+001 7.327157e+001 -8.190585e+001 1.569046e+002 -2.244350e+001 -5.414941e+001
3118125000 -2.392020e+001 9.183888e+000 -2.739049e+001 -2.550571e+000 -8.897739e+001 -9.326213e+001 -2.269203e+001 -5.564952e+001
3119218750 -2.461582e+001 1.701654e+001 -2.894341e+001 -7.923164e+001 -8.698976e+001 -2.566765e+001 -2.291324e+001 -5.775419e+001
3120312500 -2.561293e+001 2.452275e+001 -3.038489e+001 -1.564414e+002 -8.791683e+001 1.222668e+002 -2.304284e+001 -6.033559e+001
3121406250 -2.700389e+001 3.174173e+001 -3.124457e+001 1.275917e+002 -8.211737e+001 -1.294311e+001 -2.305028e+001 -6.334037e+001
3122500000 -2.892521e+001 3.845846e+001 -3.152059e+001 5.467681e+001 -9.051057e+001 1.669937e+002 -2.290996e+001 -6.641549e+001
3123593750 -3.167238e+001 4.372849e+001 -3.140881e+001 -1.353350e+001 -8.850601e+001 -7.899170e+001 -2.265948e+001 -6.918240e+001
3124687500 -3.605646e+001 4.534061e+001 -3.119079e+001 -7.711560e+001 -9.023040e+001 -1.762833e+002 -2.234538e+001 -7.139858e+001
3125781250 -4.426860e+001 2.368741e+001 -3.077890e+001 -1.376395e+002 -9.419650e+001 1.132514e+002 -2.196873e+001 -7.270560e+001
3126875000 -4.205416e+001 -7.002111e+001 -3.003797e+001 1.621588e+002 -9.114439e+001 -3.655002e+000 -2.158110e+001 -7.319012e+001
3127968750 -3.490136e+001 -8.186879e+001 -2.915079e+001 9.842112e+001 -9.031733e+001 -8.633672e+001 -2.119333e+001 -7.256074e+001
3129062500 -3.099038e+001 -7.839119e+001 -2.847842e+001 2.918942e+001 -8.040716e+001 -1.291136e+002 -2.087786e+001 -7.115183e+001
3130156250 -2.844187e+001 -7.290495e+001 -2.820578e+001 -4.515238e+001 -8.854210e+001 -6.667168e+001 -2.060278e+001 -6.892017e+001
3131250000 -2.662996e+001 -6.623499e+001 -2.816042e+001 -1.233024e+002 -9.227946e+001 1.560849e+002 -2.042132e+001 -6.619288e+001
3132343750 -2.534855e+001 -5.941701e+001 -2.802760e+001 1.566161e+002 -8.808306e+001 -5.903442e+001 -2.032525e+001 -6.311893e+001
3133437500 -2.439612e+001 -5.229098e+001 -2.754782e+001 7.734649e+001 -8.120753e+001 9.241370e+001 -2.032777e+001 -5.971660e+001
3134531250 -2.374506e+001 -4.488238e+001 -2.688518e+001 7.511276e-004 -7.939020e+001 -1.443604e+002 -2.047508e+001 -5.627250e+001
3135625000 -2.333474e+001 -3.733169e+001 -2.633124e+001 -7.593243e+001 -8.173840e+001 8.457416e+001 -2.077404e+001 -5.277238e+001
3136718750 -2.319869e+001 -2.998930e+001 -2.616970e+001 -1.505288e+002 -8.573989e+001 -9.012007e+001 -2.124714e+001 -4.928804e+001
3137812500 -2.321342e+001 -2.258692e+001 -2.648195e+001 1.354844e+002 -8.573354e+001 5.830314e+001 -2.191479e+001 -4.611197e+001
3138906250 -2.345459e+001 -1.534973e+001 -2.726788e+001 6.095878e+001 -9.181085e+001 1.338938e+002 -2.282281e+001 -4.333690e+001
3140000000 -2.396117e+001 -8.127704e+000 -2.836266e+001 -1.446653e+001 -8.976247e+001 -1.420051e+002 -2.396725e+001 -4.116617e+001
3141093750 -2.472266e+001 -1.300951e+000 -2.950446e+001 -9.201599e+001 -8.440795e+001 1.460895e+002 -2.539057e+001 -4.028804e+001
3142187500 -2.576286e+001 5.148497e+000 -3.035511e+001 -1.709307e+002 -8.286869e+001 -9.106608e+001 -2.715273e+001 -4.211042e+001
3143281250 -2.722184e+001 1.115735e+001 -3.096844e+001 1.114127e+002 -7.994583e+001 1.087667e+002 -2.915296e+001 -4.928472e+001
3144375000 -2.922683e+001 1.597852e+001 -3.156869e+001 3.896516e+001 -7.992260e+001 -6.312540e+001 -3.089537e+001 -6.450271e+001
3145468750 -3.209159e+001 1.819960e+001 -3.231609e+001 -2.570076e+001 -8.777338e+001 1.258096e+002 -3.118509e+001 -8.649114e+001
3146562500 -3.638698e+001 1.253408e+001 -3.267825e+001 -8.122680e+001 -8.575523e+001 -1.673002e+002 -2.965903e+001 -1.050132e+002
3147656250 -4.144601e+001 -2.570572e+001 -3.184247e+001 -1.340241e+002 -9.374303e+001 -1.789616e+002 -2.760386e+001 -1.147401e+002
3148750000 -3.800647e+001 -7.786759e+001 -3.042051e+001 1.674314e+002 -8.552522e+001 6.563394e+001 -2.562898e+001 -1.182296e+002
3149843750 -3.303844e+001 -8.947538e+001 -2.914612e+001 1.024895e+002 -8.432241e+001 4.849143e+001 -2.405492e+001 -1.179909e+002
3150937500 -2.984432e+001 -8.900739e+001 -2.831657e+001 3.201624e+001 -8.777770e+001 -3.813942e+001 -2.280539e+001 -1.159063e+002
3152031250 -2.754927e+001 -8.495900e+001 -2.771532e+001 -4.245016e+001 -7.947935e+001 1.297488e+002 -2.180942e+001 -1.127929e+002
3153125000 -2.587188e+001 -7.908002e+001 -2.706211e+001 -1.202439e+002 -8.349117e+001 1.592341e+002 -2.105512e+001 -1.087461e+002
3154218750 -2.464401e+001 -7.267321e+001 -2.616998e+001 1.601189e+002 -8.782201e+001 -7.800037e+001 -2.052374e+001 -1.042483e+002
3155312500 -2.372476e+001 -6.576767e+001 -2.507806e+001 8.074290e+001 -8.863431e+001 1.619824e+001 -2.016279e+001 -9.952715e+001
3156406250 -2.306574e+001 -5.854235e+001 -2.409754e+001 2.849096e+000 -8.387105e+001 -1.062276e+002 -1.995222e+001 -9.468787e+001
3157500000 -2.262502e+001 -5.115297e+001 -2.341497e+001 -7.345816e+001 -8.513493e+001 -1.228102e+002 -1.992737e+001 -8.999217e+001
3158593750 -2.241174e+001 -4.384042e+001 -2.312825e+001 -1.482929e+002 -7.998787e+001 -3.819777e+001 -2.006046e+001 -8.549959e+001
3159687500 -2.238556e+001 -3.626922e+001 -2.318893e+001 1.374588e+002 -8.040543e+001 -1.552222e+002 -2.035649e+001 -8.153121e+001
3160781250 -2.251368e+001 -2.872919e+001 -2.349426e+001 6.271915e+001 -8.779684e+001 -1.459608e+002 -2.083601e+001 -7.795801e+001
3161875000 -2.288900e+001 -2.083728e+001 -2.385300e+001 -1.316901e+001 -8.840570e+001 4.393418e+000 -2.146085e+001 -7.535518e+001
3162968750 -2.345215e+001 -1.284975e+001 -2.413326e+001 -9.037936e+001 -9.110586e+001 -1.249502e+002 -2.225477e+001 -7.418332e+001
3164062500 -2.425126e+001 -5.138877e+000 -2.420382e+001 -1.679965e+002 -9.003983e+001 3.906042e+001 -2.319820e+001 -7.470599e+001
