!Agilent Technologies,E8363B,MY43030572,A.06.04.32
!Agilent E8363B: A.06.04.32
!Date: Tuesday, June 07, 2011 08:40:49
!Correction: S11(Full 2 Port(1,2)) S21(Full 2 Port(1,2)) S12(Full 2 Port(1,2)) S22(Full 2 Port(1,2)) 
!S2P File: Measurements: S11, S21, S12, S22:
# Hz S  dB   R 50
3000000000 -2.150296e+001 5.734273e+001 -2.782249e+001 -5.619611e+001 -8.684905e+001 1.024674e+002 -1.664790e+001 -1.747822e+001
3001093750 -2.101373e+001 6.583169e+001 -2.852719e+001 -1.282978e+002 -9.480202e+001 -3.139512e+001 -1.684367e+001 -1.434131e+001
3002187500 -2.073426e+001 7.476009e+001 -2.837963e+001 1.610885e+002 -8.559186e+001 6.492101e+001 -1.707394e+001 -1.079252e+001
3003281250 -2.065273e+001 8.371120e+001 -2.822097e+001 8.699581e+001 -8.362856e+001 1.035623e+002 -1.744714e+001 -7.683726e+000
3004375000 -2.076257e+001 9.277279e+001 -2.785414e+001 9.854016e+000 -8.382407e+001 -6.745073e+001 -1.796000e+001 -5.248229e+000
3005468750 -2.106236e+001 1.019077e+002 -2.727104e+001 -6.899825e+001 -1.092259e+002 1.635463e+002 -1.857746e+001 -3.594491e+000
3006562500 -2.160901e+001 1.111846e+002 -2.654903e+001 -1.475239e+002 -8.304622e+001 -1.585558e+002 -1.929144e+001 -3.130293e+000
3007656250 -2.240532e+001 1.207160e+002 -2.588301e+001 1.354038e+002 -8.019746e+001 2.123240e+001 -2.004704e+001 -4.304147e+000
3008750000 -2.351209e+001 1.308398e+002 -2.551703e+001 5.997096e+001 -8.007893e+001 2.867095e+001 -2.081680e+001 -7.291453e+000
3009843750 -2.499446e+001 1.417172e+002 -2.550230e+001 -1.433343e+001 -8.109988e+001 1.291570e+002 -2.141326e+001 -1.217411e+001
3010937500 -2.700807e+001 1.542323e+002 -2.589252e+001 -8.813263e+001 -9.432766e+001 1.197531e+002 -2.174676e+001 -1.848564e+001
3012031250 -2.980530e+001 1.706622e+002 -2.654415e+001 -1.624998e+002 -8.958470e+001 -4.244664e+001 -2.167921e+001 -2.519823e+001
3013125000 -3.359970e+001 -1.630826e+002 -2.731700e+001 1.213760e+002 -8.589010e+001 1.142511e+002 -2.124413e+001 -3.091869e+001
3014218750 -3.662117e+001 -1.099355e+002 -2.795714e+001 4.289931e+001 -8.410860e+001 -4.835715e+001 -2.058989e+001 -3.473761e+001
3015312500 -3.355309e+001 -5.662574e+001 -2.824102e+001 -3.746014e+001 -9.053196e+001 -6.343182e+001 -1.984037e+001 -3.662424e+001
3016406250 -2.958127e+001 -2.990178e+001 -2.824939e+001 -1.169744e+002 -8.233019e+001 -2.848908e+001 -1.910493e+001 -3.675043e+001
3017500000 -2.671605e+001 -1.368302e+001 -2.819427e+001 1.665941e+002 -8.557030e+001 -1.356767e+002 -1.845569e+001 -3.558628e+001
3018593750 -2.460705e+001 -1.134174e+000 -2.824849e+001 9.329464e+001 -8.853283e+001 -1.570452e+002 -1.793766e+001 -3.342580e+001
3019687500 -2.301997e+001 9.772426e+000 -2.863912e+001 2.171493e+001 -8.614932e+001 1.039705e+001 -1.752469e+001 -3.045767e+001
3020781250 -2.182078e+001 1.977724e+001 -2.955010e+001 -4.860401e+001 -9.579412e+001 -1.550083e+002 -1.726782e+001 -2.711076e+001
3021875000 -2.090721e+001 2.935453e+001 -3.111786e+001 -1.179757e+002 -8.356798e+001 -2.160060e+001 -1.715261e+001 -2.335134e+001
3022968750 -2.025403e+001 3.846136e+001 -3.299876e+001 1.747228e+002 -8.418533e+001 1.222194e+002 -1.715263e+001 -1.945765e+001
3024062500 -1.981021e+001 4.737936e+001 -3.452367e+001 1.078642e+002 -9.100375e+001 3.333431e+001 -1.731673e+001 -1.546702e+001
3025156250 -1.955036e+001 5.635803e+001 -3.507603e+001 3.703164e+001 -8.377361e+001 -2.207281e+001 -1.762992e+001 -1.158431e+001
3026250000 -1.948634e+001 6.504952e+001 -3.458600e+001 -3.830157e+001 -8.332954e+001 1.117865e+001 -1.808384e+001 -8.038788e+000
3027343750 -1.957934e+001 7.371076e+001 -3.373509e+001 -1.133661e+002 -9.176920e+001 -4.392502e+001 -1.871871e+001 -4.736761e+000
3028437500 -1.988610e+001 8.223267e+001 -3.277692e+001 1.744253e+002 -7.763960e+001 1.522250e+000 -1.950628e+001 -2.522110e+000
3029531250 -2.037860e+001 9.059599e+001 -3.198503e+001 1.057196e+002 -8.233324e+001 -1.799558e+002 -2.049012e+001 -1.555339e+000
3030625000 -2.107889e+001 9.911897e+001 -3.146084e+001 3.824962e+001 -8.682886e+001 -7.283149e+001 -2.164049e+001 -2.153695e+000
3031718750 -2.207417e+001 1.074733e+002 -3.150742e+001 -3.002185e+001 -1.080516e+002 5.806906e+001 -2.287584e+001 -5.852816e+000
3032812500 -2.333121e+001 1.155728e+002 -3.212761e+001 -9.940273e+001 -9.412893e+001 9.447996e+000 -2.403444e+001 -1.303116e+001
3033906250 -2.505727e+001 1.236961e+002 -3.324691e+001 -1.708829e+002 -9.010444e+001 -9.510899e+001 -2.474008e+001 -2.396272e+001
3035000000 -2.740723e+001 1.314662e+002 -3.467380e+001 1.150161e+002 -8.505927e+001 -9.554646e+001 -2.461426e+001 -3.636916e+001
3036093750 -3.093520e+001 1.385101e+002 -3.582441e+001 3.741344e+001 -8.879741e+001 -9.545503e+001 -2.381013e+001 -4.635287e+001
3037187500 -3.716063e+001 1.433206e+002 -3.620865e+001 -4.072395e+001 -8.363414e+001 -1.733140e+002 -2.264499e+001 -5.230094e+001
3038281250 -5.444377e+001 4.482601e+001 -3.584317e+001 -1.152689e+002 -8.614925e+001 2.813279e+000 -2.143370e+001 -5.500132e+001
3039375000 -3.625818e+001 -6.317712e+000 -3.532173e+001 1.751526e+002 -9.325571e+001 6.856034e+000 -2.035330e+001 -5.500114e+001
3040468750 -3.074146e+001 -5.786040e-001 -3.510562e+001 1.102704e+002 -9.323793e+001 1.744106e+002 -1.944312e+001 -5.346494e+001
3041562500 -2.752281e+001 7.038640e+000 -3.539294e+001 5.012028e+001 -8.034043e+001 -7.955337e+001 -1.872214e+001 -5.047127e+001
3042656250 -2.538816e+001 1.511627e+001 -3.561020e+001 -3.736061e+000 -9.517095e+001 -5.964337e+000 -1.815779e+001 -4.701688e+001
3043750000 -2.385707e+001 2.342467e+001 -3.483268e+001 -5.684235e+001 -8.413721e+001 -1.754453e+002 -1.777972e+001 -4.294727e+001
3044843750 -2.275317e+001 3.204256e+001 -3.347490e+001 -1.185343e+002 -9.372145e+001 -9.586680e+001 -1.758178e+001 -3.876465e+001
3045937500 -2.198501e+001 4.079905e+001 -3.236529e+001 1.718603e+002 -9.176067e+001 -7.473615e+001 -1.751837e+001 -3.429076e+001
3047031250 -2.145854e+001 4.973693e+001 -3.156771e+001 9.577239e+001 -8.106800e+001 5.339997e+001 -1.763774e+001 -2.979976e+001
3048125000 -2.117954e+001 5.877459e+001 -3.075190e+001 1.664684e+001 -8.288528e+001 1.788992e+002 -1.790888e+001 -2.562258e+001
3049218750 -2.107976e+001 6.811606e+001 -2.958306e+001 -6.212543e+001 -9.016605e+001 1.520925e+002 -1.837309e+001 -2.145094e+001
3050312500 -2.119814e+001 7.767757e+001 -2.816353e+001 -1.387901e+002 -8.925635e+001 -1.734329e+002 -1.901843e+001 -1.789880e+001
3051406250 -2.150212e+001 8.770068e+001 -2.686829e+001 1.459922e+002 -8.397290e+001 3.658519e+001 -1.983108e+001 -1.540397e+001
3052500000 -2.201726e+001 9.829798e+001 -2.589023e+001 7.195602e+001 -9.900193e+001 -8.295439e-001 -2.090839e+001 -1.412550e+001
3053593750 -2.278152e+001 1.094654e+002 -2.533581e+001 -2.278442e+000 -9.511775e+001 -5.023378e+001 -2.215573e+001 -1.470883e+001
3054687500 -2.374309e+001 1.219664e+002 -2.516801e+001 -7.740204e+001 -8.244410e+001 -3.402066e+001 -2.358579e+001 -1.886452e+001
3055781250 -2.495692e+001 1.360001e+002 -2.526409e+001 -1.542207e+002 -8.449953e+001 2.545322e+001 -2.488130e+001 -2.734095e+001
3056875000 -2.639685e+001 1.527746e+002 -2.538873e+001 1.267157e+002 -8.266789e+001 5.085494e+001 -2.560410e+001 -4.069043e+001
3057968750 -2.792219e+001 1.739203e+002 -2.546292e+001 4.619805e+001 -8.246838e+001 -1.331682e+002 -2.525102e+001 -5.554121e+001
3059062500 -2.911922e+001 -1.593223e+002 -2.544770e+001 -3.371389e+001 -8.603721e+001 -3.129953e+001 -2.400654e+001 -6.635476e+001
3060156250 -2.928239e+001 -1.293732e+002 -2.539262e+001 -1.112058e+002 -9.237131e+001 1.108479e+002 -2.249238e+001 -7.251781e+001
3061250000 -2.835976e+001 -1.012014e+002 -2.545476e+001 1.750657e+002 -8.494257e+001 -1.725481e+002 -2.104428e+001 -7.454341e+001
3062343750 -2.686321e+001 -7.842684e+001 -2.566451e+001 1.046080e+002 -9.659081e+001 1.455494e+002 -1.976997e+001 -7.365506e+001
3063437500 -2.539709e+001 -6.038686e+001 -2.596502e+001 3.603053e+001 -9.630991e+001 -1.730517e+002 -1.871176e+001 -7.145043e+001
3064531250 -2.407044e+001 -4.555837e+001 -2.624903e+001 -3.248965e+001 -8.206456e+001 -1.239527e+002 -1.787679e+001 -6.809815e+001
3065625000 -2.302593e+001 -3.289458e+001 -2.651561e+001 -1.031166e+002 -9.508080e+001 8.535282e+001 -1.719532e+001 -6.402749e+001
3066718750 -2.221686e+001 -2.141907e+001 -2.663165e+001 -1.768257e+002 -8.322262e+001 -7.573046e+001 -1.668171e+001 -5.955856e+001
3067812500 -2.162163e+001 -1.087196e+001 -2.646928e+001 1.067495e+002 -8.394128e+001 4.132019e+001 -1.632541e+001 -5.473140e+001
3068906250 -2.121298e+001 -1.087427e+000 -2.596758e+001 2.889669e+001 -9.901131e+001 -7.844485e+001 -1.610179e+001 -4.964868e+001
3070000000 -2.102202e+001 8.328152e+000 -2.527830e+001 -4.880183e+001 -8.772289e+001 1.509291e+002 -1.599681e+001 -4.453477e+001
3071093750 -2.102574e+001 1.739340e+001 -2.474712e+001 -1.250598e+002 -8.514567e+001 1.550581e+002 -1.605940e+001 -3.953169e+001
3072187500 -2.118690e+001 2.619875e+001 -2.462694e+001 1.604982e+002 -8.118530e+001 -1.576531e+002 -1.622719e+001 -3.446766e+001
3073281250 -2.157004e+001 3.459267e+001 -2.504972e+001 8.772459e+001 -7.938012e+001 1.759737e+002 -1.655089e+001 -2.964566e+001
3074375000 -2.216969e+001 4.261096e+001 -2.593466e+001 1.676999e+001 -8.643019e+001 1.140827e+002 -1.700278e+001 -2.501366e+001
3075468750 -2.302909e+001 5.019691e+001 -2.709395e+001 -5.277504e+001 -8.704639e+001 -1.607300e+002 -1.759882e+001 -2.085928e+001
3076562500 -2.421735e+001 5.732930e+001 -2.811444e+001 -1.232841e+002 -8.094026e+001 1.362138e+002 -1.835229e+001 -1.736282e+001
3077656250 -2.577810e+001 6.351624e+001 -2.868530e+001 1.642221e+002 -8.914857e+001 1.516984e+002 -1.928431e+001 -1.441643e+001
3078750000 -2.792795e+001 6.806036e+001 -2.859134e+001 8.950993e+001 -8.149509e+001 1.003985e+002 -2.038439e+001 -1.284228e+001
3079843750 -3.091823e+001 6.939397e+001 -2.777127e+001 1.558672e+001 -8.712188e+001 5.605582e+001 -2.167534e+001 -1.307444e+001
3080937500 -3.525700e+001 5.999322e+001 -2.654450e+001 -5.660295e+001 -9.565950e+001 6.583475e+001 -2.309550e+001 -1.583868e+001
3082031250 -3.871753e+001 1.801633e+001 -2.528206e+001 -1.274855e+002 -9.394666e+001 -6.823944e+001 -2.449382e+001 -2.236001e+001
3083125000 -3.495909e+001 -2.202603e+001 -2.427550e+001 1.622599e+002 -8.500000e+001 1.742973e+002 -2.556126e+001 -3.305950e+001
3084218750 -3.066920e+001 -3.058143e+001 -2.364014e+001 9.151865e+001 -9.031328e+001 1.066960e+002 -2.581368e+001 -4.658711e+001
3085312500 -2.779505e+001 -2.946122e+001 -2.336368e+001 1.960633e+001 -8.714074e+001 -8.411540e+001 -2.519023e+001 -5.864640e+001
3086406250 -2.569769e+001 -2.467396e+001 -2.334065e+001 -5.451029e+001 -8.325931e+001 1.464170e+002 -2.410713e+001 -6.656379e+001
3087500000 -2.415521e+001 -1.890434e+001 -2.347013e+001 -1.318924e+002 -8.992577e+001 -1.758302e+002 -2.288545e+001 -7.086393e+001
3088593750 -2.303377e+001 -1.191021e+001 -2.354313e+001 1.477568e+002 -8.445340e+001 -1.349652e+002 -2.179437e+001 -7.227223e+001
3089687500 -2.217279e+001 -4.802700e+000 -2.345130e+001 6.631239e+001 -9.396881e+001 1.178864e+002 -2.086406e+001 -7.178657e+001
3090781250 -2.160088e+001 2.855143e+000 -2.324833e+001 -1.349920e+001 -9.732478e+001 5.762024e+000 -2.009002e+001 -7.031823e+001
3091875000 -2.121567e+001 1.061255e+001 -2.310305e+001 -9.015877e+001 -8.080231e+001 7.427263e-001 -1.948867e+001 -6.792757e+001
3092968750 -2.105512e+001 1.847420e+001 -2.313491e+001 -1.635696e+002 -8.837243e+001 -1.068469e+002 -1.904475e+001 -6.512093e+001
3094062500 -2.109366e+001 2.649648e+001 -2.335922e+001 1.248932e+002 -8.563827e+001 -1.050811e+001 -1.872497e+001 -6.209798e+001
3095156250 -2.130452e+001 3.467505e+001 -2.381349e+001 5.362352e+001 -8.890862e+001 8.285772e+001 -1.851435e+001 -5.910944e+001
3096250000 -2.170152e+001 4.304404e+001 -2.453145e+001 -1.847528e+001 -8.317949e+001 6.107587e+001 -1.842734e+001 -5.634661e+001
3097343750 -2.234205e+001 5.163148e+001 -2.538537e+001 -9.180509e+001 -8.655515e+001 -7.858432e+001 -1.845644e+001 -5.343376e+001
3098437500 -2.321926e+001 6.044073e+001 -2.601773e+001 -1.663072e+002 -8.106461e+001 -1.503624e+002 -1.854506e+001 -5.100189e+001
3099531250 -2.439299e+001 6.962914e+001 -2.605489e+001 1.181390e+002 -8.743343e+001 -1.782722e+002 -1.872203e+001 -4.871718e+001
3100625000 -2.595540e+001 7.927883e+001 -2.545493e+001 4.229255e+001 -7.985229e+001 -3.065239e+001 -1.893265e+001 -4.686125e+001
3101718750 -2.799911e+001 8.968123e+001 -2.469108e+001 -3.318459e+001 -8.398518e+001 -4.887467e+001 -1.918567e+001 -4.540924e+001
3102812500 -3.090822e+001 1.030766e+002 -2.413770e+001 -1.072578e+002 -8.719017e+001 1.090797e+002 -1.948996e+001 -4.432825e+001
3103906250 -3.521044e+001 1.234993e+002 -2.397039e+001 -1.798192e+002 -8.063641e+001 9.681128e+001 -1.976009e+001 -4.374811e+001
3105000000 -4.057682e+001 1.733379e+002 -2.413982e+001 1.083389e+002 -8.594461e+001 -1.349801e+002 -2.004304e+001 -4.357709e+001
3106093750 -3.794332e+001 -1.151160e+002 -2.459538e+001 3.576990e+001 -1.056730e+002 1.590664e+002 -2.029627e+001 -4.369223e+001
3107187500 -3.307143e+001 -8.668033e+001 -2.526686e+001 -3.895089e+001 -8.075046e+001 9.403732e+001 -2.052232e+001 -4.406334e+001
3108281250 -2.983291e+001 -7.067721e+001 -2.602908e+001 -1.164338e+002 -1.010984e+002 8.058819e+001 -2.072913e+001 -4.458103e+001
3109375000 -2.765094e+001 -5.909538e+001 -2.666429e+001 1.643988e+002 -7.800892e+001 -8.479488e+001 -2.091527e+001 -4.512247e+001
3110468750 -2.606146e+001 -4.901818e+001 -2.705921e+001 8.563501e+001 -9.111271e+001 -1.381117e+002 -2.108264e+001 -4.573574e+001
3111562500 -2.494193e+001 -3.957421e+001 -2.730562e+001 1.017228e+001 -8.650825e+001 6.073501e+000 -2.123932e+001 -4.608479e+001
3112656250 -2.418715e+001 -3.086102e+001 -2.754870e+001 -6.112442e+001 -8.367858e+001 2.907879e+001 -2.139713e+001 -4.652485e+001
3113750000 -2.367906e+001 -2.226758e+001 -2.774533e+001 -1.286028e+002 -8.699347e+001 -2.318141e+001 -2.160122e+001 -4.687402e+001
3114843750 -2.344871e+001 -1.401489e+001 -2.795705e+001 1.650051e+002 -7.966482e+001 -4.644672e+001 -2.180971e+001 -4.734058e+001
3115937500 -2.344796e+001 -5.829986e+000 -2.839584e+001 9.744344e+001 -8.766656e+001 -1.347311e+002 -2.205380e+001 -4.814749e+001
3117031250 -2.366986e+001 2.226165e+000 -2.910550e+001 2.809402e+001 -8.559280e+001 1.696683e+002 -2.233485e+001 -4.925177e+001
3118125000 -2.412349e+001 9.925989e+000 -2.984067e+001 -4.270431e+001 -9.274133e+001 8.290611e+001 -2.256536e+001 -5.079220e+001
3119218750 -2.486584e+001 1.759096e+001 -3.008652e+001 -1.152266e+002 -8.220866e+001 1.549140e+002 -2.281374e+001 -5.283575e+001
3120312500 -2.591556e+001 2.477819e+001 -2.961765e+001 1.711563e+002 -9.113811e+001 1.223635e+002 -2.298638e+001 -5.557378e+001
3121406250 -2.738164e+001 3.157770e+001 -2.861532e+001 9.797753e+001 -9.226199e+001 1.135442e+002 -2.304652e+001 -5.859587e+001
3122500000 -2.942560e+001 3.777018e+001 -2.744303e+001 2.670305e+001 -8.603085e+001 -1.175728e+002 -2.297331e+001 -6.171250e+001
3123593750 -3.229214e+001 4.171451e+001 -2.643154e+001 -4.261520e+001 -9.087212e+001 -8.032383e+001 -2.276059e+001 -6.447281e+001
3124687500 -3.695663e+001 4.048516e+001 -2.557409e+001 -1.109810e+002 -8.044030e+001 -1.630353e+002 -2.247253e+001 -6.668584e+001
3125781250 -4.452430e+001 4.005593e+000 -2.489560e+001 -1.799511e+002 -9.418371e+001 -6.148377e+000 -2.208860e+001 -6.821771e+001
3126875000 -4.010905e+001 -6.908721e+001 -2.445980e+001 1.088615e+002 -1.100450e+002 8.450721e+001 -2.169429e+001 -6.875918e+001
3127968750 -3.405901e+001 -7.847976e+001 -2.414338e+001 3.471167e+001 -8.317621e+001 -4.529282e+001 -2.128999e+001 -6.833093e+001
3129062500 -3.054073e+001 -7.563625e+001 -2.373882e+001 -4.300144e+001 -8.618213e+001 -1.119601e+002 -2.091971e+001 -6.699275e+001
3130156250 -2.817969e+001 -7.034451e+001 -2.310889e+001 -1.236737e+002 -8.794785e+001 -1.629639e+001 -2.059883e+001 -6.503958e+001
3131250000 -2.646119e+001 -6.404880e+001 -2.223061e+001 1.550045e+002 -1.018629e+002 -1.190124e+002 -2.039235e+001 -6.249728e+001
3132343750 -2.523646e+001 -5.751270e+001 -2.133858e+001 7.494576e+001 -8.776453e+001 1.554908e+001 -2.026755e+001 -5.961266e+001
3133437500 -2.435409e+001 -5.047963e+001 -2.063547e+001 -3.414959e+000 -9.062904e+001 5.483249e+001 -2.025618e+001 -5.629001e+001
3134531250 -2.374693e+001 -4.319868e+001 -2.027606e+001 -8.045389e+001 -8.016541e+001 -1.523853e+002 -2.036966e+001 -5.281039e+001
3135625000 -2.337103e+001 -3.587120e+001 -2.029359e+001 -1.575523e+002 -8.117819e+001 1.032131e+001 -2.065537e+001 -4.917399e+001
3136718750 -2.326393e+001 -2.856568e+001 -2.066171e+001 1.244869e+002 -8.385049e+001 -1.590960e+002 -2.107746e+001 -4.538231e+001
3137812500 -2.330674e+001 -2.140773e+001 -2.118493e+001 4.456155e+001 -8.446587e+001 -6.402211e+000 -2.168026e+001 -4.188532e+001
3138906250 -2.360335e+001 -1.431609e+001 -2.165011e+001 -3.717734e+001 -9.762748e+001 1.693321e+002 -2.250174e+001 -3.875151e+001
3140000000 -2.414096e+001 -7.287003e+000 -2.175906e+001 -1.189129e+002 -9.816542e+001 1.036315e+001 -2.354317e+001 -3.616164e+001
3141093750 -2.493965e+001 -6.878367e-001 -2.158594e+001 1.608928e+002 -7.728235e+001 5.357979e+001 -2.486315e+001 -3.473014e+001
3142187500 -2.603591e+001 5.570150e+000 -2.131655e+001 8.315224e+001 -8.597955e+001 -1.320932e+002 -2.650779e+001 -3.546112e+001
3143281250 -2.758511e+001 1.117631e+001 -2.126574e+001 7.455958e+000 -8.569006e+001 -1.325262e+002 -2.846959e+001 -4.073709e+001
3144375000 -2.966040e+001 1.540871e+001 -2.163155e+001 -6.728105e+001 -1.021044e+002 -1.093010e+002 -3.044542e+001 -5.320811e+001
3145468750 -3.267002e+001 1.624345e+001 -2.248540e+001 -1.421732e+002 -8.472797e+001 9.064671e+001 -3.148290e+001 -7.407241e+001
3146562500 -3.704792e+001 6.562507e+000 -2.381031e+001 1.417844e+002 -9.327771e+001 3.471230e+001 -3.048071e+001 -9.555080e+001
3147656250 -4.088882e+001 -3.715070e+001 -2.539212e+001 6.362343e+001 -8.490687e+001 -1.419109e+002 -2.847539e+001 -1.082094e+002
3148750000 -3.675269e+001 -7.927800e+001 -2.680676e+001 -1.692224e+001 -8.389067e+001 2.104213e+001 -2.636316e+001 -1.132302e+002
3149843750 -3.236305e+001 -8.828441e+001 -2.766349e+001 -9.756696e+001 -8.626541e+001 -8.358961e+001 -2.468550e+001 -1.139058e+002
3150937500 -2.940733e+001 -8.721770e+001 -2.795871e+001 -1.741027e+002 -8.176546e+001 1.632923e+002 -2.331884e+001 -1.120783e+002
3152031250 -2.726122e+001 -8.321999e+001 -2.797940e+001 1.148406e+002 -8.704438e+001 -1.763427e+002 -2.223356e+001 -1.090275e+002
3153125000 -2.567959e+001 -7.745068e+001 -2.806906e+001 4.845126e+001 -8.644043e+001 -7.292474e+001 -2.139442e+001 -1.051367e+002
3154218750 -2.450957e+001 -7.099799e+001 -2.839725e+001 -1.478485e+001 -8.322798e+001 -1.419409e+001 -2.076954e+001 -1.007163e+002
3155312500 -2.365935e+001 -6.422923e+001 -2.881161e+001 -7.614165e+001 -8.177673e+001 -7.496532e+001 -2.035588e+001 -9.606373e+001
3156406250 -2.303694e+001 -5.710071e+001 -2.923197e+001 -1.398234e+002 -8.809209e+001 4.307170e+001 -2.010354e+001 -9.129699e+001
3157500000 -2.263313e+001 -4.988496e+001 -2.982242e+001 1.510935e+002 -8.542894e+001 4.887127e+001 -2.003647e+001 -8.660146e+001
3158593750 -2.245498e+001 -4.248391e+001 -3.057034e+001 7.464950e+001 -1.004000e+002 -2.006995e+001 -2.012857e+001 -8.210617e+001
3159687500 -2.245681e+001 -3.507279e+001 -3.088643e+001 -8.213965e+000 -8.400080e+001 -1.796477e+002 -2.038861e+001 -7.797892e+001
3160781250 -2.263288e+001 -2.766198e+001 -3.020822e+001 -9.247761e+001 -8.171217e+001 1.136851e+002 -2.084345e+001 -7.413415e+001
3161875000 -2.302260e+001 -1.988884e+001 -2.895631e+001 -1.729698e+002 -8.878614e+001 -4.324768e+001 -2.144923e+001 -7.120480e+001
3162968750 -2.363280e+001 -1.213205e+001 -2.799796e+001 1.107738e+002 -8.527145e+001 -1.532614e+002 -2.220736e+001 -6.956424e+001
3164062500 -2.446508e+001 -4.462569e+000 -2.792810e+001 3.716608e+001 -9.020060e+001 3.532064e+000 -2.314487e+001 -6.947448e+001
