!Agilent Technologies,E8363B,MY43030572,A.06.04.32
!Agilent E8363B: A.06.04.32
!Date: Tuesday, June 07, 2011 08:45:11
!Correction: S11(Full 2 Port(1,2)) S21(Full 2 Port(1,2)) S12(Full 2 Port(1,2)) S22(Full 2 Port(1,2)) 
!S2P File: Measurements: S11, S21, S12, S22:
# Hz S  dB   R 50
3000000000 -2.150317e+001 5.732641e+001 -3.446953e+001 5.101552e+001 -8.866051e+001 1.126612e+002 -1.662517e+001 -1.992863e+001
3001093750 -2.100371e+001 6.589220e+001 -3.285049e+001 -3.001275e+001 -8.754901e+001 8.115490e+000 -1.683801e+001 -1.686678e+001
3002187500 -2.073814e+001 7.487715e+001 -3.124611e+001 -1.024145e+002 -7.662202e+001 1.142794e+002 -1.710955e+001 -1.338888e+001
3003281250 -2.064953e+001 8.385530e+001 -3.051048e+001 -1.743707e+002 -9.185947e+001 1.504587e+002 -1.750447e+001 -1.030847e+001
3004375000 -2.076811e+001 9.284399e+001 -3.052915e+001 1.126269e+002 -9.055354e+001 -7.925654e+001 -1.803156e+001 -8.023982e+000
3005468750 -2.108015e+001 1.020077e+002 -3.113112e+001 3.735208e+001 -9.062595e+001 1.468655e+002 -1.866789e+001 -6.561529e+000
3006562500 -2.162395e+001 1.113663e+002 -3.212176e+001 -4.067681e+001 -8.791031e+001 1.231638e+002 -1.939789e+001 -6.361542e+000
3007656250 -2.242270e+001 1.208706e+002 -3.306602e+001 -1.221180e+002 -9.004510e+001 -1.554763e+002 -2.016621e+001 -7.768268e+000
3008750000 -2.351973e+001 1.309565e+002 -3.352239e+001 1.567822e+002 -7.858127e+001 -1.265025e+001 -2.091495e+001 -1.105833e+001
3009843750 -2.500228e+001 1.419917e+002 -3.359572e+001 8.027650e+001 -8.114810e+001 -8.704829e+001 -2.147332e+001 -1.619689e+001
3010937500 -2.702234e+001 1.544755e+002 -3.346126e+001 1.043064e+001 -7.690159e+001 -4.170400e+001 -2.172242e+001 -2.269276e+001
3012031250 -2.981413e+001 1.713366e+002 -3.325755e+001 -5.380620e+001 -8.475577e+001 8.668620e+001 -2.158747e+001 -2.934958e+001
3013125000 -3.357340e+001 -1.623934e+002 -3.321656e+001 -1.157771e+002 -8.627511e+001 -1.702488e+002 -2.111224e+001 -3.483916e+001
3014218750 -3.650318e+001 -1.094762e+002 -3.332415e+001 -1.766509e+002 -8.547496e+001 1.656481e+002 -2.043588e+001 -3.838634e+001
3015312500 -3.347696e+001 -5.661878e+001 -3.374207e+001 1.230599e+002 -8.429671e+001 4.717821e+000 -1.969835e+001 -3.996868e+001
3016406250 -2.957645e+001 -2.997174e+001 -3.397374e+001 6.233052e+001 -8.239833e+001 1.530811e+002 -1.897814e+001 -3.984104e+001
3017500000 -2.671346e+001 -1.374109e+001 -3.397756e+001 -2.931440e+000 -8.495385e+001 1.289878e+002 -1.836341e+001 -3.848129e+001
3018593750 -2.460897e+001 -1.101177e+000 -3.369589e+001 -7.453306e+001 -8.201577e+001 -1.736941e+002 -1.785897e+001 -3.608170e+001
3019687500 -2.301720e+001 9.778850e+000 -3.300796e+001 -1.508935e+002 -8.084431e+001 7.691035e+001 -1.747591e+001 -3.303645e+001
3020781250 -2.181687e+001 1.979356e+001 -3.172035e+001 1.316805e+002 -8.346075e+001 9.999181e+001 -1.723553e+001 -2.959128e+001
3021875000 -2.091986e+001 2.939531e+001 -3.009099e+001 5.514334e+001 -8.562881e+001 -7.673734e-001 -1.713552e+001 -2.578532e+001
3022968750 -2.026812e+001 3.849488e+001 -2.858814e+001 -2.060180e+001 -8.268629e+001 -1.374669e+002 -1.718043e+001 -2.194061e+001
3024062500 -1.980406e+001 4.740719e+001 -2.761882e+001 -9.552656e+001 -9.078822e+001 1.468928e+002 -1.737565e+001 -1.800207e+001
3025156250 -1.956780e+001 5.644939e+001 -2.725625e+001 -1.699146e+002 -9.948878e+001 -6.119126e+001 -1.770635e+001 -1.419343e+001
3026250000 -1.948496e+001 6.512514e+001 -2.745363e+001 1.162108e+002 -8.563950e+001 3.970270e-001 -1.820224e+001 -1.078666e+001
3027343750 -1.959073e+001 7.373796e+001 -2.803634e+001 4.235884e+001 -8.860032e+001 4.692253e+001 -1.886836e+001 -7.719639e+000
3028437500 -1.989148e+001 8.231119e+001 -2.866586e+001 -3.198845e+001 -9.861905e+001 1.514614e+002 -1.970872e+001 -5.611902e+000
3029531250 -2.039259e+001 9.071688e+001 -2.896930e+001 -1.060732e+002 -8.329557e+001 -5.239008e+000 -2.072628e+001 -4.988539e+000
3030625000 -2.110013e+001 9.917320e+001 -2.874625e+001 1.798340e+002 -8.780940e+001 -1.213497e+002 -2.190119e+001 -6.246482e+000
3031718750 -2.208301e+001 1.074406e+002 -2.807906e+001 1.066437e+002 -8.932042e+001 -6.508672e+000 -2.315105e+001 -1.047691e+001
3032812500 -2.335579e+001 1.156969e+002 -2.727029e+001 3.418327e+001 -9.805706e+001 -1.271483e+002 -2.421740e+001 -1.849561e+001
3033906250 -2.509645e+001 1.237767e+002 -2.660937e+001 -3.804512e+001 -8.583488e+001 -1.583738e+002 -2.477293e+001 -2.989336e+001
3035000000 -2.742793e+001 1.315671e+002 -2.627658e+001 -1.105184e+002 -9.354944e+001 1.077496e+002 -2.446263e+001 -4.195581e+001
3036093750 -3.094131e+001 1.387114e+002 -2.630305e+001 1.766692e+002 -8.345637e+001 1.199205e+002 -2.353886e+001 -5.123383e+001
3037187500 -3.722565e+001 1.436024e+002 -2.664982e+001 1.030371e+002 -9.735957e+001 6.035314e+001 -2.234209e+001 -5.658701e+001
3038281250 -5.376878e+001 4.366032e+001 -2.708142e+001 2.816725e+001 -9.861102e+001 -6.490388e+001 -2.114446e+001 -5.866500e+001
3039375000 -3.629180e+001 -6.326790e+000 -2.728901e+001 -4.770856e+001 -7.898988e+001 -1.416384e+002 -2.010973e+001 -5.838331e+001
3040468750 -3.075037e+001 -3.500625e-001 -2.715893e+001 -1.234641e+002 -8.298253e+001 1.563794e+002 -1.924432e+001 -5.647913e+001
3041562500 -2.754684e+001 7.105758e+000 -2.663270e+001 1.621410e+002 -9.355589e+001 -6.796327e+001 -1.856410e+001 -5.343740e+001
3042656250 -2.541183e+001 1.521884e+001 -2.593162e+001 8.934818e+001 -8.509196e+001 -1.643143e+002 -1.805915e+001 -4.971145e+001
3043750000 -2.388705e+001 2.347742e+001 -2.524339e+001 1.725882e+001 -9.120232e+001 -3.536075e+001 -1.771226e+001 -4.553945e+001
3044843750 -2.277888e+001 3.209637e+001 -2.482449e+001 -5.502567e+001 -7.991283e+001 -1.566231e+000 -1.753316e+001 -4.127204e+001
3045937500 -2.200089e+001 4.087717e+001 -2.478605e+001 -1.285527e+002 -8.430526e+001 -8.223553e-001 -1.750413e+001 -3.686935e+001
3047031250 -2.148269e+001 4.979968e+001 -2.518778e+001 1.563210e+002 -7.945649e+001 -2.873911e+001 -1.764205e+001 -3.245880e+001
3048125000 -2.118858e+001 5.893984e+001 -2.593281e+001 7.934504e+001 -8.032703e+001 -1.016417e+002 -1.794989e+001 -2.834266e+001
3049218750 -2.109157e+001 6.831021e+001 -2.674354e+001 8.979464e-001 -9.830788e+001 -7.743727e+001 -1.845501e+001 -2.440065e+001
3050312500 -2.121863e+001 7.775883e+001 -2.733971e+001 -7.766366e+001 -8.820966e+001 -8.135547e+001 -1.914341e+001 -2.100635e+001
3051406250 -2.152617e+001 8.777966e+001 -2.758425e+001 -1.540191e+002 -8.343013e+001 8.714212e+001 -1.999990e+001 -1.879553e+001
3052500000 -2.203498e+001 9.826966e+001 -2.757150e+001 1.336179e+002 -9.987457e+001 1.332548e+002 -2.110916e+001 -1.792735e+001
3053593750 -2.278973e+001 1.095658e+002 -2.745300e+001 6.479849e+001 -8.629814e+001 -5.955295e+001 -2.238816e+001 -1.909993e+001
3054687500 -2.374235e+001 1.220902e+002 -2.731301e+001 -1.951700e+000 -8.188651e+001 -1.369374e+002 -2.381616e+001 -2.396188e+001
3055781250 -2.496210e+001 1.359959e+002 -2.732749e+001 -6.768261e+001 -8.198049e+001 -1.193144e+002 -2.501058e+001 -3.351205e+001
3056875000 -2.640153e+001 1.528586e+002 -2.746278e+001 -1.346409e+002 -7.939079e+001 -1.141934e+002 -2.551276e+001 -4.733429e+001
3057968750 -2.792625e+001 1.739493e+002 -2.777809e+001 1.563617e+002 -9.120763e+001 -6.887914e+001 -2.494847e+001 -6.141633e+001
3059062500 -2.912052e+001 -1.593288e+002 -2.797582e+001 8.419214e+001 -8.139739e+001 9.574607e+001 -2.360376e+001 -7.101701e+001
3060156250 -2.930559e+001 -1.294103e+002 -2.785026e+001 7.815603e+000 -8.369247e+001 6.528669e+001 -2.210040e+001 -7.609129e+001
3061250000 -2.836242e+001 -1.012388e+002 -2.728543e+001 -7.157722e+001 -8.892458e+001 -9.866375e+001 -2.069334e+001 -7.756567e+001
3062343750 -2.689878e+001 -7.848519e+001 -2.641244e+001 -1.509593e+002 -8.165993e+001 9.867759e+001 -1.948786e+001 -7.643086e+001
3063437500 -2.540900e+001 -6.052449e+001 -2.561771e+001 1.319785e+002 -8.374766e+001 -1.684010e+002 -1.847254e+001 -7.396487e+001
3064531250 -2.407549e+001 -4.564845e+001 -2.516219e+001 5.746339e+001 -8.448625e+001 -4.320095e+001 -1.766603e+001 -7.050690e+001
3065625000 -2.303176e+001 -3.297369e+001 -2.515212e+001 -1.517811e+001 -8.985340e+001 -1.248852e+002 -1.704753e+001 -6.635717e+001
3066718750 -2.223429e+001 -2.155656e+001 -2.559180e+001 -8.687132e+001 -8.618291e+001 1.620479e+002 -1.657173e+001 -6.178750e+001
3067812500 -2.163144e+001 -1.097410e+001 -2.643271e+001 -1.593884e+002 -7.933173e+001 -8.940755e+001 -1.624805e+001 -5.687083e+001
3068906250 -2.123561e+001 -1.108147e+000 -2.763244e+001 1.260886e+002 -1.013118e+002 -2.522270e+001 -1.606491e+001 -5.181432e+001
3070000000 -2.104453e+001 8.389791e+000 -2.896054e+001 4.865195e+001 -7.913961e+001 -8.149680e+001 -1.599319e+001 -4.670601e+001
3071093750 -2.103186e+001 1.737497e+001 -3.007893e+001 -2.975532e+001 -8.360649e+001 6.801563e+001 -1.606489e+001 -4.170616e+001
3072187500 -2.121240e+001 2.614921e+001 -3.062558e+001 -1.054502e+002 -8.240287e+001 -3.883098e+001 -1.627502e+001 -3.663164e+001
3073281250 -2.157936e+001 3.453378e+001 -3.056295e+001 -1.747962e+002 -8.917546e+001 1.731143e+002 -1.660875e+001 -3.184831e+001
3074375000 -2.219253e+001 4.261425e+001 -2.986918e+001 1.223239e+002 -9.204966e+001 4.365007e+001 -1.709084e+001 -2.736567e+001
3075468750 -2.303792e+001 5.010250e+001 -2.857159e+001 6.043665e+001 -9.469499e+001 -1.476688e+002 -1.772486e+001 -2.337438e+001
3076562500 -2.422890e+001 5.719061e+001 -2.731243e+001 -4.289677e+000 -8.325710e+001 1.385165e+002 -1.852726e+001 -2.000973e+001
3077656250 -2.580434e+001 6.344849e+001 -2.650526e+001 -7.229175e+001 -8.724618e+001 -1.190795e+002 -1.951653e+001 -1.740615e+001
3078750000 -2.792889e+001 6.819147e+001 -2.614682e+001 -1.434637e+002 -9.206112e+001 -7.855920e+001 -2.068293e+001 -1.613747e+001
3079843750 -3.091753e+001 6.940411e+001 -2.620519e+001 1.416654e+002 -8.870199e+001 -5.210702e+001 -2.202603e+001 -1.676755e+001
3080937500 -3.527116e+001 6.006153e+001 -2.640131e+001 6.231026e+001 -8.649728e+001 -1.444195e+002 -2.347429e+001 -2.031793e+001
3082031250 -3.881618e+001 1.823087e+001 -2.641736e+001 -2.044769e+001 -8.262070e+001 -1.469454e+002 -2.483974e+001 -2.786560e+001
3083125000 -3.498653e+001 -2.193459e+001 -2.611855e+001 -1.034243e+002 -8.800365e+001 1.277832e+002 -2.573979e+001 -3.959295e+001
3084218750 -3.069683e+001 -3.089309e+001 -2.566688e+001 1.768474e+002 -9.195150e+001 9.764962e+001 -2.577658e+001 -5.318367e+001
3085312500 -2.778930e+001 -2.957924e+001 -2.538565e+001 1.010443e+002 -8.870041e+001 -2.115600e+001 -2.496589e+001 -6.451521e+001
3086406250 -2.572333e+001 -2.475413e+001 -2.542091e+001 2.892480e+001 -8.881291e+001 1.758286e+001 -2.379066e+001 -7.161217e+001
3087500000 -2.416890e+001 -1.890982e+001 -2.581903e+001 -4.096143e+001 -8.703066e+001 3.753698e+001 -2.257278e+001 -7.529061e+001
3088593750 -2.303743e+001 -1.192686e+001 -2.647005e+001 -1.089153e+002 -8.563142e+001 2.247267e+001 -2.148337e+001 -7.615187e+001
3089687500 -2.219350e+001 -4.839021e+000 -2.710729e+001 -1.765797e+002 -8.048518e+001 8.600224e+001 -2.060857e+001 -7.535474e+001
3090781250 -2.160572e+001 2.796480e+000 -2.736655e+001 1.143944e+002 -8.812250e+001 -3.227990e+001 -1.988946e+001 -7.368473e+001
3091875000 -2.122917e+001 1.055331e+001 -2.706268e+001 4.225407e+001 -8.116176e+001 -9.425307e+001 -1.933230e+001 -7.105157e+001
3092968750 -2.105435e+001 1.845348e+001 -2.618181e+001 -3.362545e+001 -8.986517e+001 1.670526e+002 -1.893543e+001 -6.816866e+001
3094062500 -2.109108e+001 2.646953e+001 -2.501280e+001 -1.108520e+002 -7.979008e+001 1.630804e+002 -1.863694e+001 -6.508650e+001
3095156250 -2.130619e+001 3.461475e+001 -2.391568e+001 1.719842e+002 -8.414759e+001 1.452240e+002 -1.846318e+001 -6.200947e+001
3096250000 -2.171135e+001 4.303698e+001 -2.306616e+001 9.573902e+001 -8.313097e+001 -6.872778e+001 -1.839486e+001 -5.917309e+001
3097343750 -2.233530e+001 5.164783e+001 -2.253672e+001 1.990088e+001 -8.501299e+001 -1.123863e+002 -1.842705e+001 -5.624375e+001
3098437500 -2.322929e+001 6.042971e+001 -2.233767e+001 -5.683768e+001 -8.389570e+001 4.525344e+001 -1.853059e+001 -5.382651e+001
3099531250 -2.437110e+001 6.968220e+001 -2.244497e+001 -1.351035e+002 -9.091746e+001 1.666603e+001 -1.872666e+001 -5.167287e+001
3100625000 -2.595477e+001 7.931259e+001 -2.269417e+001 1.451036e+002 -8.452821e+001 -1.185988e+002 -1.895579e+001 -4.991951e+001
3101718750 -2.799226e+001 8.996399e+001 -2.291334e+001 6.440096e+001 -9.141546e+001 -1.074736e+002 -1.923835e+001 -4.855669e+001
3102812500 -3.086472e+001 1.030396e+002 -2.294547e+001 -1.565496e+001 -8.183334e+001 -9.326376e+001 -1.954629e+001 -4.767430e+001
3103906250 -3.507234e+001 1.235267e+002 -2.280753e+001 -9.389082e+001 -7.916714e+001 -4.066288e+001 -1.983945e+001 -4.720935e+001
3105000000 -4.046087e+001 1.728610e+002 -2.263968e+001 -1.702450e+002 -8.986155e+001 -4.748181e+001 -2.013859e+001 -4.709367e+001
3106093750 -3.796955e+001 -1.163847e+002 -2.261224e+001 1.143738e+002 -8.149838e+001 1.447821e+002 -2.041810e+001 -4.725093e+001
3107187500 -3.305434e+001 -8.701378e+001 -2.281253e+001 3.891980e+001 -8.736929e+001 9.812403e+001 -2.063060e+001 -4.759452e+001
3108281250 -2.987082e+001 -7.106536e+001 -2.326648e+001 -3.762262e+001 -8.817934e+001 -1.505721e+002 -2.083479e+001 -4.829237e+001
3109375000 -2.766721e+001 -5.936891e+001 -2.387001e+001 -1.159283e+002 -8.112341e+001 -1.606998e+002 -2.102187e+001 -4.885539e+001
3110468750 -2.609935e+001 -4.907527e+001 -2.447281e+001 1.643583e+002 -8.396406e+001 5.058146e+001 -2.115505e+001 -4.939669e+001
3111562500 -2.495321e+001 -3.968458e+001 -2.486807e+001 8.405777e+001 -8.578719e+001 6.518040e+001 -2.129727e+001 -4.992447e+001
3112656250 -2.417984e+001 -3.089367e+001 -2.501921e+001 5.131536e+000 -8.359339e+001 1.562566e+002 -2.145707e+001 -5.049324e+001
3113750000 -2.369249e+001 -2.235963e+001 -2.506718e+001 -7.198113e+001 -9.253562e+001 -5.523521e+001 -2.166265e+001 -5.112525e+001
3114843750 -2.346592e+001 -1.403901e+001 -2.536866e+001 -1.477428e+002 -8.919350e+001 -1.631398e+002 -2.188455e+001 -5.176807e+001
3115937500 -2.346095e+001 -5.917064e+000 -2.624139e+001 1.368006e+002 -9.801774e+001 -1.756257e+002 -2.215891e+001 -5.268595e+001
3117031250 -2.368012e+001 2.148638e+000 -2.794137e+001 6.132217e+001 -8.557684e+001 7.783011e+000 -2.242945e+001 -5.395589e+001
3118125000 -2.413817e+001 1.004708e+001 -3.050680e+001 -1.530871e+001 -8.847737e+001 1.623862e+002 -2.268689e+001 -5.555943e+001
3119218750 -2.487831e+001 1.766621e+001 -3.393751e+001 -9.472099e+001 -8.149792e+001 1.393607e+002 -2.289942e+001 -5.765813e+001
3120312500 -2.591494e+001 2.492996e+001 -3.787571e+001 -1.793884e+002 -8.411919e+001 -4.754273e+001 -2.305041e+001 -6.029465e+001
3121406250 -2.739038e+001 3.177439e+001 -4.151035e+001 9.738742e+001 -8.613296e+001 1.071948e+002 -2.304413e+001 -6.319826e+001
3122500000 -2.939862e+001 3.807399e+001 -4.515431e+001 3.962741e+001 -8.416932e+001 -6.829870e+001 -2.291006e+001 -6.623576e+001
3123593750 -3.226443e+001 4.206087e+001 -4.252317e+001 2.256775e+001 -8.842998e+001 8.395325e+001 -2.268649e+001 -6.908174e+001
3124687500 -3.699628e+001 4.088671e+001 -3.583408e+001 -2.877473e+001 -9.314834e+001 9.904961e+001 -2.235685e+001 -7.130457e+001
3125781250 -4.482291e+001 6.662120e+000 -3.134108e+001 -9.548236e+001 -8.780693e+001 -8.307135e+001 -2.195621e+001 -7.261534e+001
3126875000 -4.007181e+001 -7.005478e+001 -2.845876e+001 -1.662022e+002 -8.296179e+001 4.011416e-001 -2.157010e+001 -7.301962e+001
3127968750 -3.412795e+001 -7.900868e+001 -2.668210e+001 1.209136e+002 -8.219130e+001 -8.816305e+001 -2.119441e+001 -7.254853e+001
3129062500 -3.054703e+001 -7.595601e+001 -2.583920e+001 4.537175e+001 -8.987592e+001 -5.866049e+001 -2.088478e+001 -7.106204e+001
3130156250 -2.817866e+001 -7.060419e+001 -2.571933e+001 -3.335704e+001 -8.495934e+001 -1.594861e+002 -2.059535e+001 -6.881438e+001
3131250000 -2.647676e+001 -6.432995e+001 -2.597918e+001 -1.148523e+002 -8.329613e+001 9.955555e+001 -2.041228e+001 -6.612107e+001
3132343750 -2.524907e+001 -5.758192e+001 -2.619641e+001 1.617264e+002 -8.133993e+001 -1.567614e+002 -2.031596e+001 -6.303509e+001
3133437500 -2.434927e+001 -5.056449e+001 -2.598730e+001 7.927727e+001 -8.492589e+001 1.405200e+002 -2.033068e+001 -5.951865e+001
3134531250 -2.375603e+001 -4.336955e+001 -2.548689e+001 -5.015993e-001 -8.866488e+001 2.985424e+001 -2.045974e+001 -5.610046e+001
3135625000 -2.338637e+001 -3.587096e+001 -2.503549e+001 -7.760880e+001 -8.240384e+001 -1.531592e+002 -2.077721e+001 -5.268539e+001
3136718750 -2.325528e+001 -2.858061e+001 -2.500933e+001 -1.528390e+002 -9.077219e+001 5.123121e+001 -2.123658e+001 -4.927701e+001
3137812500 -2.331823e+001 -2.133072e+001 -2.552592e+001 1.326072e+002 -8.112756e+001 -1.438119e+002 -2.190818e+001 -4.593806e+001
3138906250 -2.359533e+001 -1.424676e+001 -2.659771e+001 5.771809e+001 -8.473589e+001 2.198920e+001 -2.280880e+001 -4.317255e+001
3140000000 -2.412469e+001 -7.240252e+000 -2.797886e+001 -1.881942e+001 -8.989880e+001 1.963966e+001 -2.395480e+001 -4.102541e+001
3141093750 -2.493622e+001 -5.848133e-001 -2.930777e+001 -9.875807e+001 -1.135225e+002 -1.098825e+001 -2.536923e+001 -4.018965e+001
3142187500 -2.602379e+001 5.823161e+000 -3.010471e+001 1.785784e+002 -8.774340e+001 -7.575382e+000 -2.713493e+001 -4.193944e+001
3143281250 -2.757206e+001 1.158806e+001 -3.032194e+001 9.714800e+001 -8.546836e+001 4.897391e+000 -2.912531e+001 -4.917938e+001
3144375000 -2.966191e+001 1.585677e+001 -3.062840e+001 2.175953e+001 -8.639095e+001 -5.521828e+001 -3.090507e+001 -6.428249e+001
3145468750 -3.265141e+001 1.674387e+001 -3.126317e+001 -4.495543e+001 -8.212778e+001 -1.001062e+001 -3.120780e+001 -8.607043e+001
3146562500 -3.721064e+001 7.700735e+000 -3.191157e+001 -1.020669e+002 -9.543481e+001 1.167726e+002 -2.968085e+001 -1.047542e+002
3147656250 -4.108902e+001 -3.825528e+001 -3.176837e+001 -1.548625e+002 -8.512515e+001 -1.838698e+000 -2.761219e+001 -1.147227e+002
3148750000 -3.690919e+001 -8.027919e+001 -3.104967e+001 1.481877e+002 -8.374430e+001 1.122725e+001 -2.564086e+001 -1.180706e+002
3149843750 -3.237881e+001 -8.886482e+001 -3.055897e+001 8.450137e+001 -8.710210e+001 -1.127822e+002 -2.406225e+001 -1.178935e+002
3150937500 -2.940671e+001 -8.757426e+001 -3.055980e+001 1.507431e+001 -1.051906e+002 -9.196932e+000 -2.281467e+001 -1.158210e+002
3152031250 -2.726568e+001 -8.347861e+001 -3.092409e+001 -6.010327e+001 -9.160432e+001 1.078442e+002 -2.181868e+001 -1.126481e+002
3153125000 -2.566556e+001 -7.763075e+001 -3.082867e+001 -1.398577e+002 -9.529052e+001 -1.179226e+002 -2.106883e+001 -1.086074e+002
3154218750 -2.451477e+001 -7.116290e+001 -2.997233e+001 1.384726e+002 -9.155600e+001 4.772647e+001 -2.052370e+001 -1.040705e+002
3155312500 -2.364788e+001 -6.432080e+001 -2.857395e+001 5.869280e+001 -9.949677e+001 -1.298056e+002 -2.016264e+001 -9.937456e+001
3156406250 -2.303378e+001 -5.718872e+001 -2.738244e+001 -1.777953e+001 -8.055360e+001 1.814489e+001 -1.996249e+001 -9.448933e+001
3157500000 -2.262513e+001 -4.983075e+001 -2.675134e+001 -9.101807e+001 -9.114913e+001 7.765840e+000 -1.993348e+001 -8.990041e+001
3158593750 -2.244539e+001 -4.247765e+001 -2.671963e+001 -1.620027e+002 -8.839447e+001 -4.500037e+000 -2.006394e+001 -8.543526e+001
3159687500 -2.244456e+001 -3.499483e+001 -2.711470e+001 1.282442e+002 -9.797281e+001 1.267623e+002 -2.035687e+001 -8.139346e+001
3160781250 -2.261604e+001 -2.756271e+001 -2.775446e+001 5.747983e+001 -8.284344e+001 5.699677e+001 -2.084113e+001 -7.785049e+001
3161875000 -2.303520e+001 -1.979343e+001 -2.846685e+001 -1.638627e+001 -8.410586e+001 1.479880e+001 -2.147155e+001 -7.522859e+001
3162968750 -2.362177e+001 -1.192614e+001 -2.896093e+001 -9.360316e+001 -8.663342e+001 -7.095484e+001 -2.225751e+001 -7.405836e+001
3164062500 -2.447601e+001 -4.251796e+000 -2.884268e+001 -1.725855e+002 -8.665737e+001 1.521876e+002 -2.320372e+001 -7.454624e+001
