!Agilent Technologies,E8363B,MY43030572,A.06.04.32
!Agilent E8363B: A.06.04.32
!Date: Tuesday, June 07, 2011 08:56:36
!Correction: S11(Full 2 Port(1,2)) S21(Full 2 Port(1,2)) S12(Full 2 Port(1,2)) S22(Full 2 Port(1,2)) 
!S2P File: Measurements: S11, S21, S12, S22:
# Hz S  dB   R 50
3000000000 -2.181586e+001 6.796074e+001 -4.114358e+001 -2.179783e+001 -9.185403e+001 1.575367e+002 -1.663310e+001 -2.323439e+001
3001093750 -2.100001e+001 7.576538e+001 -3.627530e+001 -1.025354e+002 -7.887624e+001 8.517014e+001 -1.688397e+001 -1.994831e+001
3002187500 -2.044686e+001 8.404298e+001 -3.297764e+001 -1.638629e+002 -9.734067e+001 -4.259967e+001 -1.716611e+001 -1.644321e+001
3003281250 -2.012139e+001 9.241032e+001 -3.173549e+001 1.323405e+002 -9.916648e+001 -1.368338e+002 -1.759133e+001 -1.358020e+001
3004375000 -1.999243e+001 1.007915e+002 -3.209533e+001 6.624173e+001 -8.293640e+001 2.702857e+001 -1.815289e+001 -1.148032e+001
3005468750 -2.008441e+001 1.093724e+002 -3.411342e+001 -5.988489e+000 -8.629967e+001 -1.717812e+002 -1.885110e+001 -1.035626e+001
3006562500 -2.035894e+001 1.179964e+002 -3.800956e+001 -9.553452e+001 -8.487781e+001 2.543135e+001 -1.964899e+001 -1.053835e+001
3007656250 -2.084818e+001 1.267070e+002 -3.870325e+001 1.416455e+002 -8.336761e+001 2.660674e+001 -2.049410e+001 -1.243981e+001
3008750000 -2.157257e+001 1.355275e+002 -3.472563e+001 4.351872e+001 -8.590361e+001 -5.579099e+001 -2.128515e+001 -1.623236e+001
3009843750 -2.259785e+001 1.446219e+002 -3.254508e+001 -3.483950e+001 -7.854437e+001 1.066702e+002 -2.186190e+001 -2.175946e+001
3010937500 -2.401423e+001 1.541645e+002 -3.247310e+001 -1.097592e+002 -8.404034e+001 1.098604e+002 -2.207156e+001 -2.833657e+001
3012031250 -2.599772e+001 1.646682e+002 -3.468725e+001 1.717818e+002 -8.368124e+001 2.348654e+000 -2.183438e+001 -3.489961e+001
3013125000 -2.878240e+001 1.773173e+002 -3.895972e+001 7.217722e+001 -8.313187e+001 1.486346e+002 -2.124005e+001 -4.002686e+001
3014218750 -3.299614e+001 -1.635327e+002 -3.814307e+001 -5.630882e+001 -8.782434e+001 -1.505045e+001 -2.047367e+001 -4.329668e+001
3015312500 -3.896860e+001 -1.150702e+002 -3.378852e+001 -1.480475e+002 -8.860945e+001 -6.988984e+001 -1.966688e+001 -4.476956e+001
3016406250 -3.621519e+001 -3.621701e+001 -3.152229e+001 1.375256e+002 -9.719875e+001 -1.723267e+002 -1.895307e+001 -4.470788e+001
3017500000 -3.078631e+001 -7.135785e+000 -3.105409e+001 6.721156e+001 -8.333012e+001 7.963800e+001 -1.837173e+001 -4.338524e+001
3018593750 -2.718476e+001 8.205153e+000 -3.201011e+001 -3.488475e+000 -8.309140e+001 1.219731e+002 -1.793067e+001 -4.100378e+001
3019687500 -2.474969e+001 1.972328e+001 -3.440751e+001 -7.961768e+001 -9.012416e+001 7.219867e+001 -1.761684e+001 -3.776089e+001
3020781250 -2.295183e+001 2.955185e+001 -3.767529e+001 -1.717521e+002 -8.457379e+001 1.336510e+002 -1.744110e+001 -3.401999e+001
3021875000 -2.164564e+001 3.888238e+001 -3.775018e+001 8.205285e+001 -8.898906e+001 -7.316174e+001 -1.738934e+001 -2.993402e+001
3022968750 -2.065916e+001 4.765863e+001 -3.507243e+001 -5.050925e+000 -8.653129e+001 7.836178e+001 -1.745532e+001 -2.587893e+001
3024062500 -1.994735e+001 5.626818e+001 -3.322845e+001 -7.630401e+001 -9.760996e+001 7.165630e+001 -1.764454e+001 -2.189945e+001
3025156250 -1.944657e+001 6.488519e+001 -3.263442e+001 -1.402083e+002 -9.192120e+001 3.170057e+001 -1.798431e+001 -1.832105e+001
3026250000 -1.914661e+001 7.321835e+001 -3.299324e+001 1.584246e+002 -8.830768e+001 1.288286e+002 -1.850665e+001 -1.532161e+001
3027343750 -1.903334e+001 8.148038e+001 -3.418572e+001 9.784845e+001 -8.605293e+001 -1.638720e+002 -1.923668e+001 -1.287180e+001
3028437500 -1.910775e+001 8.966232e+001 -3.604310e+001 3.447544e+001 -8.191544e+001 5.102369e-001 -2.016172e+001 -1.164906e+001
3029531250 -1.936366e+001 9.753850e+001 -3.840180e+001 -3.753667e+001 -9.087913e+001 1.566828e+002 -2.130725e+001 -1.182964e+001
3030625000 -1.982541e+001 1.054493e+002 -3.985393e+001 -1.228266e+002 -9.263467e+001 -5.440884e+001 -2.257583e+001 -1.398306e+001
3031718750 -2.050808e+001 1.130820e+002 -3.842335e+001 1.510709e+002 -8.888853e+001 9.944720e+001 -2.381117e+001 -1.937061e+001
3032812500 -2.143813e+001 1.205893e+002 -3.576828e+001 7.686632e+001 -8.266382e+001 -1.297270e+001 -2.471587e+001 -2.834455e+001
3033906250 -2.269403e+001 1.276740e+002 -3.366097e+001 1.067789e+001 -8.426999e+001 -5.144016e+001 -2.489452e+001 -4.008823e+001
3035000000 -2.434387e+001 1.342200e+002 -3.231365e+001 -5.392821e+001 -8.819492e+001 1.380201e+002 -2.421378e+001 -5.100946e+001
3036093750 -2.658008e+001 1.395804e+002 -3.180500e+001 -1.194178e+002 -9.022300e+001 1.776853e+002 -2.307884e+001 -5.867313e+001
3037187500 -2.981910e+001 1.422408e+002 -3.213414e+001 1.721289e+002 -8.233418e+001 1.644181e+002 -2.181481e+001 -6.275040e+001
3038281250 -3.482835e+001 1.351503e+002 -3.304380e+001 9.827935e+001 -8.098837e+001 -1.032297e+002 -2.066661e+001 -6.402605e+001
3039375000 -4.023844e+001 8.292352e+001 -3.382986e+001 1.707771e+001 -8.052866e+001 5.930869e+001 -1.970615e+001 -6.330848e+001
3040468750 -3.451835e+001 3.527668e+001 -3.337119e+001 -6.856141e+001 -8.846040e+001 7.800930e+000 -1.893951e+001 -6.112097e+001
3041562500 -2.970886e+001 2.948547e+001 -3.181792e+001 -1.496449e+002 -8.647731e+001 2.265855e+001 -1.837725e+001 -5.776117e+001
3042656250 -2.667653e+001 3.235043e+001 -3.036165e+001 1.355914e+002 -9.731960e+001 -7.857212e+001 -1.795415e+001 -5.366257e+001
3043750000 -2.458835e+001 3.784565e+001 -2.967421e+001 6.416396e+001 -8.400284e+001 1.298236e+001 -1.768242e+001 -4.914707e+001
3044843750 -2.306801e+001 4.474315e+001 -3.000839e+001 -5.953215e+000 -8.016866e+001 -7.911044e+001 -1.752644e+001 -4.457001e+001
3045937500 -2.194130e+001 5.213723e+001 -3.153485e+001 -7.623435e+001 -8.402005e+001 1.503804e+002 -1.753630e+001 -4.007338e+001
3047031250 -2.111805e+001 5.992173e+001 -3.412365e+001 -1.491962e+002 -8.323019e+001 1.346623e+002 -1.771401e+001 -3.569921e+001
3048125000 -2.056210e+001 6.796114e+001 -3.727987e+001 1.305177e+002 -8.229439e+001 9.189971e+001 -1.806088e+001 -3.176912e+001
3049218750 -2.022983e+001 7.621664e+001 -3.891577e+001 4.227379e+001 -8.434715e+001 8.832133e+001 -1.862749e+001 -2.811623e+001
3050312500 -2.010590e+001 8.466016e+001 -3.816376e+001 -3.516182e+001 -8.504455e+001 3.019266e+001 -1.940280e+001 -2.505750e+001
3051406250 -2.018192e+001 9.337030e+001 -3.624452e+001 -9.714943e+001 -8.284618e+001 -1.553725e+002 -2.038782e+001 -2.311728e+001
3052500000 -2.045044e+001 1.024809e+002 -3.413352e+001 -1.531926e+002 -9.542950e+001 1.021277e+002 -2.162124e+001 -2.270887e+001
3053593750 -2.092894e+001 1.118938e+002 -3.228337e+001 1.491835e+002 -9.606059e+001 -1.144068e+002 -2.301246e+001 -2.456007e+001
3054687500 -2.160278e+001 1.218718e+002 -3.114381e+001 8.939469e+001 -8.467936e+001 -6.891386e+001 -2.445622e+001 -3.054440e+001
3055781250 -2.252887e+001 1.323694e+002 -3.079152e+001 2.662987e+001 -1.009536e+002 1.052755e+002 -2.553404e+001 -4.151650e+001
3056875000 -2.372649e+001 1.439703e+002 -3.112134e+001 -3.951394e+001 -8.476929e+001 -1.112084e+002 -2.568999e+001 -5.632806e+001
3057968750 -2.528643e+001 1.574793e+002 -3.193976e+001 -1.122189e+002 -8.453159e+001 1.834201e+000 -2.475168e+001 -6.976546e+001
3059062500 -2.724402e+001 1.742250e+002 -3.243769e+001 1.664555e+002 -8.334620e+001 -1.035556e+002 -2.323630e+001 -7.812012e+001
3060156250 -2.939616e+001 -1.629317e+002 -3.157240e+001 8.183655e+001 -8.310616e+001 6.627895e+001 -2.169406e+001 -8.229232e+001
3061250000 -3.109226e+001 -1.305271e+002 -2.974247e+001 1.708542e+000 -8.659428e+001 -3.857080e+001 -2.033503e+001 -8.303695e+001
3062343750 -3.094952e+001 -9.402193e+001 -2.807230e+001 -7.211761e+001 -9.675118e+001 -6.718542e+001 -1.920119e+001 -8.161737e+001
3063437500 -2.922811e+001 -6.320412e+001 -2.699880e+001 -1.427353e+002 -8.592886e+001 -4.572227e+001 -1.829327e+001 -7.871387e+001
3064531250 -2.713735e+001 -4.146553e+001 -2.664917e+001 1.470638e+002 -8.370544e+001 -1.323266e+002 -1.757926e+001 -7.480007e+001
3065625000 -2.537190e+001 -2.520258e+001 -2.698839e+001 7.530087e+001 -8.040134e+001 -1.506019e+002 -1.698382e+001 -7.016144e+001
3066718750 -2.396988e+001 -1.184888e+001 -2.782211e+001 -3.158119e-001 -7.991257e+001 2.179818e+001 -1.654908e+001 -6.534660e+001
3067812500 -2.287491e+001 -4.350371e-001 -2.860275e+001 -8.161485e+001 -8.665478e+001 4.654163e-001 -1.623352e+001 -6.025325e+001
3068906250 -2.205743e+001 9.709452e+000 -2.865927e+001 -1.653223e+002 -8.203580e+001 1.561870e+002 -1.606683e+001 -5.524595e+001
3070000000 -2.151652e+001 1.935579e+001 -2.790825e+001 1.150781e+002 -8.007371e+001 -7.489307e+001 -1.602053e+001 -5.034393e+001
3071093750 -2.118758e+001 2.845255e+001 -2.703479e+001 4.194030e+001 -9.433593e+001 -1.105861e+002 -1.615497e+001 -4.537771e+001
3072187500 -2.106377e+001 3.734349e+001 -2.646159e+001 -2.704231e+001 -9.434035e+001 6.724136e+001 -1.642528e+001 -4.053269e+001
3073281250 -2.114529e+001 4.579855e+001 -2.650362e+001 -9.400872e+001 -9.153460e+001 6.612586e+001 -1.685389e+001 -3.577806e+001
3074375000 -2.144058e+001 5.406994e+001 -2.719409e+001 -1.612622e+002 -7.808994e+001 3.560520e+001 -1.741637e+001 -3.122879e+001
3075468750 -2.194107e+001 6.180311e+001 -2.858713e+001 1.280134e+002 -9.480862e+001 -1.158315e+002 -1.810601e+001 -2.714473e+001
3076562500 -2.272074e+001 6.909716e+001 -3.048822e+001 5.100388e+001 -8.278853e+001 6.505308e-001 -1.895082e+001 -2.376581e+001
3077656250 -2.376992e+001 7.583401e+001 -3.163832e+001 -3.407372e+001 -9.297040e+001 8.696655e+001 -1.996010e+001 -2.139035e+001
3078750000 -2.522988e+001 8.175084e+001 -3.085445e+001 -1.188503e+002 -9.957454e+001 1.696569e+002 -2.115522e+001 -2.078509e+001
3079843750 -2.720868e+001 8.632688e+001 -2.920103e+001 1.658137e+002 -8.816697e+001 -1.308416e+002 -2.251712e+001 -2.254745e+001
3080937500 -2.995424e+001 8.749632e+001 -2.774748e+001 9.844912e+001 -8.407431e+001 5.144221e+001 -2.399085e+001 -2.776347e+001
3082031250 -3.375023e+001 7.942538e+001 -2.679590e+001 3.439041e+001 -8.581604e+001 9.575699e+001 -2.530309e+001 -3.724398e+001
3083125000 -3.737675e+001 4.626855e+001 -2.657393e+001 -2.937124e+001 -8.591667e+001 -3.215357e+001 -2.597178e+001 -5.040306e+001
3084218750 -3.477109e+001 4.377087e+000 -2.711179e+001 -9.518195e+001 -8.212438e+001 -7.081477e+001 -2.574120e+001 -6.413383e+001
3085312500 -3.069526e+001 -8.020944e+000 -2.853232e+001 -1.658709e+002 -8.651144e+001 -1.657822e+002 -2.474599e+001 -7.393340e+001
3086406250 -2.765988e+001 -8.189312e+000 -3.071612e+001 1.139605e+002 -9.259104e+001 -1.397769e+002 -2.354575e+001 -7.926214e+001
3087500000 -2.545157e+001 -4.932275e+000 -3.201085e+001 2.041145e+001 -9.480490e+001 1.438985e+002 -2.235618e+001 -8.138158e+001
3088593750 -2.382941e+001 5.389282e-001 -3.076169e+001 -7.056710e+001 -8.216151e+001 5.973150e+000 -2.130596e+001 -8.111435e+001
3089687500 -2.262053e+001 6.690086e+000 -2.907655e+001 -1.476054e+002 -7.850900e+001 -1.579455e+002 -2.041357e+001 -7.974751e+001
3090781250 -2.172380e+001 1.351153e+001 -2.818253e+001 1.452612e+002 -8.744783e+001 1.702836e+002 -1.969119e+001 -7.773991e+001
3091875000 -2.107645e+001 2.080074e+001 -2.824772e+001 8.339191e+001 -8.279214e+001 1.407153e+002 -1.915435e+001 -7.518752e+001
3092968750 -2.064872e+001 2.824315e+001 -2.919665e+001 2.510046e+001 -8.425509e+001 -6.966969e+001 -1.880151e+001 -7.239767e+001
3094062500 -2.040689e+001 3.580000e+001 -3.120336e+001 -2.946006e+001 -8.874100e+001 3.257413e+001 -1.858373e+001 -6.955824e+001
3095156250 -2.035263e+001 4.338640e+001 -3.400618e+001 -8.067036e+001 -8.220317e+001 -7.502338e+001 -1.847025e+001 -6.651046e+001
3096250000 -2.048293e+001 5.115368e+001 -3.771360e+001 -1.297832e+002 -8.934734e+001 -5.716383e+001 -1.849475e+001 -6.352851e+001
3097343750 -2.081032e+001 5.900640e+001 -4.297448e+001 1.690871e+002 -7.980544e+001 1.009770e+002 -1.858592e+001 -6.042567e+001
3098437500 -2.135118e+001 6.696400e+001 -4.510093e+001 3.749238e+001 -8.237716e+001 -6.790532e+000 -1.873297e+001 -5.784902e+001
3099531250 -2.209124e+001 7.511973e+001 -3.646107e+001 -5.430226e+001 -8.295909e+001 1.653586e+002 -1.892552e+001 -5.554350e+001
3100625000 -2.312381e+001 8.319159e+001 -3.122568e+001 -1.198839e+002 -9.313778e+001 -8.115050e+001 -1.915574e+001 -5.381752e+001
3101718750 -2.445001e+001 9.123103e+001 -2.821920e+001 1.769321e+002 -8.743437e+001 -1.034206e+001 -1.942355e+001 -5.267546e+001
3102812500 -2.624648e+001 9.970962e+001 -2.668830e+001 1.133219e+002 -9.188105e+001 7.315822e+001 -1.973637e+001 -5.217130e+001
3103906250 -2.871145e+001 1.084893e+002 -2.642154e+001 4.816972e+001 -7.944796e+001 -1.072729e+002 -2.004296e+001 -5.220962e+001
3105000000 -3.238264e+001 1.186883e+002 -2.737757e+001 -2.013372e+001 -8.096181e+001 -1.700037e+002 -2.037281e+001 -5.245252e+001
3106093750 -3.897465e+001 1.341475e+002 -2.968497e+001 -9.532022e+001 -8.726394e+001 1.900538e+001 -2.070574e+001 -5.300893e+001
3107187500 -4.930551e+001 -1.087565e+002 -3.274584e+001 1.748519e+002 -8.220162e+001 1.665986e+002 -2.097971e+001 -5.341319e+001
3108281250 -3.667395e+001 -5.532769e+001 -3.308343e+001 7.107288e+001 -8.478651e+001 1.683511e+002 -2.120219e+001 -5.399810e+001
3109375000 -3.160453e+001 -4.237746e+001 -3.085685e+001 -1.622046e+001 -9.102930e+001 1.648236e+002 -2.137407e+001 -5.446072e+001
3110468750 -2.860954e+001 -3.289268e+001 -2.922322e+001 -8.775174e+001 -8.611629e+001 -1.285106e+002 -2.149107e+001 -5.483284e+001
3111562500 -2.656821e+001 -2.398848e+001 -2.877469e+001 -1.525946e+002 -9.330832e+001 -7.456607e+001 -2.157644e+001 -5.540437e+001
3112656250 -2.515411e+001 -1.561987e+001 -2.936147e+001 1.450344e+002 -7.677737e+001 -1.715567e+002 -2.171725e+001 -5.631394e+001
3113750000 -2.415640e+001 -7.488638e+000 -3.122051e+001 8.173943e+001 -8.621593e+001 -1.198823e+002 -2.189218e+001 -5.726019e+001
3114843750 -2.347716e+001 5.216195e-001 -3.508296e+001 1.353871e+001 -7.968810e+001 -5.898976e+001 -2.209167e+001 -5.834482e+001
3115937500 -2.306621e+001 8.384035e+000 -4.277345e+001 -8.201964e+001 -8.969233e+001 9.551788e+001 -2.237691e+001 -5.966719e+001
3117031250 -2.290933e+001 1.620891e+001 -4.102000e+001 1.271408e+002 -8.172643e+001 4.939574e+001 -2.267557e+001 -6.128063e+001
3118125000 -2.294925e+001 2.390259e+001 -3.624117e+001 4.612078e+001 -7.943968e+001 4.006114e+001 -2.295130e+001 -6.287002e+001
3119218750 -2.324408e+001 3.159817e+001 -3.526604e+001 -2.008524e+001 -8.928268e+001 1.886165e+000 -2.316650e+001 -6.498645e+001
3120312500 -2.378971e+001 3.908308e+001 -3.738577e+001 -8.178233e+001 -8.158312e+001 4.696833e+001 -2.326411e+001 -6.740356e+001
3121406250 -2.458009e+001 4.640292e+001 -4.609258e+001 -1.373166e+002 -7.649064e+001 -4.753126e+001 -2.320008e+001 -7.016771e+001
3122500000 -2.570609e+001 5.351424e+001 -4.320916e+001 -3.803976e+001 -8.669767e+001 8.580060e+001 -2.297686e+001 -7.296095e+001
3123593750 -2.720985e+001 5.979937e+001 -3.431284e+001 -9.598331e+001 -8.018124e+001 -1.360872e+002 -2.267208e+001 -7.569067e+001
3124687500 -2.937519e+001 6.542067e+001 -3.067450e+001 -1.588433e+002 -8.374512e+001 -1.518221e+001 -2.230710e+001 -7.768047e+001
3125781250 -3.244893e+001 6.869405e+001 -2.916784e+001 1.361532e+002 -8.320631e+001 -1.162823e+002 -2.190950e+001 -7.895052e+001
3126875000 -3.737281e+001 6.458669e+001 -2.925960e+001 6.735122e+001 -9.870017e+001 6.238588e+001 -2.156790e+001 -7.923050e+001
3127968750 -4.450739e+001 1.770372e+001 -3.076031e+001 -9.059045e+000 -8.964433e+001 -7.222514e+001 -2.122563e+001 -7.837775e+001
3129062500 -3.856583e+001 -4.335131e+001 -3.267210e+001 -1.019739e+002 -7.990484e+001 -1.181754e+001 -2.094968e+001 -7.666337e+001
3130156250 -3.316774e+001 -4.959641e+001 -3.166834e+001 1.548059e+002 -9.222808e+001 1.371189e+002 -2.073475e+001 -7.410688e+001
3131250000 -2.991633e+001 -4.714675e+001 -2.883492e+001 6.799991e+001 -8.625658e+001 1.670667e+002 -2.055878e+001 -7.115577e+001
3132343750 -2.770912e+001 -4.196901e+001 -2.682229e+001 -5.580475e+000 -8.737045e+001 -1.727137e+002 -2.049948e+001 -6.784801e+001
3133437500 -2.611002e+001 -3.572959e+001 -2.602282e+001 -7.355381e+001 -8.402865e+001 -1.301519e+002 -2.052777e+001 -6.450045e+001
3134531250 -2.494034e+001 -2.903846e+001 -2.629060e+001 -1.393871e+002 -8.299126e+001 -8.626543e+001 -2.072047e+001 -6.123347e+001
3135625000 -2.411659e+001 -2.199054e+001 -2.754832e+001 1.543646e+002 -8.685243e+001 -1.532367e+002 -2.110103e+001 -5.793268e+001
3136718750 -2.360092e+001 -1.498107e+001 -2.989700e+001 8.447311e+001 -8.629801e+001 -1.075357e+002 -2.166921e+001 -5.472557e+001
3137812500 -2.329699e+001 -7.761858e+000 -3.281966e+001 4.009440e+000 -8.503989e+001 3.620679e+001 -2.244521e+001 -5.176657e+001
3138906250 -2.321782e+001 -6.977722e-001 -3.399899e+001 -9.190230e+001 -8.205392e+001 -3.898027e+001 -2.347659e+001 -4.922781e+001
3140000000 -2.336533e+001 6.557062e+000 -3.188478e+001 1.797223e+002 -8.969267e+001 -1.741185e+002 -2.475070e+001 -4.763301e+001
3141093750 -2.372608e+001 1.362975e+001 -2.961667e+001 1.068718e+002 -8.416808e+001 3.120317e+001 -2.631846e+001 -4.775614e+001
3142187500 -2.434018e+001 2.041686e+001 -2.838031e+001 4.103514e+001 -8.419823e+001 -1.646563e+002 -2.816987e+001 -5.150473e+001
3143281250 -2.525386e+001 2.679474e+001 -2.830565e+001 -2.166278e+001 -8.717509e+001 -8.178439e+001 -3.007708e+001 -6.231313e+001
3144375000 -2.651638e+001 3.278886e+001 -2.948951e+001 -8.147141e+001 -8.169605e+001 -1.799223e+002 -3.119568e+001 -8.145909e+001
3145468750 -2.827645e+001 3.796935e+001 -3.166516e+001 -1.378226e+002 -8.868845e+001 4.051362e+001 -3.048644e+001 -1.030795e+002
3146562500 -3.067232e+001 4.084604e+001 -3.445604e+001 1.691229e+002 -8.314198e+001 1.690608e+002 -2.853493e+001 -1.172489e+002
3147656250 -3.422466e+001 3.827931e+001 -3.730437e+001 1.093604e+002 -9.150436e+001 -1.521551e+002 -2.653458e+001 -1.240812e+002
3148750000 -3.896156e+001 1.779783e+001 -3.902909e+001 2.357291e+001 -8.111388e+001 9.938887e+001 -2.474310e+001 -1.255214e+002
3149843750 -3.928662e+001 -3.687686e+001 -3.596326e+001 -7.505119e+001 -8.185969e+001 -7.253549e+001 -2.337474e+001 -1.244277e+002
3150937500 -3.441293e+001 -5.985556e+001 -3.156318e+001 -1.532513e+002 -8.822979e+001 -8.665075e+001 -2.228076e+001 -1.215295e+002
3152031250 -3.071499e+001 -6.329485e+001 -2.850422e+001 1.384088e+002 -8.237115e+001 -5.280096e+001 -2.142978e+001 -1.177490e+002
3153125000 -2.810630e+001 -6.045282e+001 -2.673842e+001 7.252318e+001 -8.122639e+001 1.646625e+002 -2.075169e+001 -1.132832e+002
3154218750 -2.624953e+001 -5.532414e+001 -2.612544e+001 7.080887e+000 -9.362182e+001 -3.769148e+001 -2.026845e+001 -1.084641e+002
3155312500 -2.485876e+001 -4.943010e+001 -2.647317e+001 -6.025988e+001 -8.620323e+001 -3.880749e+001 -1.996223e+001 -1.036824e+002
3156406250 -2.379581e+001 -4.276354e+001 -2.780078e+001 -1.320908e+002 -8.936713e+001 6.172307e+000 -1.979427e+001 -9.895420e+001
3157500000 -2.302235e+001 -3.592756e+001 -2.959411e+001 1.471835e+002 -8.451505e+001 4.953977e+001 -1.981871e+001 -9.443345e+001
3158593750 -2.249922e+001 -2.875348e+001 -3.031670e+001 5.649000e+001 -8.812434e+001 -2.604917e+001 -2.002204e+001 -9.025363e+001
3159687500 -2.217756e+001 -2.145630e+001 -2.896806e+001 -3.000335e+001 -8.055332e+001 4.567059e+001 -2.039696e+001 -8.658157e+001
3160781250 -2.202850e+001 -1.414967e+001 -2.711888e+001 -1.045302e+002 -8.792882e+001 -7.568909e+001 -2.097817e+001 -8.329909e+001
3161875000 -2.207354e+001 -6.487526e+000 -2.576947e+001 -1.722125e+002 -9.067241e+001 -7.422101e+001 -2.170201e+001 -8.090575e+001
3162968750 -2.228916e+001 1.293868e+000 -2.515327e+001 1.222927e+002 -8.497991e+001 -7.821033e+001 -2.257322e+001 -7.983636e+001
3164062500 -2.271528e+001 8.664770e+000 -2.546635e+001 5.622980e+001 -8.171132e+001 6.038923e+001 -2.356574e+001 -8.063638e+001
