!Agilent Technologies,E8363B,MY43030572,A.06.04.32
!Agilent E8363B: A.06.04.32
!Date: Tuesday, June 07, 2011 09:04:27
!Correction: S11(Full 2 Port(1,2)) S21(Full 2 Port(1,2)) S12(Full 2 Port(1,2)) S22(Full 2 Port(1,2)) 
!S2P File: Measurements: S11, S21, S12, S22:
# Hz S  dB   R 50
3000000000 -2.183496e+001 6.830434e+001 -3.352162e+001 -6.303054e+001 -9.159286e+001 -1.710432e+002 -1.646300e+001 -2.232971e+001
3001093750 -2.100189e+001 7.611705e+001 -3.344170e+001 -1.204701e+002 -9.007919e+001 9.472717e+001 -1.669076e+001 -1.921091e+001
3002187500 -2.044426e+001 8.445021e+001 -3.347380e+001 -1.764377e+002 -8.236321e+001 -1.652861e+002 -1.696279e+001 -1.585101e+001
3003281250 -2.010238e+001 9.286394e+001 -3.426423e+001 1.231940e+002 -8.226199e+001 5.759591e+001 -1.737815e+001 -1.308156e+001
3004375000 -1.997700e+001 1.012485e+002 -3.636274e+001 5.482993e+001 -8.916567e+001 1.678219e+002 -1.794241e+001 -1.101993e+001
3005468750 -2.002719e+001 1.097701e+002 -3.958319e+001 -3.292698e+001 -8.389075e+001 -6.541083e+001 -1.863470e+001 -1.001279e+001
3006562500 -2.030081e+001 1.184940e+002 -3.898621e+001 -1.426433e+002 -8.908675e+001 -3.608088e+001 -1.942844e+001 -1.009482e+001
3007656250 -2.078340e+001 1.270888e+002 -3.483031e+001 1.288594e+002 -8.685216e+001 2.981421e+001 -2.026587e+001 -1.166914e+001
3008750000 -2.147702e+001 1.360150e+002 -3.195135e+001 5.624741e+001 -8.749165e+001 4.655707e+001 -2.104669e+001 -1.505422e+001
3009843750 -2.249017e+001 1.450250e+002 -3.046326e+001 -1.305785e+001 -8.449402e+001 -1.431301e+002 -2.158283e+001 -2.024492e+001
3010937500 -2.386798e+001 1.544291e+002 -3.026858e+001 -8.405154e+001 -8.733639e+001 1.942299e+001 -2.175636e+001 -2.662400e+001
3012031250 -2.580615e+001 1.648548e+002 -3.143686e+001 -1.613602e+002 -9.885608e+001 3.620607e+000 -2.152288e+001 -3.323880e+001
3013125000 -2.848582e+001 1.771887e+002 -3.356106e+001 1.072077e+002 -8.112968e+001 -1.576344e+002 -2.095996e+001 -3.854909e+001
3014218750 -3.253677e+001 -1.646480e+002 -3.371420e+001 -5.487755e-002 -8.569615e+001 6.469263e+001 -2.022907e+001 -4.213215e+001
3015312500 -3.857804e+001 -1.214646e+002 -3.111306e+001 -9.574193e+001 -9.664703e+001 1.962232e+001 -1.948905e+001 -4.378316e+001
3016406250 -3.688797e+001 -3.971055e+001 -2.906455e+001 -1.771510e+002 -8.603909e+001 -6.822740e+001 -1.881182e+001 -4.373975e+001
3017500000 -3.119470e+001 -7.139906e+000 -2.830654e+001 1.067686e+002 -8.471044e+001 1.088146e+001 -1.824806e+001 -4.241401e+001
3018593750 -2.748400e+001 8.825808e+000 -2.878162e+001 2.954124e+001 -9.346865e+001 2.682391e+001 -1.781266e+001 -3.985174e+001
3019687500 -2.495111e+001 2.027301e+001 -3.022408e+001 -5.380644e+001 -9.089275e+001 1.175355e+002 -1.747250e+001 -3.662871e+001
3020781250 -2.309376e+001 3.027220e+001 -3.157250e+001 -1.488019e+002 -9.086687e+001 -1.750155e+002 -1.728291e+001 -3.294826e+001
3021875000 -2.176332e+001 3.954659e+001 -3.071209e+001 1.128856e+002 -8.296479e+001 5.932611e+001 -1.719023e+001 -2.897719e+001
3022968750 -2.076314e+001 4.841426e+001 -2.874727e+001 2.590033e+001 -8.205453e+001 -6.502943e+001 -1.723171e+001 -2.520076e+001
3024062500 -2.001856e+001 5.702187e+001 -2.740074e+001 -5.211001e+001 -9.275076e+001 7.953201e+001 -1.741099e+001 -2.129209e+001
3025156250 -1.950261e+001 6.569495e+001 -2.708269e+001 -1.260032e+002 -8.786185e+001 8.076244e+001 -1.777836e+001 -1.797319e+001
3026250000 -1.919957e+001 7.412701e+001 -2.771410e+001 1.602627e+002 -9.048271e+001 -1.092156e+002 -1.829934e+001 -1.497394e+001
3027343750 -1.906442e+001 8.230466e+001 -2.920426e+001 8.338228e+001 -8.438239e+001 2.768930e+001 -1.902780e+001 -1.251248e+001
3028437500 -1.911830e+001 9.053097e+001 -3.083955e+001 2.817617e-001 -8.003828e+001 -1.157896e+002 -1.995157e+001 -1.107284e+001
3029531250 -1.936494e+001 9.844927e+001 -3.131324e+001 -8.786191e+001 -8.455489e+001 1.117841e+002 -2.102855e+001 -1.095378e+001
3030625000 -1.982212e+001 1.063404e+002 -3.038539e+001 -1.710538e+002 -8.230338e+001 1.196447e+002 -2.220653e+001 -1.294473e+001
3031718750 -2.048384e+001 1.141425e+002 -2.921491e+001 1.143309e+002 -9.133132e+001 8.922159e+001 -2.337761e+001 -1.781913e+001
3032812500 -2.140746e+001 1.215112e+002 -2.843222e+001 4.516502e+001 -9.205479e+001 -1.770949e+002 -2.422848e+001 -2.658233e+001
3033906250 -2.262408e+001 1.288019e+002 -2.826397e+001 -2.215759e+001 -8.893045e+001 6.046233e+001 -2.444666e+001 -3.803273e+001
3035000000 -2.423374e+001 1.353745e+002 -2.864007e+001 -9.049437e+001 -8.669902e+001 -4.823456e+001 -2.386864e+001 -4.888998e+001
3036093750 -2.645184e+001 1.410894e+002 -2.946276e+001 -1.630759e+002 -8.626868e+001 8.967459e+001 -2.281474e+001 -5.680238e+001
3037187500 -2.960497e+001 1.440665e+002 -3.023688e+001 1.180202e+002 -8.234764e+001 -1.728050e+002 -2.164982e+001 -6.119458e+001
3038281250 -3.458292e+001 1.388598e+002 -3.015558e+001 3.252293e+001 -8.645131e+001 9.320106e+001 -2.054667e+001 -6.262304e+001
3039375000 -4.080405e+001 8.962091e+001 -2.902794e+001 -5.144207e+001 -8.395830e+001 -3.956453e+001 -1.961199e+001 -6.198055e+001
3040468750 -3.506898e+001 3.591077e+001 -2.779777e+001 -1.293907e+002 -8.161753e+001 1.368741e+002 -1.884932e+001 -5.971359e+001
3041562500 -3.003664e+001 2.968918e+001 -2.712908e+001 1.583761e+002 -9.056113e+001 -1.709970e+002 -1.826981e+001 -5.636327e+001
3042656250 -2.689140e+001 3.255280e+001 -2.726343e+001 8.871988e+001 -8.576458e+001 -4.014678e+001 -1.783352e+001 -5.233444e+001
3043750000 -2.473493e+001 3.809867e+001 -2.817140e+001 1.986399e+001 -8.087119e+001 -1.753102e+002 -1.751853e+001 -4.798503e+001
3044843750 -2.318729e+001 4.497381e+001 -2.982904e+001 -5.159645e+001 -8.222227e+001 4.071412e+001 -1.736053e+001 -4.366617e+001
3045937500 -2.203025e+001 5.247348e+001 -3.206041e+001 -1.300365e+002 -8.497852e+001 1.502924e+002 -1.735421e+001 -3.928447e+001
3047031250 -2.120080e+001 6.030034e+001 -3.378114e+001 1.428092e+002 -8.017755e+001 1.120715e+002 -1.752421e+001 -3.515113e+001
3048125000 -2.062986e+001 6.829183e+001 -3.366024e+001 5.608765e+001 -8.643702e+001 1.385064e+002 -1.788312e+001 -3.130101e+001
3049218750 -2.026925e+001 7.653305e+001 -3.281795e+001 -1.967538e+001 -8.886644e+001 -7.072234e+001 -1.844896e+001 -2.768930e+001
3050312500 -2.014388e+001 8.499834e+001 -3.254921e+001 -8.433357e+001 -9.503235e+001 1.238752e+002 -1.922318e+001 -2.456196e+001
3051406250 -2.021071e+001 9.375228e+001 -3.277650e+001 -1.394902e+002 -9.118299e+001 -1.652452e+002 -2.017627e+001 -2.239816e+001
3052500000 -2.046081e+001 1.027777e+002 -3.282811e+001 1.717708e+002 -8.927256e+001 1.288751e+002 -2.132557e+001 -2.163991e+001
3053593750 -2.093500e+001 1.123139e+002 -3.231523e+001 1.234734e+002 -8.385674e+001 1.546587e+002 -2.263531e+001 -2.337512e+001
3054687500 -2.159143e+001 1.222213e+002 -3.156249e+001 6.739778e+001 -8.745091e+001 -3.297937e+001 -2.399331e+001 -2.909515e+001
3055781250 -2.250960e+001 1.327014e+002 -3.142061e+001 1.449173e+000 -8.942860e+001 5.569971e+001 -2.500884e+001 -3.976487e+001
3056875000 -2.369424e+001 1.442386e+002 -3.177910e+001 -7.456827e+001 -8.411230e+001 -1.239461e+002 -2.523272e+001 -5.417140e+001
3057968750 -2.523670e+001 1.575225e+002 -3.149683e+001 -1.606482e+002 -7.866598e+001 1.109650e+002 -2.444965e+001 -6.758167e+001
3059062500 -2.716999e+001 1.740226e+002 -2.987505e+001 1.125493e+002 -8.554088e+001 1.420302e+002 -2.304009e+001 -7.630936e+001
3060156250 -2.934031e+001 -1.633785e+002 -2.774694e+001 3.374936e+001 -7.982047e+001 -4.081347e+000 -2.159050e+001 -8.064928e+001
3061250000 -3.108302e+001 -1.316213e+002 -2.602491e+001 -3.907211e+001 -9.249658e+001 -1.520925e+002 -2.028155e+001 -8.158688e+001
3062343750 -3.107886e+001 -9.452351e+001 -2.511188e+001 -1.090960e+002 -8.432617e+001 1.511218e+001 -1.917486e+001 -8.001582e+001
3063437500 -2.937908e+001 -6.330070e+001 -2.492413e+001 -1.783868e+002 -8.881763e+001 2.426833e+001 -1.823149e+001 -7.715184e+001
3064531250 -2.727490e+001 -4.106979e+001 -2.527376e+001 1.113346e+002 -8.605933e+001 -2.632100e+001 -1.747373e+001 -7.338353e+001
3065625000 -2.547049e+001 -2.473495e+001 -2.593814e+001 3.725282e+001 -8.093343e+001 -1.057761e+002 -1.687076e+001 -6.899317e+001
3066718750 -2.403451e+001 -1.138248e+001 -2.642705e+001 -4.177581e+001 -8.262218e+001 1.618870e+002 -1.640471e+001 -6.429509e+001
3067812500 -2.292216e+001 9.085276e-002 -2.611173e+001 -1.237267e+002 -8.177128e+001 1.694022e+002 -1.611155e+001 -5.953455e+001
3068906250 -2.209273e+001 1.034803e+001 -2.511317e+001 1.564183e+002 -8.569173e+001 2.132960e+001 -1.593531e+001 -5.456985e+001
3070000000 -2.153925e+001 2.003520e+001 -2.405821e+001 8.129462e+001 -8.307514e+001 1.213561e+002 -1.591139e+001 -4.977909e+001
3071093750 -2.119249e+001 2.921492e+001 -2.333985e+001 9.944574e+000 -8.884801e+001 -8.196972e+001 -1.604558e+001 -4.482068e+001
3072187500 -2.105360e+001 3.808066e+001 -2.315062e+001 -5.999066e+001 -8.535046e+001 -7.985686e+001 -1.630871e+001 -3.990869e+001
3073281250 -2.111481e+001 4.658361e+001 -2.351924e+001 -1.305479e+002 -8.528554e+001 -9.415646e+001 -1.671829e+001 -3.515285e+001
3074375000 -2.139916e+001 5.479407e+001 -2.435261e+001 1.567585e+002 -8.493774e+001 -1.734765e+002 -1.723112e+001 -3.067553e+001
3075468750 -2.187652e+001 6.261469e+001 -2.524960e+001 7.927916e+001 -8.338062e+001 1.445686e+002 -1.788681e+001 -2.673017e+001
3076562500 -2.262178e+001 6.991776e+001 -2.563997e+001 -2.880030e+000 -9.051648e+001 1.223908e+002 -1.870930e+001 -2.346754e+001
3077656250 -2.364752e+001 7.675745e+001 -2.516489e+001 -8.476940e+001 -8.439250e+001 -1.160254e+002 -1.969399e+001 -2.132210e+001
3078750000 -2.509134e+001 8.274864e+001 -2.418779e+001 -1.621698e+002 -8.551434e+001 8.536535e+001 -2.086844e+001 -2.083180e+001
3079843750 -2.699853e+001 8.746544e+001 -2.341035e+001 1.252161e+002 -8.998171e+001 -7.189705e+001 -2.220680e+001 -2.261462e+001
3080937500 -2.967956e+001 8.905581e+001 -2.314414e+001 5.589333e+001 -9.794072e+001 -1.257276e+002 -2.365610e+001 -2.753433e+001
3082031250 -3.335176e+001 8.276437e+001 -2.343565e+001 -1.228182e+001 -8.206970e+001 -1.323359e+002 -2.490416e+001 -3.646239e+001
3083125000 -3.732158e+001 5.247339e+001 -2.427196e+001 -8.095451e+001 -8.701396e+001 -1.768694e+002 -2.558739e+001 -4.871173e+001
3084218750 -3.531027e+001 7.970525e+000 -2.550484e+001 -1.519721e+002 -9.087154e+001 -1.466523e+002 -2.539979e+001 -6.165966e+001
3085312500 -3.107043e+001 -6.248303e+000 -2.664404e+001 1.323926e+002 -8.456855e+001 1.191627e+002 -2.452620e+001 -7.133916e+001
3086406250 -2.792811e+001 -7.152536e+000 -2.695689e+001 5.148017e+001 -8.077235e+001 6.138689e+001 -2.335384e+001 -7.681288e+001
3087500000 -2.566577e+001 -3.921241e+000 -2.620646e+001 -2.933728e+001 -8.174124e+001 -8.123450e+001 -2.218486e+001 -7.909950e+001
3088593750 -2.399913e+001 1.207897e+000 -2.497808e+001 -1.052329e+002 -9.469092e+001 -9.900373e+000 -2.111104e+001 -7.924021e+001
3089687500 -2.276023e+001 7.386518e+000 -2.396384e+001 -1.775961e+002 -8.516624e+001 5.567115e+001 -2.023859e+001 -7.826229e+001
3090781250 -2.183961e+001 1.424183e+001 -2.360147e+001 1.119194e+002 -8.834055e+001 4.262131e+001 -1.953579e+001 -7.646049e+001
3091875000 -2.117214e+001 2.151493e+001 -2.391668e+001 4.165534e+001 -8.668703e+001 -2.844354e+000 -1.901934e+001 -7.413474e+001
3092968750 -2.071852e+001 2.895119e+001 -2.487996e+001 -3.082039e+001 -8.972820e+001 -1.089910e+001 -1.868615e+001 -7.143462e+001
3094062500 -2.046058e+001 3.655729e+001 -2.641994e+001 -1.084174e+002 -8.215240e+001 -9.120014e+000 -1.847050e+001 -6.850290e+001
3095156250 -2.038972e+001 4.417711e+001 -2.800970e+001 1.675388e+002 -8.136343e+001 8.260473e+001 -1.836989e+001 -6.538580e+001
3096250000 -2.050121e+001 5.184887e+001 -2.874906e+001 7.982851e+001 -8.633948e+001 1.451447e+002 -1.836051e+001 -6.230522e+001
3097343750 -2.082744e+001 5.987721e+001 -2.876178e+001 -2.057216e+000 -8.359413e+001 -5.507595e+001 -1.841565e+001 -5.931318e+001
3098437500 -2.135063e+001 6.781985e+001 -2.901231e+001 -7.465727e+001 -8.768466e+001 3.727041e+001 -1.853948e+001 -5.679868e+001
3099531250 -2.208342e+001 7.595699e+001 -2.993210e+001 -1.381020e+002 -9.004785e+001 -3.817398e+001 -1.872391e+001 -5.469016e+001
3100625000 -2.310655e+001 8.417935e+001 -3.133562e+001 1.674772e+002 -8.728528e+001 1.418668e+002 -1.893963e+001 -5.318091e+001
3101718750 -2.438528e+001 9.223497e+001 -3.245655e+001 1.206812e+002 -9.166535e+001 -5.936172e+001 -1.922853e+001 -5.220143e+001
3102812500 -2.616885e+001 1.009102e+002 -3.267307e+001 7.341668e+001 -8.595730e+001 -1.844754e+000 -1.956849e+001 -5.165822e+001
3103906250 -2.855427e+001 1.099217e+002 -3.261504e+001 1.818855e+001 -8.323898e+001 -9.616811e+001 -1.989113e+001 -5.148469e+001
3105000000 -3.218783e+001 1.202055e+002 -3.280124e+001 -4.666031e+001 -8.651882e+001 1.575656e+002 -2.021198e+001 -5.150765e+001
3106093750 -3.845359e+001 1.364919e+002 -3.288067e+001 -1.232825e+002 -8.945871e+001 -5.852280e+001 -2.051146e+001 -5.191911e+001
3107187500 -4.873520e+001 -1.215058e+002 -3.216263e+001 1.529731e+002 -8.635844e+001 -1.654328e+002 -2.073849e+001 -5.238963e+001
3108281250 -3.693623e+001 -5.747553e+001 -3.032461e+001 7.194280e+001 -8.649995e+001 -6.424937e+001 -2.094221e+001 -5.297359e+001
3109375000 -3.180624e+001 -4.326770e+001 -2.841688e+001 -2.562997e+000 -8.684049e+001 -1.525295e+002 -2.110574e+001 -5.364532e+001
3110468750 -2.871454e+001 -3.300302e+001 -2.704473e+001 -7.293156e+001 -9.052779e+001 2.525411e+001 -2.121915e+001 -5.422644e+001
3111562500 -2.665114e+001 -2.394711e+001 -2.632485e+001 -1.414006e+002 -8.828781e+001 1.466283e+002 -2.133062e+001 -5.487973e+001
3112656250 -2.521451e+001 -1.558233e+001 -2.610617e+001 1.492588e+002 -8.528799e+001 -6.897766e+001 -2.147946e+001 -5.567723e+001
3113750000 -2.419139e+001 -7.421241e+000 -2.631617e+001 7.686726e+001 -8.607267e+001 1.016053e+002 -2.164893e+001 -5.651731e+001
3114843750 -2.350406e+001 7.496364e-001 -2.669127e+001 -5.992216e-001 -9.388064e+001 1.528958e+001 -2.185000e+001 -5.746388e+001
3115937500 -2.307089e+001 8.577074e+000 -2.671219e+001 -8.208560e+001 -8.539693e+001 -1.658791e+002 -2.212754e+001 -5.865870e+001
3117031250 -2.288421e+001 1.651918e+001 -2.609866e+001 -1.628453e+002 -8.417055e+001 2.041096e+001 -2.240853e+001 -6.006476e+001
3118125000 -2.292649e+001 2.425543e+001 -2.513537e+001 1.205021e+002 -8.772520e+001 1.411034e+002 -2.265187e+001 -6.174587e+001
3119218750 -2.321576e+001 3.196921e+001 -2.430387e+001 4.799205e+001 -8.922346e+001 -1.645099e+002 -2.284873e+001 -6.352323e+001
3120312500 -2.373327e+001 3.952045e+001 -2.394932e+001 -2.237743e+001 -8.043202e+001 1.008561e+002 -2.294092e+001 -6.602467e+001
3121406250 -2.449968e+001 4.674859e+001 -2.416177e+001 -9.258171e+001 -9.947025e+001 -3.287096e+001 -2.287026e+001 -6.866586e+001
3122500000 -2.559851e+001 5.382537e+001 -2.492515e+001 -1.640165e+002 -9.277350e+001 2.902661e+001 -2.267434e+001 -7.163126e+001
3123593750 -2.707838e+001 6.031419e+001 -2.602409e+001 1.211188e+002 -7.714358e+001 7.733124e+001 -2.239395e+001 -7.428844e+001
3124687500 -2.916471e+001 6.584545e+001 -2.699079e+001 4.127676e+001 -8.861887e+001 -1.644088e+002 -2.205966e+001 -7.636048e+001
3125781250 -3.221244e+001 6.942368e+001 -2.723013e+001 -4.087053e+001 -8.379059e+001 -1.146323e+002 -2.171966e+001 -7.763918e+001
3126875000 -3.690712e+001 6.614865e+001 -2.666209e+001 -1.198025e+002 -9.193284e+001 1.006240e+002 -2.138086e+001 -7.792418e+001
3127968750 -4.407042e+001 2.517104e+001 -2.589735e+001 1.672561e+002 -8.971506e+001 6.539684e+001 -2.106454e+001 -7.695218e+001
3129062500 -3.904525e+001 -4.001710e+001 -2.538760e+001 9.866252e+001 -8.740501e+001 1.175049e+002 -2.078959e+001 -7.512555e+001
3130156250 -3.345494e+001 -4.813554e+001 -2.524463e+001 3.221403e+001 -8.570275e+001 4.687176e+000 -2.052433e+001 -7.262259e+001
3131250000 -3.010512e+001 -4.589232e+001 -2.548657e+001 -3.500409e+001 -9.048299e+001 6.629270e+000 -2.033287e+001 -6.983999e+001
3132343750 -2.783379e+001 -4.086835e+001 -2.623303e+001 -1.055576e+002 -8.681038e+001 1.647951e+002 -2.024003e+001 -6.684651e+001
3133437500 -2.618300e+001 -3.491632e+001 -2.728102e+001 1.780907e+002 -8.279911e+001 4.478644e+001 -2.028871e+001 -6.375708e+001
3134531250 -2.499479e+001 -2.809919e+001 -2.806141e+001 9.537007e+001 -8.340844e+001 1.215612e+002 -2.050101e+001 -6.069991e+001
3135625000 -2.414622e+001 -2.123651e+001 -2.783966e+001 1.087270e+001 -8.341791e+001 -2.831541e+001 -2.090585e+001 -5.743229e+001
3136718750 -2.362110e+001 -1.413037e+001 -2.698119e+001 -6.910007e+001 -8.891158e+001 1.660176e+002 -2.146673e+001 -5.417754e+001
3137812500 -2.330676e+001 -6.802005e+000 -2.636006e+001 -1.444589e+002 -9.749592e+001 9.008223e+001 -2.222312e+001 -5.096485e+001
3138906250 -2.320842e+001 2.938758e-001 -2.654067e+001 1.427037e+002 -9.157848e+001 -9.479096e+001 -2.319264e+001 -4.825221e+001
3140000000 -2.333391e+001 7.549559e+000 -2.789754e+001 6.998775e+001 -1.021814e+002 -2.503757e+001 -2.437353e+001 -4.671238e+001
3141093750 -2.368110e+001 1.465140e+001 -3.093694e+001 -6.240309e+000 -8.647659e+001 -4.642743e+001 -2.582515e+001 -4.708612e+001
3142187500 -2.427932e+001 2.150038e+001 -3.592356e+001 -9.559778e+001 -8.611758e+001 1.386995e+002 -2.754892e+001 -5.094799e+001
3143281250 -2.516437e+001 2.805573e+001 -3.861121e+001 1.409772e+002 -8.264805e+001 8.229838e+001 -2.936054e+001 -6.128381e+001
3144375000 -2.641921e+001 3.416576e+001 -3.556972e+001 3.741961e+001 -8.409485e+001 -1.523735e+002 -3.055001e+001 -7.926069e+001
3145468750 -2.812295e+001 3.959829e+001 -3.428455e+001 -4.264283e+001 -8.242067e+001 -8.316727e+001 -3.005968e+001 -9.963197e+001
3146562500 -3.047229e+001 4.312269e+001 -3.552183e+001 -1.207926e+002 -8.181220e+001 1.376987e+002 -2.833769e+001 -1.140442e+002
3147656250 -3.396341e+001 4.172581e+001 -3.927818e+001 1.404025e+002 -8.656348e+001 1.781505e+002 -2.643087e+001 -1.210850e+002
3148750000 -3.889795e+001 2.461358e+001 -3.691084e+001 8.008612e+000 -8.229335e+001 -2.329604e+001 -2.468272e+001 -1.229250e+002
3149843750 -4.009275e+001 -3.237534e+001 -3.101475e+001 -8.288654e+001 -8.710181e+001 5.807229e+001 -2.330663e+001 -1.219984e+002
3150937500 -3.494192e+001 -5.938289e+001 -2.726558e+001 -1.573730e+002 -8.296101e+001 -5.080527e+001 -2.220226e+001 -1.194478e+002
3152031250 -3.101778e+001 -6.318472e+001 -2.515248e+001 1.309844e+002 -8.289478e+001 -2.107784e+001 -2.132334e+001 -1.158144e+002
3153125000 -2.832002e+001 -6.030173e+001 -2.424654e+001 5.843447e+001 -9.205645e+001 1.506442e+002 -2.062681e+001 -1.114809e+002
3154218750 -2.643835e+001 -5.518622e+001 -2.422399e+001 -1.681223e+001 -8.488708e+001 -1.664140e+002 -2.012549e+001 -1.069072e+002
3155312500 -2.497366e+001 -4.911353e+001 -2.457113e+001 -9.730711e+001 -1.262525e+002 -4.100021e+001 -1.979994e+001 -1.022505e+002
3156406250 -2.391276e+001 -4.238623e+001 -2.454191e+001 1.767588e+002 -8.959652e+001 1.754697e+002 -1.962664e+001 -9.768291e+001
3157500000 -2.310787e+001 -3.547602e+001 -2.357489e+001 9.080947e+001 -8.450113e+001 1.300795e+002 -1.964939e+001 -9.330999e+001
3158593750 -2.256615e+001 -2.835777e+001 -2.215651e+001 1.009233e+001 -8.187673e+001 -1.184290e+002 -1.982842e+001 -8.909721e+001
3159687500 -2.222522e+001 -2.102861e+001 -2.104275e+001 -6.569611e+001 -8.674248e+001 1.143174e+002 -2.021028e+001 -8.536440e+001
3160781250 -2.206337e+001 -1.369542e+001 -2.054745e+001 -1.385489e+002 -8.573853e+001 9.003732e+001 -2.077758e+001 -8.199123e+001
3161875000 -2.209991e+001 -5.953056e+000 -2.069097e+001 1.495223e+002 -8.614605e+001 -5.850372e+001 -2.147953e+001 -7.942199e+001
3162968750 -2.229133e+001 1.789064e+000 -2.143349e+001 7.653437e+001 -8.206564e+001 -6.249779e+001 -2.229874e+001 -7.822302e+001
3164062500 -2.270990e+001 9.294218e+000 -2.246821e+001 5.698184e-001 -8.633623e+001 1.662535e+002 -2.323639e+001 -7.890997e+001
