!Agilent Technologies,E8363B,MY43030572,A.06.04.32
!Agilent E8363B: A.06.04.32
!Date: Tuesday, June 07, 2011 09:11:15
!Correction: S11(Full 2 Port(1,2)) S21(Full 2 Port(1,2)) S12(Full 2 Port(1,2)) S22(Full 2 Port(1,2)) 
!S2P File: Measurements: S11, S21, S12, S22:
# Hz S  dB   R 50
3000000000 -2.184310e+001 6.814580e+001 -3.172164e+001 -5.679340e+001 -9.202202e+001 8.007079e+000 -1.650616e+001 -2.235399e+001
3001093750 -2.100105e+001 7.598130e+001 -3.041622e+001 -1.220467e+002 -8.532474e+001 2.287545e+001 -1.673508e+001 -1.913783e+001
3002187500 -2.040762e+001 8.432428e+001 -2.920148e+001 1.795480e+002 -8.324820e+001 -3.034106e+001 -1.700713e+001 -1.578378e+001
3003281250 -2.008078e+001 9.267521e+001 -2.870197e+001 1.200650e+002 -9.265906e+001 -1.369020e+002 -1.741769e+001 -1.285687e+001
3004375000 -1.994295e+001 1.011637e+002 -2.887334e+001 5.753592e+001 -8.582602e+001 5.293520e+001 -1.796844e+001 -1.088534e+001
3005468750 -1.999257e+001 1.097230e+002 -2.976626e+001 -1.063554e+001 -8.495841e+001 9.197074e+001 -1.865686e+001 -9.785876e+000
3006562500 -2.025158e+001 1.183753e+002 -3.122445e+001 -8.871854e+001 -8.427707e+001 -1.059376e+002 -1.944489e+001 -1.000750e+001
3007656250 -2.071996e+001 1.270157e+002 -3.195712e+001 -1.788413e+002 -8.360615e+001 7.311896e+001 -2.027141e+001 -1.177216e+001
3008750000 -2.140455e+001 1.357964e+002 -3.080960e+001 9.178203e+001 -8.215391e+001 1.645880e+002 -2.105854e+001 -1.532733e+001
3009843750 -2.241255e+001 1.448485e+002 -2.916757e+001 1.285663e+001 -8.363628e+001 -1.245301e+002 -2.164137e+001 -2.065968e+001
3010937500 -2.378471e+001 1.542335e+002 -2.825844e+001 -5.779666e+001 -9.383801e+001 -1.753127e+002 -2.185661e+001 -2.704064e+001
3012031250 -2.570286e+001 1.645523e+002 -2.833974e+001 -1.225666e+002 -8.548221e+001 -1.582286e+000 -2.163411e+001 -3.345938e+001
3013125000 -2.837678e+001 1.768443e+002 -2.922252e+001 1.764857e+002 -7.723708e+001 3.514197e+001 -2.105275e+001 -3.859499e+001
3014218750 -3.238267e+001 -1.652976e+002 -3.059260e+001 1.179331e+002 -8.777994e+001 -1.606427e+002 -2.029701e+001 -4.198839e+001
3015312500 -3.852996e+001 -1.238586e+002 -3.205607e+001 5.715073e+001 -9.634936e+001 -7.330328e+001 -1.950691e+001 -4.357340e+001
3016406250 -3.712411e+001 -3.973927e+001 -3.332708e+001 -1.225688e+001 -8.541090e+001 7.183736e+001 -1.880641e+001 -4.363149e+001
3017500000 -3.130589e+001 -6.957566e+000 -3.360969e+001 -9.557065e+001 -8.467135e+001 -1.442185e+002 -1.822530e+001 -4.238088e+001
3018593750 -2.749538e+001 9.041533e+000 -3.170448e+001 1.779069e+002 -8.235744e+001 -3.375498e+001 -1.779442e+001 -4.006142e+001
3019687500 -2.493554e+001 2.036184e+001 -2.896579e+001 9.909499e+001 -8.597652e+001 1.389898e+002 -1.748709e+001 -3.688384e+001
3020781250 -2.310214e+001 3.037488e+001 -2.682824e+001 2.592397e+001 -8.341414e+001 1.011605e+002 -1.730438e+001 -3.313194e+001
3021875000 -2.173862e+001 3.956845e+001 -2.562325e+001 -4.504330e+001 -7.979415e+001 4.824646e+001 -1.724182e+001 -2.903491e+001
3022968750 -2.075139e+001 4.841636e+001 -2.533554e+001 -1.163245e+002 -8.392336e+001 -1.789406e+002 -1.727870e+001 -2.500191e+001
3024062500 -2.000794e+001 5.708500e+001 -2.589234e+001 1.697864e+002 -8.654841e+001 1.394352e+002 -1.745339e+001 -2.118890e+001
3025156250 -1.947417e+001 6.574681e+001 -2.707215e+001 9.142617e+001 -8.577613e+001 6.662152e+001 -1.780089e+001 -1.762710e+001
3026250000 -1.915865e+001 7.405758e+001 -2.816283e+001 6.288121e+000 -8.963074e+001 5.531027e+001 -1.829928e+001 -1.472702e+001
3027343750 -1.900366e+001 8.223230e+001 -2.829647e+001 -8.171210e+001 -7.956421e+001 1.675038e+002 -1.902454e+001 -1.234579e+001
3028437500 -1.907602e+001 9.040483e+001 -2.770217e+001 -1.648772e+002 -8.591264e+001 5.492205e+001 -1.993169e+001 -1.106661e+001
3029531250 -1.931863e+001 9.833588e+001 -2.731168e+001 1.185342e+002 -9.111497e+001 1.672497e+002 -2.102720e+001 -1.117032e+001
3030625000 -1.975513e+001 1.062006e+002 -2.759957e+001 4.655362e+001 -8.664536e+001 1.201744e+002 -2.228626e+001 -1.308730e+001
3031718750 -2.043310e+001 1.139063e+002 -2.872017e+001 -2.372370e+001 -8.669563e+001 -5.282542e+001 -2.347403e+001 -1.811908e+001
3032812500 -2.133651e+001 1.213322e+002 -3.082696e+001 -9.539510e+001 -8.735507e+001 -1.175559e+002 -2.437896e+001 -2.683980e+001
3033906250 -2.254182e+001 1.286079e+002 -3.377964e+001 -1.732876e+002 -7.945896e+001 -5.023000e+001 -2.459940e+001 -3.786509e+001
3035000000 -2.413515e+001 1.351505e+002 -3.660831e+001 9.588353e+001 -8.212094e+001 1.195312e+002 -2.399372e+001 -4.896018e+001
3036093750 -2.631568e+001 1.404050e+002 -3.680804e+001 3.643806e-002 -8.308524e+001 -9.777097e+001 -2.291612e+001 -5.662999e+001
3037187500 -2.943258e+001 1.434476e+002 -3.569009e+001 -8.217304e+001 -8.838070e+001 1.615384e+002 -2.167826e+001 -6.098833e+001
3038281250 -3.427733e+001 1.378641e+002 -3.543829e+001 -1.508413e+002 -7.693988e+001 5.560772e+001 -2.053679e+001 -6.254407e+001
3039375000 -4.024975e+001 9.155547e+001 -3.640506e+001 1.481604e+002 -8.152724e+001 1.230387e+002 -1.960904e+001 -6.206101e+001
3040468750 -3.507795e+001 3.809518e+001 -3.883498e+001 9.210118e+001 -9.312427e+001 -4.523680e+001 -1.884268e+001 -5.994649e+001
3041562500 -3.005591e+001 3.066303e+001 -4.399228e+001 4.979710e+001 -7.929664e+001 6.086385e+001 -1.827588e+001 -5.668319e+001
3042656250 -2.691716e+001 3.327369e+001 -4.760019e+001 5.305421e+001 -8.332162e+001 -1.165165e+002 -1.785315e+001 -5.262436e+001
3043750000 -2.476720e+001 3.861924e+001 -4.351190e+001 3.176873e+001 -8.239075e+001 -1.118116e+002 -1.756288e+001 -4.815258e+001
3044843750 -2.318121e+001 4.543012e+001 -4.177463e+001 -1.902045e+001 -9.160446e+001 8.761929e+001 -1.741376e+001 -4.366815e+001
3045937500 -2.203167e+001 5.266491e+001 -4.320206e+001 -7.805585e+001 -9.295729e+001 -1.204357e+002 -1.739902e+001 -3.919946e+001
3047031250 -2.116578e+001 6.046931e+001 -4.791152e+001 -1.478485e+002 -8.841995e+001 3.161932e+001 -1.755774e+001 -3.491278e+001
3048125000 -2.061512e+001 6.834374e+001 -5.083862e+001 6.526690e+001 -8.984500e+001 -6.592239e+001 -1.790411e+001 -3.107844e+001
3049218750 -2.025124e+001 7.647992e+001 -4.202765e+001 -3.224001e+001 -8.511732e+001 -4.564585e+001 -1.846251e+001 -2.754689e+001
3050312500 -2.012701e+001 8.490901e+001 -3.794756e+001 -9.908722e+001 -1.099900e+002 6.146909e+001 -1.923081e+001 -2.455588e+001
3051406250 -2.018365e+001 9.374217e+001 -3.595343e+001 -1.593929e+002 -9.025990e+001 1.356672e+002 -2.017590e+001 -2.256839e+001
3052500000 -2.041563e+001 1.027848e+002 -3.524567e+001 1.414048e+002 -8.657019e+001 4.466540e+001 -2.137250e+001 -2.198388e+001
3053593750 -2.087113e+001 1.120950e+002 -3.549928e+001 8.282595e+001 -8.141384e+001 4.389679e+001 -2.271967e+001 -2.375080e+001
3054687500 -2.152073e+001 1.218529e+002 -3.660847e+001 1.963945e+001 -8.741755e+001 -1.661125e+002 -2.413215e+001 -2.930165e+001
3055781250 -2.243190e+001 1.321528e+002 -3.875304e+001 -5.381136e+001 -8.174981e+001 -1.245434e+002 -2.518316e+001 -3.968155e+001
3056875000 -2.362698e+001 1.435966e+002 -4.057582e+001 -1.487734e+002 -9.372360e+001 2.990164e+000 -2.537359e+001 -5.401944e+001
3057968750 -2.519287e+001 1.567191e+002 -3.839681e+001 1.115309e+002 -8.823158e+001 -1.232136e+002 -2.454191e+001 -6.742986e+001
3059062500 -2.712236e+001 1.731751e+002 -3.519151e+001 3.131011e+001 -8.148409e+001 -1.155316e+002 -2.310088e+001 -7.598423e+001
3060156250 -2.929812e+001 -1.648089e+002 -3.332911e+001 -3.805704e+001 -8.690351e+001 1.605635e+002 -2.159084e+001 -8.060147e+001
3061250000 -3.117276e+001 -1.333707e+002 -3.259146e+001 -1.038930e+002 -9.946814e+001 1.593376e+002 -2.025886e+001 -8.160967e+001
3062343750 -3.125775e+001 -9.563109e+001 -3.309458e+001 -1.702551e+002 -8.035118e+001 1.391730e+002 -1.914126e+001 -8.018760e+001
3063437500 -2.958629e+001 -6.361735e+001 -3.499990e+001 1.206998e+002 -8.114061e+001 5.401711e+001 -1.823575e+001 -7.754696e+001
3064531250 -2.739166e+001 -4.093453e+001 -3.823287e+001 4.393693e+001 -8.283333e+001 -1.792831e+002 -1.750472e+001 -7.372131e+001
3065625000 -2.554340e+001 -2.468284e+001 -4.036696e+001 -5.108823e+001 -7.938743e+001 5.009945e+001 -1.691327e+001 -6.919459e+001
3066718750 -2.407873e+001 -1.138708e+001 -3.823338e+001 -1.452786e+002 -9.169393e+001 3.392812e+001 -1.645984e+001 -6.439555e+001
3067812500 -2.296006e+001 -5.305197e-002 -3.496590e+001 1.391706e+002 -8.744901e+001 -1.649092e+002 -1.613918e+001 -5.941246e+001
3068906250 -2.212756e+001 1.031716e+001 -3.289200e+001 6.965930e+001 -8.617654e+001 -1.059453e+002 -1.596509e+001 -5.446169e+001
3070000000 -2.155958e+001 1.998207e+001 -3.247491e+001 8.651419e-001 -9.038705e+001 1.458643e+002 -1.591549e+001 -4.964483e+001
3071093750 -2.118239e+001 2.907423e+001 -3.393742e+001 -6.979000e+001 -8.196617e+001 -1.590055e+002 -1.604179e+001 -4.485612e+001
3072187500 -2.103158e+001 3.798209e+001 -3.772412e+001 -1.480526e+002 -7.825031e+001 -1.447068e+002 -1.631661e+001 -3.999378e+001
3073281250 -2.108043e+001 4.635044e+001 -4.275343e+001 9.285584e+001 -8.746170e+001 1.704067e+002 -1.672726e+001 -3.529542e+001
3074375000 -2.132938e+001 5.453550e+001 -3.801896e+001 -2.816444e+001 -8.480305e+001 1.385052e+002 -1.727522e+001 -3.078351e+001
3075468750 -2.180687e+001 6.218699e+001 -3.436737e+001 -1.068648e+002 -8.265855e+001 1.502014e+002 -1.795057e+001 -2.671431e+001
3076562500 -2.255162e+001 6.959661e+001 -3.327807e+001 -1.758246e+002 -9.066567e+001 -1.197614e+002 -1.877219e+001 -2.337768e+001
3077656250 -2.356090e+001 7.639581e+001 -3.431437e+001 1.161669e+002 -8.619162e+001 2.610771e+001 -1.974353e+001 -2.106594e+001
3078750000 -2.495062e+001 8.243416e+001 -3.848590e+001 4.381136e+001 -8.904814e+001 -3.223550e+001 -2.089974e+001 -2.041595e+001
3079843750 -2.681235e+001 8.720447e+001 -4.766806e+001 -8.515572e+001 -8.689503e+001 -6.176806e+001 -2.222210e+001 -2.227494e+001
3080937500 -2.938622e+001 8.890573e+001 -3.804459e+001 1.399044e+002 -1.008917e+002 4.793834e+001 -2.365483e+001 -2.720659e+001
3082031250 -3.292865e+001 8.292632e+001 -3.282825e+001 6.803252e+001 -9.258223e+001 -1.195048e+002 -2.492100e+001 -3.650114e+001
3083125000 -3.678333e+001 5.503606e+001 -3.051467e+001 2.871462e+000 -8.001726e+001 -1.691557e+002 -2.564856e+001 -4.920504e+001
3084218750 -3.529600e+001 1.066310e+001 -2.996252e+001 -6.206555e+001 -8.402866e+001 -1.477120e+001 -2.545705e+001 -6.215138e+001
3085312500 -3.120194e+001 -4.980391e+000 -3.105450e+001 -1.297822e+002 -8.324483e+001 -1.128404e+002 -2.456510e+001 -7.180165e+001
3086406250 -2.801432e+001 -6.555313e+000 -3.440426e+001 1.539004e+002 -8.475313e+001 -1.444410e+002 -2.341088e+001 -7.736734e+001
3087500000 -2.574774e+001 -3.839167e+000 -3.911649e+001 4.555182e+001 -8.543401e+001 1.367617e+002 -2.223793e+001 -7.943986e+001
3088593750 -2.404836e+001 1.466361e+000 -3.545920e+001 -7.351075e+001 -8.165295e+001 1.076631e+002 -2.118408e+001 -7.952101e+001
3089687500 -2.280033e+001 7.490462e+000 -3.121510e+001 -1.519650e+002 -9.150193e+001 -5.973222e+001 -2.031079e+001 -7.828802e+001
3090781250 -2.185372e+001 1.426995e+001 -2.904630e+001 1.416316e+002 -8.825549e+001 3.738536e+001 -1.958317e+001 -7.652309e+001
3091875000 -2.113877e+001 2.135453e+001 -2.834776e+001 7.824748e+001 -8.613123e+001 8.052926e+001 -1.905026e+001 -7.407149e+001
3092968750 -2.068836e+001 2.868145e+001 -2.906967e+001 1.432866e+001 -8.976280e+001 1.678826e+002 -1.869030e+001 -7.137415e+001
3094062500 -2.042282e+001 3.621257e+001 -3.179478e+001 -5.122002e+001 -8.712776e+001 1.767233e+002 -1.847129e+001 -6.859862e+001
3095156250 -2.034685e+001 4.379864e+001 -3.820543e+001 -1.241187e+002 -9.525932e+001 9.220804e+001 -1.835800e+001 -6.552700e+001
3096250000 -2.044855e+001 5.157098e+001 -4.598925e+001 6.885183e+001 -8.730492e+001 -8.155443e+001 -1.837542e+001 -6.257596e+001
3097343750 -2.074680e+001 5.948132e+001 -3.654763e+001 -3.122377e+001 -9.146363e+001 -8.345126e+001 -1.845733e+001 -5.951247e+001
3098437500 -2.126142e+001 6.740938e+001 -3.372141e+001 -9.369001e+001 -8.419412e+001 -2.997426e+001 -1.858828e+001 -5.691462e+001
3099531250 -2.195761e+001 7.543391e+001 -3.353577e+001 -1.456581e+002 -7.836278e+001 -5.134502e+000 -1.878060e+001 -5.468792e+001
3100625000 -2.296316e+001 8.354355e+001 -3.428645e+001 1.756131e+002 -9.084763e+001 1.540654e+002 -1.899773e+001 -5.300763e+001
3101718750 -2.424157e+001 9.167284e+001 -3.363469e+001 1.429461e+002 -9.155737e+001 1.308834e+002 -1.924558e+001 -5.187321e+001
3102812500 -2.597975e+001 1.000366e+002 -3.200273e+001 1.004990e+002 -8.911086e+001 -1.601253e+002 -1.957030e+001 -5.138242e+001
3103906250 -2.836390e+001 1.088177e+002 -3.140204e+001 4.647820e+001 -8.841602e+001 1.413556e+002 -1.988837e+001 -5.142072e+001
3105000000 -3.186174e+001 1.189291e+002 -3.286495e+001 -1.608431e+001 -9.270008e+001 6.653785e+001 -2.020272e+001 -5.169118e+001
3106093750 -3.781507e+001 1.342920e+002 -3.824057e+001 -9.357047e+001 -8.427440e+001 1.660799e+002 -2.054351e+001 -5.209081e+001
3107187500 -4.988389e+001 -1.353437e+002 -4.227837e+001 1.019280e+002 -7.972158e+001 -8.670580e+001 -2.080430e+001 -5.261753e+001
3108281250 -3.755111e+001 -5.707287e+001 -3.358488e+001 3.177178e+000 -8.782358e+001 -1.469919e+002 -2.102537e+001 -5.304242e+001
3109375000 -3.201845e+001 -4.309195e+001 -3.008526e+001 -6.694930e+001 -9.668472e+001 -3.793296e+001 -2.118789e+001 -5.344830e+001
3110468750 -2.881542e+001 -3.295690e+001 -2.915081e+001 -1.327593e+002 -8.279385e+001 -7.065385e+001 -2.129256e+001 -5.402763e+001
3111562500 -2.667529e+001 -2.416126e+001 -3.019935e+001 1.625494e+002 -9.214882e+001 1.417757e+002 -2.138125e+001 -5.459024e+001
3112656250 -2.521379e+001 -1.587086e+001 -3.337624e+001 9.643928e+001 -8.285381e+001 -5.962196e+000 -2.151342e+001 -5.542593e+001
3113750000 -2.415556e+001 -7.648718e+000 -4.068623e+001 1.401052e+001 -9.681317e+001 -1.270285e+002 -2.168129e+001 -5.637115e+001
3114843750 -2.345057e+001 3.687729e-001 -4.115400e+001 -1.523349e+002 -8.090604e+001 -1.612945e+002 -2.187834e+001 -5.740999e+001
3115937500 -2.300946e+001 8.394447e+000 -3.372253e+001 1.233973e+002 -8.366118e+001 1.323761e+002 -2.214583e+001 -5.878217e+001
3117031250 -2.279567e+001 1.626682e+001 -3.072425e+001 5.600534e+001 -8.769405e+001 7.451698e+001 -2.245681e+001 -6.029322e+001
3118125000 -2.282181e+001 2.404541e+001 -3.004300e+001 -1.007740e+001 -8.410146e+001 -3.183795e+001 -2.272359e+001 -6.179744e+001
3119218750 -2.306399e+001 3.176452e+001 -3.139778e+001 -7.748096e+001 -8.596723e+001 1.780899e+002 -2.291867e+001 -6.372444e+001
3120312500 -2.354905e+001 3.910260e+001 -3.517288e+001 -1.525838e+002 -8.625651e+001 -1.761323e+002 -2.300526e+001 -6.609563e+001
3121406250 -2.433309e+001 4.649871e+001 -4.045940e+001 9.440442e+001 -8.820630e+001 1.245729e+002 -2.294954e+001 -6.884968e+001
3122500000 -2.537812e+001 5.366103e+001 -3.592978e+001 -2.599460e+001 -8.928297e+001 -1.714304e+002 -2.275215e+001 -7.159502e+001
3123593750 -2.685209e+001 6.017583e+001 -3.160924e+001 -1.008842e+002 -8.218327e+001 1.046822e+002 -2.245717e+001 -7.420358e+001
3124687500 -2.886208e+001 6.599810e+001 -2.944549e+001 -1.659179e+002 -8.111481e+001 -2.099543e+001 -2.211230e+001 -7.632544e+001
3125781250 -3.171763e+001 6.968873e+001 -2.873341e+001 1.314064e+002 -7.989996e+001 1.483895e+002 -2.173066e+001 -7.749654e+001
3126875000 -3.619970e+001 6.798661e+001 -2.928165e+001 6.684953e+001 -8.599512e+001 -1.713342e+002 -2.139614e+001 -7.784603e+001
3127968750 -4.348969e+001 3.400648e+001 -3.142137e+001 -3.812725e+000 -8.689349e+001 8.891801e+001 -2.107377e+001 -7.708538e+001
3129062500 -3.965329e+001 -3.753977e+001 -3.522893e+001 -9.342634e+001 -8.505779e+001 -1.626651e+002 -2.080179e+001 -7.542837e+001
3130156250 -3.378417e+001 -4.784460e+001 -3.526705e+001 1.479029e+002 -8.969746e+001 -3.362597e+001 -2.056005e+001 -7.294286e+001
3131250000 -3.023447e+001 -4.619372e+001 -3.107743e+001 5.602904e+001 -9.824786e+001 -6.814880e+001 -2.041311e+001 -7.004593e+001
3132343750 -2.790645e+001 -4.132627e+001 -2.848333e+001 -1.642300e+001 -8.092545e+001 1.022068e+002 -2.032458e+001 -6.689558e+001
3133437500 -2.621971e+001 -3.532143e+001 -2.754169e+001 -8.239203e+001 -9.069056e+001 1.635173e+002 -2.035962e+001 -6.348795e+001
3134531250 -2.500175e+001 -2.857076e+001 -2.793297e+001 -1.461797e+002 -9.605927e+001 3.223007e+001 -2.052895e+001 -6.027909e+001
3135625000 -2.412337e+001 -2.152436e+001 -2.967484e+001 1.499705e+002 -8.493034e+001 9.343548e+001 -2.090048e+001 -5.716122e+001
3136718750 -2.356668e+001 -1.432730e+001 -3.319776e+001 8.187947e+001 -8.691878e+001 -3.893199e+001 -2.143857e+001 -5.400649e+001
3137812500 -2.321593e+001 -7.116714e+000 -3.882737e+001 -8.714868e+000 -1.036677e+002 1.754002e+002 -2.220608e+001 -5.110347e+001
3138906250 -2.309648e+001 1.536216e-002 -3.779001e+001 -1.373560e+002 -9.547386e+001 5.124721e+001 -2.321732e+001 -4.861198e+001
3140000000 -2.319457e+001 7.243997e+000 -3.289248e+001 1.384523e+002 -8.676333e+001 -6.002728e+001 -2.444850e+001 -4.693974e+001
3141093750 -2.353383e+001 1.436808e+001 -3.037664e+001 7.128447e+001 -9.304961e+001 3.162824e+001 -2.595781e+001 -4.700962e+001
3142187500 -2.411182e+001 2.137203e+001 -2.967253e+001 7.779902e+000 -8.779173e+001 -7.369262e+001 -2.771900e+001 -5.027858e+001
3143281250 -2.498899e+001 2.803072e+001 -3.087155e+001 -5.598360e+001 -8.231760e+001 -1.061802e+002 -2.954881e+001 -6.013183e+001
3144375000 -2.617506e+001 3.430682e+001 -3.497067e+001 -1.198333e+002 -9.137378e+001 1.798625e+002 -3.071649e+001 -7.820595e+001
3145468750 -2.785125e+001 3.983447e+001 -5.076709e+001 -1.796799e+002 -8.215465e+001 -1.040104e+002 -3.019221e+001 -9.905742e+001
3146562500 -3.014577e+001 4.358224e+001 -3.827903e+001 -7.285467e+001 -9.366262e+001 5.819938e+001 -2.840774e+001 -1.137617e+002
3147656250 -3.351100e+001 4.278040e+001 -3.283606e+001 -1.383783e+002 -7.993130e+001 4.747302e+001 -2.646743e+001 -1.212021e+002
3148750000 -3.851256e+001 2.788773e+001 -3.182127e+001 1.547549e+002 -8.099697e+001 -4.183537e+000 -2.471148e+001 -1.232106e+002
3149843750 -4.047239e+001 -2.869186e+001 -3.358209e+001 8.551074e+001 -8.077448e+001 -4.378231e+001 -2.332840e+001 -1.224572e+002
3150937500 -3.523074e+001 -5.949363e+001 -3.885886e+001 1.580949e-001 -8.643946e+001 -9.974767e+001 -2.224352e+001 -1.197570e+002
3152031250 -3.116838e+001 -6.372451e+001 -4.015469e+001 -1.449876e+002 -8.453983e+001 -1.026420e+002 -2.137173e+001 -1.161453e+002
3153125000 -2.839652e+001 -6.063344e+001 -3.343413e+001 1.215721e+002 -8.306584e+001 1.642207e+002 -2.068751e+001 -1.117641e+002
3154218750 -2.643696e+001 -5.560300e+001 -2.991690e+001 5.302890e+001 -8.125630e+001 1.510041e+001 -2.018182e+001 -1.070188e+002
3155312500 -2.495752e+001 -4.944117e+001 -2.829920e+001 -1.158673e+001 -8.200557e+001 -4.374713e+001 -1.986198e+001 -1.023463e+002
3156406250 -2.383299e+001 -4.265992e+001 -2.808745e+001 -7.581971e+001 -8.237450e+001 1.248806e+002 -1.967841e+001 -9.767130e+001
3157500000 -2.301912e+001 -3.586010e+001 -2.905745e+001 -1.429711e+002 -8.847392e+001 -4.332307e+001 -1.967894e+001 -9.321232e+001
3158593750 -2.246034e+001 -2.863804e+001 -3.131925e+001 1.423128e+002 -9.198882e+001 -1.208925e+001 -1.986431e+001 -8.904319e+001
3159687500 -2.212261e+001 -2.131447e+001 -3.347559e+001 4.998393e+001 -8.601182e+001 -1.419667e+002 -2.023482e+001 -8.531077e+001
3160781250 -2.195700e+001 -1.388483e+001 -3.203788e+001 -4.919479e+001 -8.527553e+001 -9.872369e+001 -2.080918e+001 -8.213372e+001
3161875000 -2.197260e+001 -6.059777e+000 -2.886174e+001 -1.296538e+002 -8.314968e+001 7.509113e+001 -2.152595e+001 -7.963925e+001
3162968750 -2.214958e+001 1.805158e+000 -2.644828e+001 1.607667e+002 -8.407307e+001 1.591288e+002 -2.235421e+001 -7.851104e+001
3164062500 -2.254202e+001 9.241029e+000 -2.510569e+001 9.456695e+001 -8.611525e+001 -9.186636e+001 -2.333342e+001 -7.911573e+001
