!Agilent Technologies,E8363B,MY43030572,A.06.04.32
!Agilent E8363B: A.06.04.32
!Date: Tuesday, June 07, 2011 09:06:01
!Correction: S11(Full 2 Port(1,2)) S21(Full 2 Port(1,2)) S12(Full 2 Port(1,2)) S22(Full 2 Port(1,2)) 
!S2P File: Measurements: S11, S21, S12, S22:
# Hz S  dB   R 50
3000000000 -2.182792e+001 6.825105e+001 -2.566568e+001 -8.154649e+001 -8.509497e+001 1.690677e+002 -1.646156e+001 -2.224835e+001
3001093750 -2.099921e+001 7.606745e+001 -2.652494e+001 -1.490462e+002 -8.176881e+001 5.170396e+001 -1.668994e+001 -1.914615e+001
3002187500 -2.043544e+001 8.447849e+001 -2.693646e+001 1.458619e+002 -8.388441e+001 1.699283e+002 -1.695524e+001 -1.583704e+001
3003281250 -2.011031e+001 9.283051e+001 -2.755544e+001 7.660190e+001 -8.192392e+001 4.731251e+001 -1.737524e+001 -1.310710e+001
3004375000 -1.997159e+001 1.012858e+002 -2.798014e+001 -3.994267e-001 -8.505334e+001 -1.761825e+002 -1.792558e+001 -1.101940e+001
3005468750 -2.002701e+001 1.098128e+002 -2.767610e+001 -8.408860e+001 -8.807323e+001 -2.364376e+001 -1.861879e+001 -1.005661e+001
3006562500 -2.029897e+001 1.185927e+002 -2.635484e+001 -1.675309e+002 -9.573510e+001 1.052426e+002 -1.944126e+001 -1.008918e+001
3007656250 -2.077250e+001 1.271785e+002 -2.474506e+001 1.138077e+002 -8.668204e+001 -5.596649e+001 -2.027396e+001 -1.173013e+001
3008750000 -2.147426e+001 1.359816e+002 -2.356760e+001 3.891492e+001 -9.337339e+001 -1.606017e+002 -2.103893e+001 -1.505472e+001
3009843750 -2.249631e+001 1.449443e+002 -2.303447e+001 -3.450655e+001 -9.476276e+001 8.382494e+001 -2.157111e+001 -2.016239e+001
3010937500 -2.388665e+001 1.543773e+002 -2.315795e+001 -1.086999e+002 -9.092651e+001 2.947889e+001 -2.174914e+001 -2.658063e+001
3012031250 -2.581176e+001 1.650158e+002 -2.384732e+001 1.741542e+002 -8.928834e+001 -1.404397e+002 -2.153498e+001 -3.312929e+001
3013125000 -2.851283e+001 1.773962e+002 -2.469137e+001 9.203319e+001 -9.309482e+001 -9.732388e+001 -2.093019e+001 -3.849574e+001
3014218750 -3.254409e+001 -1.641616e+002 -2.509570e+001 5.785100e+000 -8.734591e+001 8.670142e+001 -2.021702e+001 -4.216741e+001
3015312500 -3.857948e+001 -1.209583e+002 -2.477078e+001 -7.954458e+001 -9.233253e+001 1.537840e+002 -1.947689e+001 -4.378407e+001
3016406250 -3.686713e+001 -3.913409e+001 -2.430817e+001 -1.602145e+002 -8.575761e+001 -1.479031e+002 -1.880249e+001 -4.381683e+001
3017500000 -3.120803e+001 -7.181310e+000 -2.423288e+001 1.232774e+002 -8.302553e+001 -1.175925e+002 -1.824854e+001 -4.240747e+001
3018593750 -2.744090e+001 8.710793e+000 -2.482724e+001 4.814295e+001 -8.152362e+001 9.954750e+001 -1.780928e+001 -3.986010e+001
3019687500 -2.491385e+001 2.034225e+001 -2.630135e+001 -2.788254e+001 -9.186260e+001 -1.294500e+002 -1.747636e+001 -3.661012e+001
3020781250 -2.308692e+001 3.019877e+001 -2.853985e+001 -1.085218e+002 -9.048901e+001 6.534906e+000 -1.727770e+001 -3.294240e+001
3021875000 -2.175848e+001 3.954653e+001 -3.092689e+001 1.624045e+002 -8.337566e+001 1.123792e+002 -1.718617e+001 -2.899054e+001
3022968750 -2.076047e+001 4.838438e+001 -3.196211e+001 6.859906e+001 -8.884048e+001 -7.307289e+001 -1.722805e+001 -2.518129e+001
3024062500 -2.001916e+001 5.705394e+001 -3.178884e+001 -1.643936e+001 -8.618379e+001 -1.497283e+002 -1.739711e+001 -2.138263e+001
3025156250 -1.949227e+001 6.581912e+001 -3.211387e+001 -8.974338e+001 -8.573153e+001 4.588945e+001 -1.776992e+001 -1.804501e+001
3026250000 -1.918104e+001 7.415503e+001 -3.342847e+001 -1.539057e+002 -8.294050e+001 -1.525363e+002 -1.829398e+001 -1.506411e+001
3027343750 -1.904117e+001 8.233087e+001 -3.578267e+001 1.509463e+002 -9.173873e+001 -2.831194e+000 -1.904321e+001 -1.255569e+001
3028437500 -1.910594e+001 9.052405e+001 -3.859531e+001 1.030309e+002 -9.099026e+001 -3.885726e+001 -1.994710e+001 -1.108388e+001
3029531250 -1.936399e+001 9.846379e+001 -4.229322e+001 5.628159e+001 -8.928126e+001 2.449415e+001 -2.102319e+001 -1.102490e+001
3030625000 -1.980974e+001 1.063972e+002 -5.179181e+001 1.866266e+001 -8.827100e+001 -5.665524e+001 -2.222136e+001 -1.291421e+001
3031718750 -2.049793e+001 1.141004e+002 -4.918800e+001 1.018888e+002 -9.001277e+001 -1.952020e+001 -2.338057e+001 -1.788814e+001
3032812500 -2.140561e+001 1.216612e+002 -4.147894e+001 5.147849e+001 -9.420080e+001 -7.040084e+001 -2.421918e+001 -2.658142e+001
3033906250 -2.261326e+001 1.289351e+002 -3.894871e+001 -7.573678e+000 -9.049539e+001 -1.453412e+002 -2.442220e+001 -3.799288e+001
3035000000 -2.420668e+001 1.356385e+002 -3.941932e+001 -7.102213e+001 -8.613993e+001 -1.757984e+002 -2.384993e+001 -4.896531e+001
3036093750 -2.644435e+001 1.410632e+002 -4.327670e+001 -1.422744e+002 -8.217552e+001 -1.433271e+002 -2.281333e+001 -5.686007e+001
3037187500 -2.961938e+001 1.441679e+002 -4.934729e+001 7.881438e+001 -8.826879e+001 1.446544e+002 -2.163778e+001 -6.122968e+001
3038281250 -3.458573e+001 1.387583e+002 -3.949534e+001 -4.245979e+001 -8.641449e+001 -1.263401e+002 -2.053882e+001 -6.261179e+001
3039375000 -4.088901e+001 8.908805e+001 -3.418678e+001 -1.160259e+002 -8.733918e+001 1.541287e+002 -1.960531e+001 -6.191528e+001
3040468750 -3.509141e+001 3.575324e+001 -3.167725e+001 1.740726e+002 -9.285477e+001 8.929419e+001 -1.883982e+001 -5.969490e+001
3041562500 -3.004576e+001 2.949987e+001 -3.089433e+001 1.041766e+002 -8.914849e+001 1.227514e+002 -1.826880e+001 -5.640125e+001
3042656250 -2.688631e+001 3.253969e+001 -3.149596e+001 2.994097e+001 -9.080347e+001 2.630377e+001 -1.782208e+001 -5.237050e+001
3043750000 -2.473071e+001 3.813470e+001 -3.301722e+001 -5.257069e+001 -8.270547e+001 1.799029e+002 -1.750750e+001 -4.798329e+001
3044843750 -2.316506e+001 4.510101e+001 -3.386348e+001 -1.481630e+002 -8.338764e+001 -1.101911e+002 -1.735367e+001 -4.365189e+001
3045937500 -2.200959e+001 5.249451e+001 -3.235051e+001 1.165718e+002 -9.349962e+001 1.988668e+001 -1.733786e+001 -3.932224e+001
3047031250 -2.117050e+001 6.030979e+001 -3.047679e+001 3.425800e+001 -9.064802e+001 -1.168487e+002 -1.752266e+001 -3.515679e+001
3048125000 -2.061939e+001 6.826449e+001 -2.949503e+001 -3.925225e+001 -8.208107e+001 4.778439e+001 -1.788848e+001 -3.134120e+001
3049218750 -2.027443e+001 7.655343e+001 -2.951117e+001 -1.097302e+002 -8.686518e+001 -7.288997e+001 -1.844027e+001 -2.772683e+001
3050312500 -2.013952e+001 8.496389e+001 -3.073050e+001 1.785209e+002 -8.357311e+001 1.386020e+002 -1.922055e+001 -2.461970e+001
3051406250 -2.019772e+001 9.385827e+001 -3.308676e+001 1.018409e+002 -8.344101e+001 -7.678942e+000 -2.016254e+001 -2.242029e+001
3052500000 -2.044995e+001 1.029513e+002 -3.567693e+001 1.039297e+001 -8.390133e+001 -1.610182e+002 -2.132738e+001 -2.166948e+001
3053593750 -2.090815e+001 1.122712e+002 -3.542404e+001 -9.137498e+001 -8.289307e+001 -1.103090e+001 -2.264148e+001 -2.353115e+001
3054687500 -2.157840e+001 1.222179e+002 -3.328109e+001 -1.776770e+002 -8.517318e+001 -1.765813e+002 -2.398180e+001 -2.920179e+001
3055781250 -2.249707e+001 1.326702e+002 -3.176328e+001 1.094031e+002 -8.527890e+001 -1.374284e+002 -2.500129e+001 -3.981332e+001
3056875000 -2.368851e+001 1.441983e+002 -3.145508e+001 4.179915e+001 -8.111781e+001 -9.746935e+001 -2.523846e+001 -5.407613e+001
3057968750 -2.522406e+001 1.575841e+002 -3.251969e+001 -2.553544e+001 -8.354991e+001 -7.947403e+001 -2.440764e+001 -6.762927e+001
3059062500 -2.715388e+001 1.742383e+002 -3.536896e+001 -9.572473e+001 -8.323353e+001 -4.464738e+001 -2.304008e+001 -7.633495e+001
3060156250 -2.927129e+001 -1.634454e+002 -4.088553e+001 1.746807e+002 -8.022966e+001 -6.779607e+001 -2.157938e+001 -8.073470e+001
3061250000 -3.105342e+001 -1.317525e+002 -4.150024e+001 3.616467e+001 -8.906234e+001 9.275979e+001 -2.026136e+001 -8.156857e+001
3062343750 -3.105572e+001 -9.468706e+001 -3.638616e+001 -5.410514e+001 -8.771638e+001 -8.453688e+001 -1.916289e+001 -8.006104e+001
3063437500 -2.939322e+001 -6.342952e+001 -3.377903e+001 -1.218115e+002 -7.922641e+001 6.796791e+001 -1.823094e+001 -7.713312e+001
3064531250 -2.726808e+001 -4.098941e+001 -3.279384e+001 1.740595e+002 -8.309919e+001 1.799427e+002 -1.748051e+001 -7.335625e+001
3065625000 -2.545531e+001 -2.477220e+001 -3.344683e+001 1.079792e+002 -1.033439e+002 9.814129e+001 -1.686063e+001 -6.890150e+001
3066718750 -2.402213e+001 -1.145687e+001 -3.600070e+001 3.491975e+001 -8.511344e+001 -1.565524e+002 -1.640549e+001 -6.431666e+001
3067812500 -2.291314e+001 -9.562307e-002 -4.057750e+001 -6.473976e+001 -7.940563e+001 -1.675323e+002 -1.610277e+001 -5.951195e+001
3068906250 -2.209884e+001 1.027838e+001 -3.844244e+001 1.680758e+002 -8.501593e+001 2.982940e+001 -1.592933e+001 -5.460616e+001
3070000000 -2.154054e+001 2.003363e+001 -3.377077e+001 8.443740e+001 -9.616998e+001 -1.110585e+002 -1.591177e+001 -4.976142e+001
3071093750 -2.119089e+001 2.920607e+001 -3.115799e+001 1.635254e+001 -9.353253e+001 -5.529123e+001 -1.604050e+001 -4.487140e+001
3072187500 -2.104976e+001 3.808739e+001 -3.004966e+001 -4.880376e+001 -8.565662e+001 -6.841979e+001 -1.630939e+001 -3.992573e+001
3073281250 -2.110699e+001 4.653839e+001 -3.021130e+001 -1.138380e+002 -8.232338e+001 -1.651683e+002 -1.670834e+001 -3.514198e+001
3074375000 -2.137804e+001 5.477709e+001 -3.156479e+001 1.783179e+002 -8.323546e+001 9.020422e+001 -1.722825e+001 -3.062585e+001
3075468750 -2.186687e+001 6.253325e+001 -3.412162e+001 9.975894e+001 -8.932307e+001 4.879478e+001 -1.789195e+001 -2.674295e+001
3076562500 -2.262755e+001 6.996261e+001 -3.613899e+001 -1.674338e+000 -8.520401e+001 1.542502e+002 -1.870637e+001 -2.354119e+001
3077656250 -2.364703e+001 7.677412e+001 -3.373655e+001 -1.036085e+002 -8.084177e+001 -1.097660e+002 -1.968518e+001 -2.142119e+001
3078750000 -2.507785e+001 8.288730e+001 -3.075321e+001 1.759769e+002 -8.825065e+001 1.226889e+002 -2.085909e+001 -2.080999e+001
3079843750 -2.698707e+001 8.767433e+001 -2.916259e+001 1.056233e+002 -8.168900e+001 -8.749165e+001 -2.220355e+001 -2.258824e+001
3080937500 -2.966094e+001 8.935341e+001 -2.894822e+001 3.906932e+001 -9.453207e+001 1.165483e+002 -2.363105e+001 -2.750524e+001
3082031250 -3.332579e+001 8.298023e+001 -3.004012e+001 -2.524305e+001 -9.908379e+001 1.594290e+002 -2.489850e+001 -3.643492e+001
3083125000 -3.724359e+001 5.276155e+001 -3.254592e+001 -8.861363e+001 -8.697305e+001 -4.022398e+001 -2.559747e+001 -4.896155e+001
3084218750 -3.528902e+001 7.880789e+000 -3.675355e+001 -1.525262e+002 -7.920291e+001 -1.463089e+002 -2.539174e+001 -6.182407e+001
3085312500 -3.108264e+001 -6.649745e+000 -4.246090e+001 1.309107e+002 -8.095473e+001 -5.083452e+001 -2.452168e+001 -7.131507e+001
3086406250 -2.793793e+001 -7.309268e+000 -4.318422e+001 1.640262e+001 -8.165503e+001 -9.013300e+001 -2.335034e+001 -7.692432e+001
3087500000 -2.567590e+001 -4.305717e+000 -3.796329e+001 -6.711066e+001 -8.210895e+001 1.414392e+002 -2.216129e+001 -7.921690e+001
3088593750 -2.401533e+001 1.190178e+000 -3.426028e+001 -1.293985e+002 -8.757117e+001 1.420793e+002 -2.110950e+001 -7.920889e+001
3089687500 -2.277587e+001 7.341724e+000 -3.184696e+001 1.707093e+002 -9.216664e+001 -1.306892e+002 -2.023338e+001 -7.824785e+001
3090781250 -2.183743e+001 1.427101e+001 -3.068747e+001 1.095488e+002 -8.676878e+001 7.273133e+000 -1.952843e+001 -7.654906e+001
3091875000 -2.114824e+001 2.150778e+001 -3.071443e+001 4.669754e+001 -9.431380e+001 1.229122e+002 -1.901396e+001 -7.420221e+001
3092968750 -2.070481e+001 2.888415e+001 -3.195400e+001 -2.151854e+001 -7.870982e+001 -1.796236e+002 -1.867635e+001 -7.153094e+001
3094062500 -2.045487e+001 3.647971e+001 -3.494184e+001 -1.005742e+002 -8.424052e+001 9.350761e+001 -1.847006e+001 -6.856923e+001
3095156250 -2.039590e+001 4.406844e+001 -3.837314e+001 1.553398e+002 -8.838412e+001 -1.163731e+002 -1.836774e+001 -6.539726e+001
3096250000 -2.050101e+001 5.184966e+001 -3.674279e+001 4.365466e+001 -9.450433e+001 -1.700962e+002 -1.836332e+001 -6.229188e+001
3097343750 -2.082003e+001 5.981700e+001 -3.466676e+001 -3.908938e+001 -8.715929e+001 -1.471741e+001 -1.841232e+001 -5.934317e+001
3098437500 -2.134417e+001 6.776254e+001 -3.497114e+001 -1.076844e+002 -8.463559e+001 -1.157946e+002 -1.853119e+001 -5.689323e+001
3099531250 -2.206354e+001 7.594635e+001 -3.811676e+001 -1.606487e+002 -8.929221e+001 -6.265382e+001 -1.870529e+001 -5.471397e+001
3100625000 -2.308022e+001 8.409253e+001 -4.138324e+001 -1.694470e+002 -9.631901e+001 6.218229e+001 -1.893787e+001 -5.325542e+001
3101718750 -2.436533e+001 9.221160e+001 -3.609351e+001 1.698616e+002 -8.672546e+001 -1.361912e+002 -1.923162e+001 -5.218886e+001
3102812500 -2.615078e+001 1.008421e+002 -3.238479e+001 1.136508e+002 -8.417844e+001 9.078664e+001 -1.955877e+001 -5.172607e+001
3103906250 -2.855054e+001 1.098641e+002 -3.089263e+001 4.756178e+001 -9.124863e+001 -1.555175e+002 -1.989265e+001 -5.151980e+001
3105000000 -3.213924e+001 1.203498e+002 -3.097780e+001 -2.592204e+001 -8.372096e+001 -1.471044e+002 -2.020188e+001 -5.154213e+001
3106093750 -3.833047e+001 1.373117e+002 -3.184811e+001 -1.100523e+002 -8.421149e+001 -1.762534e+002 -2.049991e+001 -5.183889e+001
3107187500 -4.870068e+001 -1.244217e+002 -3.203835e+001 1.557324e+002 -8.164540e+001 -1.302399e+002 -2.074296e+001 -5.242318e+001
3108281250 -3.710675e+001 -5.754974e+001 -3.041598e+001 6.507519e+001 -9.007313e+001 -5.593394e+001 -2.091967e+001 -5.305035e+001
3109375000 -3.183034e+001 -4.313347e+001 -2.853545e+001 -1.488087e+001 -7.856651e+001 1.210514e+002 -2.109514e+001 -5.354875e+001
3110468750 -2.873235e+001 -3.298492e+001 -2.738019e+001 -8.813644e+001 -8.118699e+001 1.431685e+002 -2.122200e+001 -5.424667e+001
3111562500 -2.663669e+001 -2.402961e+001 -2.706942e+001 -1.584697e+002 -8.073940e+001 -1.200573e+002 -2.132035e+001 -5.489502e+001
3112656250 -2.520828e+001 -1.562069e+001 -2.746769e+001 1.313052e+002 -8.686753e+001 9.033260e+001 -2.147260e+001 -5.566142e+001
3113750000 -2.419467e+001 -7.471164e+000 -2.829132e+001 5.719264e+001 -8.409900e+001 7.787950e+001 -2.163095e+001 -5.647392e+001
3114843750 -2.351465e+001 6.759534e-001 -2.909157e+001 -2.328589e+001 -8.208035e+001 7.606310e+001 -2.185222e+001 -5.746999e+001
3115937500 -2.307752e+001 8.576651e+000 -2.911402e+001 -1.087749e+002 -8.363259e+001 1.232442e+002 -2.210335e+001 -5.865551e+001
3117031250 -2.288336e+001 1.658248e+001 -2.822173e+001 1.678133e+002 -8.325477e+001 1.361647e+002 -2.239807e+001 -6.018890e+001
3118125000 -2.292253e+001 2.434003e+001 -2.716759e+001 9.110623e+001 -8.865199e+001 -8.039094e+001 -2.265692e+001 -6.171145e+001
3119218750 -2.320220e+001 3.195063e+001 -2.660443e+001 1.865228e+001 -8.928597e+001 -6.707527e+001 -2.285810e+001 -6.362729e+001
3120312500 -2.371215e+001 3.947667e+001 -2.688353e+001 -5.167228e+001 -9.922865e+001 -2.431983e+001 -2.293969e+001 -6.601592e+001
3121406250 -2.449179e+001 4.672932e+001 -2.799447e+001 -1.223672e+002 -8.220541e+001 1.659892e+002 -2.287043e+001 -6.874918e+001
3122500000 -2.558118e+001 5.395328e+001 -2.994137e+001 1.635811e+002 -8.660751e+001 -1.635858e+001 -2.265298e+001 -7.152205e+001
3123593750 -2.707948e+001 6.030858e+001 -3.222911e+001 8.140222e+001 -7.807939e+001 -4.265594e+001 -2.238531e+001 -7.422013e+001
3124687500 -2.917279e+001 6.598351e+001 -3.333363e+001 -1.003269e+001 -8.381020e+001 7.056891e+001 -2.204596e+001 -7.631479e+001
3125781250 -3.214803e+001 6.963080e+001 -3.257014e+001 -9.775660e+001 -9.709159e+001 -1.139438e+002 -2.170147e+001 -7.770840e+001
3126875000 -3.682353e+001 6.644756e+001 -3.159033e+001 -1.738714e+002 -8.844344e+001 -9.815686e+001 -2.138126e+001 -7.791425e+001
3127968750 -4.396235e+001 2.635671e+001 -3.164887e+001 1.190499e+002 -8.645540e+001 4.995596e+000 -2.105697e+001 -7.708747e+001
3129062500 -3.902658e+001 -3.892870e+001 -3.281090e+001 5.914027e+001 -8.200047e+001 1.174720e+002 -2.078918e+001 -7.523928e+001
3130156250 -3.347313e+001 -4.794854e+001 -3.492595e+001 8.675586e+000 -8.723409e+001 1.198398e+001 -2.052378e+001 -7.262469e+001
3131250000 -3.007215e+001 -4.599040e+001 -3.683694e+001 -3.350112e+001 -8.726147e+001 -1.507249e+002 -2.034207e+001 -6.979105e+001
3132343750 -2.782686e+001 -4.108887e+001 -3.792222e+001 -7.722044e+001 -8.267641e+001 -7.484653e+001 -2.024591e+001 -6.675153e+001
3133437500 -2.619233e+001 -3.492791e+001 -3.954975e+001 -1.317599e+002 -8.410108e+001 1.255241e+002 -2.027218e+001 -6.371694e+001
3134531250 -2.500425e+001 -2.821890e+001 -4.257601e+001 1.566718e+002 -8.225668e+001 1.499992e+002 -2.048816e+001 -6.068957e+001
3135625000 -2.416395e+001 -2.106409e+001 -4.340854e+001 4.619767e+001 -8.966557e+001 8.255917e+001 -2.087636e+001 -5.748324e+001
3136718750 -2.362956e+001 -1.402223e+001 -3.852922e+001 -4.968545e+001 -8.821964e+001 -1.785916e+002 -2.145509e+001 -5.417585e+001
3137812500 -2.329742e+001 -6.752152e+000 -3.480768e+001 -1.213465e+002 -7.966711e+001 1.132866e+002 -2.222015e+001 -5.110186e+001
3138906250 -2.319004e+001 2.894703e-001 -3.298546e+001 1.746735e+002 -8.462515e+001 1.716369e+002 -2.320229e+001 -4.840496e+001
3140000000 -2.331899e+001 7.536531e+000 -3.256814e+001 1.143376e+002 -9.258468e+001 -8.798540e-001 -2.438839e+001 -4.679136e+001
3141093750 -2.368951e+001 1.460669e+001 -3.333207e+001 5.769237e+001 -8.228861e+001 -2.868934e+001 -2.584066e+001 -4.702836e+001
3142187500 -2.430076e+001 2.155333e+001 -3.516965e+001 3.098373e+000 -9.060320e+001 -2.552091e+001 -2.754397e+001 -5.094281e+001
3143281250 -2.518954e+001 2.821878e+001 -3.807199e+001 -4.989587e+001 -8.026011e+001 1.386270e+002 -2.936928e+001 -6.096317e+001
3144375000 -2.640132e+001 3.449717e+001 -4.265565e+001 -1.009020e+002 -8.318877e+001 9.637260e+001 -3.050156e+001 -7.919830e+001
3145468750 -2.807851e+001 3.980235e+001 -5.008524e+001 -1.688866e+002 -8.246731e+001 6.119859e+001 -3.004734e+001 -9.974543e+001
3146562500 -3.046159e+001 4.327200e+001 -4.818181e+001 5.436842e+001 -9.165263e+001 -1.658282e+002 -2.828424e+001 -1.139525e+002
3147656250 -3.394453e+001 4.166061e+001 -3.968955e+001 -1.417630e+001 -8.494164e+001 7.053503e+001 -2.639272e+001 -1.212101e+002
3148750000 -3.891947e+001 2.381114e+001 -3.417195e+001 -7.136111e+001 -9.082077e+001 6.283056e+001 -2.467790e+001 -1.230985e+002
3149843750 -4.011977e+001 -3.365868e+001 -3.027818e+001 -1.315156e+002 -9.165025e+001 4.253844e+001 -2.329346e+001 -1.220574e+002
3150937500 -3.491663e+001 -6.038379e+001 -2.782935e+001 1.647344e+002 -9.342730e+001 -7.402539e+001 -2.220675e+001 -1.194636e+002
3152031250 -3.104925e+001 -6.344838e+001 -2.665030e+001 9.736510e+001 -8.895992e+001 1.269398e+002 -2.133400e+001 -1.157850e+002
3153125000 -2.834451e+001 -6.031308e+001 -2.663052e+001 2.540159e+001 -8.522280e+001 3.571399e+001 -2.063074e+001 -1.114886e+002
3154218750 -2.642908e+001 -5.514541e+001 -2.748833e+001 -5.212743e+001 -8.583376e+001 1.775611e+002 -2.012448e+001 -1.068142e+002
3155312500 -2.496369e+001 -4.913153e+001 -2.837865e+001 -1.381438e+002 -7.816864e+001 -3.255171e+001 -1.978744e+001 -1.022317e+002
3156406250 -2.388195e+001 -4.249662e+001 -2.801510e+001 1.317900e+002 -8.744888e+001 -1.024957e+002 -1.960740e+001 -9.773203e+001
3157500000 -2.308046e+001 -3.556706e+001 -2.654761e+001 4.863820e+001 -8.764334e+001 -1.396404e+002 -1.963702e+001 -9.327187e+001
3158593750 -2.254751e+001 -2.839785e+001 -2.518168e+001 -2.656690e+001 -8.423840e+001 -2.577146e+001 -1.983843e+001 -8.918265e+001
3159687500 -2.222149e+001 -2.109258e+001 -2.457110e+001 -9.712182e+001 -8.765305e+001 -3.564747e+001 -2.021103e+001 -8.543143e+001
3160781250 -2.205892e+001 -1.365301e+001 -2.483217e+001 -1.655047e+002 -7.746805e+001 -1.695608e+002 -2.078025e+001 -8.205552e+001
3161875000 -2.208840e+001 -5.840249e+000 -2.597181e+001 1.262468e+002 -8.462026e+001 -7.750648e+001 -2.146976e+001 -7.947313e+001
3162968750 -2.230611e+001 1.936060e+000 -2.797651e+001 5.610714e+001 -8.578589e+001 -4.026788e+001 -2.230234e+001 -7.826568e+001
3164062500 -2.269017e+001 9.403996e+000 -3.044765e+001 -2.009475e+001 -8.962616e+001 3.088924e+001 -2.323076e+001 -7.886156e+001
