!Agilent Technologies,E8363B,MY43030572,A.06.04.32
!Agilent E8363B: A.06.04.32
!Date: Tuesday, June 07, 2011 09:24:55
!Correction: S11(Full 2 Port(1,2)) S21(Full 2 Port(1,2)) S12(Full 2 Port(1,2)) S22(Full 2 Port(1,2)) 
!S2P File: Measurements: S11, S21, S12, S22:
# Hz S  dB   R 50
3000000000 -2.180720e+001 6.977409e+001 -2.475780e+001 1.585734e+002 -9.663738e+001 1.746105e+002 -1.667364e+001 -1.579540e+001
3001093750 -2.092177e+001 7.749500e+001 -2.665965e+001 7.395362e+001 -8.376015e+001 1.129709e+002 -1.685400e+001 -1.258643e+001
3002187500 -2.031266e+001 8.560136e+001 -2.742765e+001 -1.305384e+001 -8.392910e+001 1.708366e+002 -1.707840e+001 -9.009418e+000
3003281250 -1.995972e+001 9.377504e+001 -2.736643e+001 -1.026769e+002 -8.455534e+001 -1.619788e+002 -1.746410e+001 -5.749885e+000
3004375000 -1.980144e+001 1.019859e+002 -2.648425e+001 1.720368e+002 -8.774232e+001 1.043129e+002 -1.797294e+001 -3.114416e+000
3005468750 -1.985026e+001 1.105266e+002 -2.562409e+001 9.241779e+001 -8.512390e+001 -9.853802e+001 -1.860342e+001 -1.283902e+000
3006562500 -2.008828e+001 1.190856e+002 -2.530179e+001 1.637965e+001 -8.157074e+001 9.052687e+001 -1.934727e+001 -6.298709e-001
3007656250 -2.053639e+001 1.275831e+002 -2.566118e+001 -5.883888e+001 -8.124325e+001 -1.511527e+002 -2.013583e+001 -1.462080e+000
3008750000 -2.120097e+001 1.363168e+002 -2.665011e+001 -1.356682e+002 -8.547390e+001 -8.828640e+000 -2.094188e+001 -4.134981e+000
3009843750 -2.216912e+001 1.450368e+002 -2.798063e+001 1.433439e+002 -8.070792e+001 4.768178e+001 -2.158584e+001 -8.834339e+000
3010937500 -2.350318e+001 1.540021e+002 -2.905421e+001 5.793501e+001 -8.438892e+001 1.194968e+002 -2.196246e+001 -1.533237e+001
3012031250 -2.540974e+001 1.639524e+002 -2.918023e+001 -2.700530e+001 -9.543810e+001 9.127809e+001 -2.195944e+001 -2.239722e+001
3013125000 -2.804148e+001 1.753426e+002 -2.860461e+001 -1.068969e+002 -8.136393e+001 1.104252e+002 -2.152378e+001 -2.851204e+001
3014218750 -3.205625e+001 -1.683912e+002 -2.814172e+001 1.787141e+002 -8.565769e+001 9.721353e+001 -2.086434e+001 -3.279923e+001
3015312500 -3.864515e+001 -1.317873e+002 -2.817201e+001 1.082415e+002 -9.627846e+001 7.007841e+001 -2.010376e+001 -3.498238e+001
3016406250 -3.820188e+001 -3.893789e+001 -2.899343e+001 3.892706e+001 -1.032038e+002 -1.518883e+002 -1.935743e+001 -3.537711e+001
3017500000 -3.169939e+001 -4.378382e+000 -3.044922e+001 -2.930698e+001 -8.377314e+001 1.196562e+002 -1.869578e+001 -3.425789e+001
3018593750 -2.768597e+001 1.141529e+001 -3.210160e+001 -1.003015e+002 -7.872850e+001 1.455520e+001 -1.814495e+001 -3.207536e+001
3019687500 -2.500633e+001 2.249248e+001 -3.336041e+001 -1.798428e+002 -9.553994e+001 -1.246470e+002 -1.771821e+001 -2.909537e+001
3020781250 -2.308794e+001 3.218055e+001 -3.307663e+001 9.333074e+001 -7.747650e+001 -3.421632e+001 -1.742893e+001 -2.569931e+001
3021875000 -2.168730e+001 4.119757e+001 -3.132757e+001 9.767631e+000 -8.635262e+001 5.100424e+001 -1.728540e+001 -2.188638e+001
3022968750 -2.065784e+001 4.986688e+001 -2.957671e+001 -6.726250e+001 -8.212016e+001 -1.613540e+002 -1.728972e+001 -1.801648e+001
3024062500 -1.989286e+001 5.832355e+001 -2.846669e+001 -1.406145e+002 -9.685967e+001 8.978257e+001 -1.742364e+001 -1.392037e+001
3025156250 -1.935864e+001 6.695534e+001 -2.837872e+001 1.472456e+002 -8.452800e+001 -1.565678e+002 -1.773063e+001 -1.003442e+001
3026250000 -1.902827e+001 7.529465e+001 -2.936588e+001 7.387460e+001 -7.909673e+001 -5.832650e+001 -1.817784e+001 -6.424023e+000
3027343750 -1.887205e+001 8.335581e+001 -3.156094e+001 -3.330889e+000 -8.748904e+001 1.462129e+002 -1.880427e+001 -3.133096e+000
3028437500 -1.890521e+001 9.139826e+001 -3.446909e+001 -8.972821e+001 -8.778826e+001 -2.081000e+001 -1.959775e+001 -6.440997e-001
3029531250 -1.913287e+001 9.919017e+001 -3.607731e+001 1.700082e+002 -9.040834e+001 -6.538370e+001 -2.056793e+001 3.924245e-001
3030625000 -1.956052e+001 1.070170e+002 -3.514901e+001 7.704693e+001 -8.209685e+001 -1.015719e+000 -2.173534e+001 -1.607570e-001
3031718750 -2.021071e+001 1.145636e+002 -3.404003e+001 6.664545e-001 -1.069309e+002 -9.245061e+001 -2.298428e+001 -3.461080e+000
3032812500 -2.109081e+001 1.218948e+002 -3.380112e+001 -6.537850e+001 -8.384080e+001 -3.817326e+001 -2.416992e+001 -1.059362e+001
3033906250 -2.229025e+001 1.290303e+002 -3.478220e+001 -1.260726e+002 -8.559286e+001 -4.885020e+001 -2.495592e+001 -2.147340e+001
3035000000 -2.384761e+001 1.354622e+002 -3.674829e+001 1.782602e+002 -9.057749e+001 2.423755e+001 -2.485729e+001 -3.406128e+001
3036093750 -2.596261e+001 1.406101e+002 -3.988813e+001 1.294868e+002 -9.653173e+001 1.299434e+002 -2.405583e+001 -4.442849e+001
3037187500 -2.897372e+001 1.432066e+002 -4.426254e+001 9.389497e+001 -8.250038e+001 1.384752e+002 -2.287178e+001 -5.072187e+001
3038281250 -3.346003e+001 1.373523e+002 -4.717638e+001 8.195701e+001 -8.893727e+001 -3.037220e+001 -2.162417e+001 -5.339085e+001
3039375000 -3.896771e+001 9.639254e+001 -4.560134e+001 6.346333e+001 -8.247329e+001 -2.805484e+001 -2.050977e+001 -5.361016e+001
3040468750 -3.486910e+001 4.376134e+001 -4.510669e+001 2.027242e+001 -8.181044e+001 -6.317752e+001 -1.957140e+001 -5.193524e+001
3041562500 -2.997313e+001 3.377144e+001 -4.853619e+001 -2.385659e+001 -8.950442e+001 -1.021886e+002 -1.882800e+001 -4.909236e+001
3042656250 -2.679837e+001 3.567118e+001 -5.525959e+001 1.010547e+001 -9.445668e+001 3.325162e+001 -1.825634e+001 -4.550171e+001
3043750000 -2.463346e+001 4.046986e+001 -4.389854e+001 1.726465e+000 -8.680929e+001 5.099656e+001 -1.785997e+001 -4.148263e+001
3044843750 -2.305135e+001 4.706342e+001 -3.820834e+001 -5.109735e+001 -8.984948e+001 3.700503e+001 -1.764383e+001 -3.714772e+001
3045937500 -2.187438e+001 5.418870e+001 -3.503909e+001 -1.110786e+002 -9.966518e+001 -9.615322e+001 -1.758080e+001 -3.260761e+001
3047031250 -2.100491e+001 6.180022e+001 -3.338238e+001 -1.762540e+002 -8.117056e+001 1.182712e+001 -1.768074e+001 -2.808141e+001
3048125000 -2.042031e+001 6.954256e+001 -3.299980e+001 1.141564e+002 -8.496415e+001 -4.464852e+001 -1.795442e+001 -2.361032e+001
3049218750 -2.005747e+001 7.758295e+001 -3.359243e+001 3.721206e+001 -9.985108e+001 6.737807e+001 -1.838828e+001 -1.935202e+001
3050312500 -1.992472e+001 8.580782e+001 -3.424131e+001 -5.166503e+001 -8.402364e+001 -1.428386e+002 -1.901599e+001 -1.569505e+001
3051406250 -1.997218e+001 9.442797e+001 -3.338284e+001 -1.484737e+002 -9.023960e+001 1.313335e+002 -1.982822e+001 -1.286943e+001
3052500000 -2.021210e+001 1.033279e+002 -3.119687e+001 1.215343e+002 -8.926754e+001 1.619357e+002 -2.088025e+001 -1.129200e+001
3053593750 -2.065909e+001 1.125594e+002 -2.941928e+001 4.018886e+001 -8.555714e+001 -9.466843e+001 -2.215632e+001 -1.145453e+001
3054687500 -2.131273e+001 1.222068e+002 -2.856430e+001 -3.704695e+001 -8.759711e+001 -8.255232e+000 -2.360986e+001 -1.507374e+001
3055781250 -2.220549e+001 1.323258e+002 -2.871631e+001 -1.137742e+002 -8.536756e+001 1.073240e+002 -2.505318e+001 -2.319220e+001
3056875000 -2.339917e+001 1.432909e+002 -2.974512e+001 1.662260e+002 -9.531017e+001 -1.226874e+002 -2.595862e+001 -3.645974e+001
3057968750 -2.498162e+001 1.559347e+002 -3.122202e+001 7.870203e+001 -9.199612e+001 -1.342645e+002 -2.575240e+001 -5.207478e+001
3059062500 -2.698882e+001 1.717036e+002 -3.180269e+001 -1.748948e+001 -7.910593e+001 7.232993e+001 -2.453575e+001 -6.411988e+001
3060156250 -2.930522e+001 -1.667728e+002 -3.089551e+001 -1.114882e+002 -9.322667e+001 -1.428771e+002 -2.297521e+001 -7.062891e+001
3061250000 -3.144070e+001 -1.350688e+002 -2.982238e+001 1.633887e+002 -8.526260e+001 1.258208e+002 -2.143981e+001 -7.300346e+001
3062343750 -3.172741e+001 -9.568563e+001 -2.966381e+001 8.410178e+001 -7.969563e+001 -5.582085e+001 -2.011700e+001 -7.247089e+001
3063437500 -2.993002e+001 -6.174006e+001 -3.065507e+001 7.078016e+000 -8.734553e+001 -1.593931e+002 -1.900379e+001 -7.031895e+001
3064531250 -2.758679e+001 -3.867675e+001 -3.281358e+001 -7.240892e+001 -8.540202e+001 -1.532456e+002 -1.811175e+001 -6.701831e+001
3065625000 -2.562339e+001 -2.215767e+001 -3.594732e+001 -1.626936e+002 -8.214883e+001 8.647636e+001 -1.740562e+001 -6.301999e+001
3066718750 -2.408298e+001 -8.888600e+000 -3.724750e+001 9.026622e+001 -8.194547e+001 6.931439e+001 -1.687544e+001 -5.860193e+001
3067812500 -2.288560e+001 2.250613e+000 -3.543173e+001 -9.847790e+000 -8.214477e+001 1.231381e+002 -1.650920e+001 -5.371262e+001
3068906250 -2.201873e+001 1.232840e+001 -3.389190e+001 -9.347495e+001 -7.952377e+001 -1.755288e+002 -1.626113e+001 -4.861646e+001
3070000000 -2.143037e+001 2.192220e+001 -3.383920e+001 -1.695681e+002 -8.271271e+001 1.410391e+002 -1.615882e+001 -4.351857e+001
3071093750 -2.105683e+001 3.094092e+001 -3.554999e+001 1.164713e+002 -8.556458e+001 1.000981e+002 -1.619632e+001 -3.836335e+001
3072187500 -2.089047e+001 3.971606e+001 -3.911940e+001 4.144138e+001 -8.062897e+001 -1.514780e+002 -1.634632e+001 -3.328690e+001
3073281250 -2.091928e+001 4.802742e+001 -4.428469e+001 -4.756335e+001 -8.871570e+001 2.501215e+001 -1.664441e+001 -2.834955e+001
3074375000 -2.115547e+001 5.604447e+001 -4.532930e+001 -1.619409e+002 -9.123126e+001 1.414100e+002 -1.707368e+001 -2.376134e+001
3075468750 -2.161392e+001 6.358716e+001 -4.135960e+001 1.122384e+002 -9.533615e+001 3.989389e+001 -1.766293e+001 -1.957204e+001
3076562500 -2.233241e+001 7.084434e+001 -3.843596e+001 4.563348e+001 -7.586598e+001 -7.530262e+001 -1.839031e+001 -1.597178e+001
3077656250 -2.331346e+001 7.751209e+001 -3.660703e+001 -1.689075e+001 -8.765122e+001 -1.627658e+002 -1.931208e+001 -1.313666e+001
3078750000 -2.467877e+001 8.332355e+001 -3.554047e+001 -8.099273e+001 -8.127465e+001 -7.053329e+001 -2.041272e+001 -1.134594e+001
3079843750 -2.652323e+001 8.779039e+001 -3.551429e+001 -1.520688e+002 -9.456287e+001 -1.341901e+002 -2.168590e+001 -1.141603e+001
3080937500 -2.900628e+001 8.940032e+001 -3.673810e+001 1.279862e+002 -9.001794e+001 -1.494745e+002 -2.310943e+001 -1.384918e+001
3082031250 -3.236313e+001 8.354996e+001 -3.819975e+001 3.511589e+001 -8.836304e+001 1.421420e+002 -2.451536e+001 -1.994851e+001
3083125000 -3.596070e+001 5.770078e+001 -3.750833e+001 -6.315923e+001 -9.188125e+001 -2.875094e+001 -2.559754e+001 -3.024575e+001
3084218750 -3.483469e+001 1.602876e+001 -3.552127e+001 -1.503330e+002 -8.495630e+001 -1.540235e+000 -2.594509e+001 -4.365239e+001
3085312500 -3.101129e+001 -8.544491e-001 -3.402278e+001 1.330672e+002 -9.426154e+001 9.925668e+001 -2.534449e+001 -5.585725e+001
3086406250 -2.787986e+001 -3.244828e+000 -3.359611e+001 6.125718e+001 -8.203156e+001 -6.600842e+001 -2.427839e+001 -6.427151e+001
3087500000 -2.559740e+001 -1.004680e+000 -3.429435e+001 -9.906886e+000 -8.526648e+001 9.023801e+001 -2.305276e+001 -6.878486e+001
3088593750 -2.390672e+001 3.869244e+000 -3.628750e+001 -8.274429e+001 -8.734486e+001 9.596808e+001 -2.194113e+001 -7.021956e+001
3089687500 -2.265210e+001 9.587836e+000 -3.914729e+001 -1.638614e+002 -8.483550e+001 -4.077520e+001 -2.099647e+001 -6.986053e+001
3090781250 -2.170539e+001 1.629446e+001 -4.141958e+001 9.816941e+001 -7.960551e+001 1.563955e+001 -2.021853e+001 -6.845590e+001
3091875000 -2.100339e+001 2.324508e+001 -4.015393e+001 4.896202e-001 -8.484102e+001 -1.509511e+001 -1.961505e+001 -6.599087e+001
3092968750 -2.052360e+001 3.050042e+001 -3.868423e+001 -7.820346e+001 -9.454489e+001 1.709332e+002 -1.914910e+001 -6.325490e+001
3094062500 -2.026372e+001 3.786527e+001 -3.817303e+001 -1.427433e+002 -8.886288e+001 1.436201e+002 -1.883173e+001 -6.018158e+001
3095156250 -2.017219e+001 4.531070e+001 -3.853148e+001 1.632407e+002 -8.475852e+001 -3.226754e+001 -1.860814e+001 -5.718797e+001
3096250000 -2.027995e+001 5.287429e+001 -3.869239e+001 1.139496e+002 -8.999567e+001 -5.305439e+001 -1.852974e+001 -5.416436e+001
3097343750 -2.058222e+001 6.060913e+001 -3.857782e+001 6.489344e+001 -8.869211e+001 -7.081096e+001 -1.854277e+001 -5.128718e+001
3098437500 -2.108715e+001 6.845354e+001 -3.884578e+001 7.978617e+000 -9.552444e+001 2.477707e+001 -1.863409e+001 -4.872680e+001
3099531250 -2.179978e+001 7.628401e+001 -4.021342e+001 -5.776865e+001 -7.935450e+001 1.191331e+002 -1.880950e+001 -4.635508e+001
3100625000 -2.278196e+001 8.420982e+001 -4.321175e+001 -1.389673e+002 -9.575439e+001 -6.020679e+001 -1.902646e+001 -4.440375e+001
3101718750 -2.404289e+001 9.193342e+001 -4.430202e+001 1.135613e+002 -9.216608e+001 6.487114e+001 -1.929305e+001 -4.280063e+001
3102812500 -2.576439e+001 1.000353e+002 -4.070644e+001 1.871243e+001 -8.581034e+001 -1.628983e+002 -1.958924e+001 -4.179037e+001
3103906250 -2.813310e+001 1.081460e+002 -3.757171e+001 -5.417683e+001 -8.797695e+001 -1.121685e+002 -1.987381e+001 -4.117371e+001
3105000000 -3.161532e+001 1.167869e+002 -3.568808e+001 -1.187228e+002 -8.319872e+001 1.069249e+002 -2.016031e+001 -4.095961e+001
3106093750 -3.764395e+001 1.276262e+002 -3.471266e+001 1.788361e+002 -9.510728e+001 5.772551e+001 -2.045388e+001 -4.108900e+001
3107187500 -5.701756e+001 -1.359620e+002 -3.431707e+001 1.155813e+002 -8.119761e+001 -2.499077e+001 -2.069578e+001 -4.157196e+001
3108281250 -3.767193e+001 -4.823905e+001 -3.466383e+001 4.766656e+001 -1.079799e+002 -9.924300e+001 -2.091845e+001 -4.225700e+001
3109375000 -3.197091e+001 -3.762904e+001 -3.559648e+001 -2.895383e+001 -8.373064e+001 7.849618e+000 -2.112673e+001 -4.283135e+001
3110468750 -2.870864e+001 -2.903732e+001 -3.630613e+001 -1.190711e+002 -8.061993e+001 -5.678088e+001 -2.127506e+001 -4.345197e+001
3111562500 -2.657578e+001 -2.074851e+001 -3.518216e+001 1.447409e+002 -9.228278e+001 -1.296475e+002 -2.143818e+001 -4.383614e+001
3112656250 -2.507191e+001 -1.275218e+001 -3.297958e+001 5.696535e+001 -8.773839e+001 1.722620e+002 -2.159277e+001 -4.429165e+001
3113750000 -2.400483e+001 -4.946236e+000 -3.142715e+001 -2.219085e+001 -8.060086e+001 -2.372200e+000 -2.176066e+001 -4.479524e+001
3114843750 -2.327773e+001 2.878370e+000 -3.094132e+001 -9.643228e+001 -8.065218e+001 1.078357e+002 -2.195412e+001 -4.528139e+001
3115937500 -2.283332e+001 1.045880e+001 -3.146294e+001 -1.700055e+002 -8.444149e+001 1.001617e+002 -2.218125e+001 -4.619124e+001
3117031250 -2.262218e+001 1.820066e+001 -3.309840e+001 1.142076e+002 -8.153774e+001 -1.364398e+002 -2.243377e+001 -4.752612e+001
3118125000 -2.262901e+001 2.572169e+001 -3.581842e+001 3.129111e+001 -8.547621e+001 7.788002e+001 -2.267212e+001 -4.895721e+001
3119218750 -2.287401e+001 3.313070e+001 -3.818836e+001 -6.381648e+001 -8.505955e+001 1.412366e+002 -2.290587e+001 -5.095135e+001
3120312500 -2.334428e+001 4.038048e+001 -3.803191e+001 -1.617140e+002 -8.725088e+001 -2.879082e+001 -2.308693e+001 -5.360125e+001
3121406250 -2.408331e+001 4.750751e+001 -3.684202e+001 1.156556e+002 -8.359066e+001 -5.921864e+001 -2.316019e+001 -5.651940e+001
3122500000 -2.513138e+001 5.439507e+001 -3.636750e+001 4.408258e+001 -8.263506e+001 6.951701e+001 -2.307667e+001 -5.952133e+001
3123593750 -2.652698e+001 6.031775e+001 -3.703845e+001 -2.276323e+001 -8.406995e+001 -1.361002e+002 -2.287922e+001 -6.220163e+001
3124687500 -2.848221e+001 6.551064e+001 -3.911214e+001 -8.496906e+001 -8.523959e+001 2.844434e+001 -2.256925e+001 -6.420988e+001
3125781250 -3.124486e+001 6.818371e+001 -4.281855e+001 -1.452621e+002 -8.512045e+001 -5.906460e+001 -2.216727e+001 -6.565953e+001
3126875000 -3.532178e+001 6.457401e+001 -5.001720e+001 1.532611e+002 -8.397688e+001 6.973270e+001 -2.175196e+001 -6.627195e+001
3127968750 -4.109238e+001 3.452343e+001 -6.007809e+001 -4.625623e+001 -9.008873e+001 1.691749e+002 -2.132157e+001 -6.599400e+001
3129062500 -3.883219e+001 -2.597458e+001 -4.722915e+001 -1.301530e+002 -8.655423e+001 1.060240e+002 -2.096966e+001 -6.481592e+001
3130156250 -3.357843e+001 -4.046249e+001 -4.401903e+001 1.684451e+002 -9.458686e+001 4.029081e+001 -2.065649e+001 -6.289981e+001
3131250000 -3.013931e+001 -4.051382e+001 -4.396432e+001 1.075424e+002 -1.016953e+002 -1.174420e+002 -2.045377e+001 -6.029342e+001
3132343750 -2.777419e+001 -3.693412e+001 -4.760574e+001 5.257335e+001 -8.487148e+001 2.029257e+001 -2.032604e+001 -5.731862e+001
3133437500 -2.608851e+001 -3.151660e+001 -5.489655e+001 5.237162e+001 -8.816525e+001 1.492924e+002 -2.029502e+001 -5.383442e+001
3134531250 -2.485804e+001 -2.516189e+001 -4.841012e+001 5.811256e+001 -8.275366e+001 9.857271e+000 -2.040067e+001 -5.017069e+001
3135625000 -2.396639e+001 -1.845752e+001 -4.418770e+001 1.535145e+001 -8.850350e+001 5.906286e+001 -2.064577e+001 -4.628345e+001
3136718750 -2.342322e+001 -1.177385e+001 -4.169487e+001 -3.416836e+001 -8.185741e+001 1.430818e+002 -2.104491e+001 -4.238214e+001
3137812500 -2.305809e+001 -4.722161e+000 -4.015650e+001 -8.708174e+001 -8.191448e+001 -1.161052e+002 -2.161978e+001 -3.882465e+001
3138906250 -2.293195e+001 2.270144e+000 -3.958670e+001 -1.472628e+002 -9.152652e+001 3.608127e+000 -2.240377e+001 -3.546790e+001
3140000000 -2.301834e+001 9.341711e+000 -4.055696e+001 1.444780e+002 -8.820164e+001 -3.820803e+001 -2.342429e+001 -3.258812e+001
3141093750 -2.332973e+001 1.619843e+001 -4.312933e+001 6.055989e+001 -8.618161e+001 -1.139607e+002 -2.474708e+001 -3.074492e+001
3142187500 -2.388587e+001 2.286757e+001 -4.389717e+001 -4.918541e+001 -8.640210e+001 1.749688e+001 -2.641384e+001 -3.059241e+001
3143281250 -2.473151e+001 2.929659e+001 -3.998904e+001 -1.485865e+002 -7.831972e+001 1.111717e+002 -2.846653e+001 -3.441766e+001
3144375000 -2.588228e+001 3.516298e+001 -3.675537e+001 1.324536e+002 -8.337222e+001 -7.973412e+001 -3.074344e+001 -4.528657e+001
3145468750 -2.750882e+001 4.036893e+001 -3.507075e+001 6.116405e+001 -8.667401e+001 4.352633e+001 -3.222594e+001 -6.620947e+001
3146562500 -2.970691e+001 4.376774e+001 -3.460889e+001 -7.748062e+000 -8.152689e+001 -1.615132e+002 -3.144412e+001 -9.094792e+001
3147656250 -3.286003e+001 4.256110e+001 -3.492387e+001 -7.812160e+001 -9.294151e+001 -6.538872e+001 -2.931711e+001 -1.060113e+002
3148750000 -3.716037e+001 2.854239e+001 -3.604608e+001 -1.534353e+002 -9.182876e+001 -1.691071e+002 -2.700895e+001 -1.116956e+002
3149843750 -3.924398e+001 -1.958915e+001 -3.692326e+001 1.216817e+002 -9.332583e+001 1.683288e+002 -2.516973e+001 -1.126542e+002
3150937500 -3.498095e+001 -5.135742e+001 -3.635974e+001 2.918997e+001 -8.912084e+001 1.473807e+002 -2.369184e+001 -1.109813e+002
3152031250 -3.108504e+001 -5.822228e+001 -3.448458e+001 -5.857467e+001 -8.429249e+001 1.214062e+002 -2.255392e+001 -1.079304e+002
3153125000 -2.835196e+001 -5.669905e+001 -3.283634e+001 -1.381823e+002 -8.403989e+001 -1.112792e+002 -2.163807e+001 -1.039886e+002
3154218750 -2.637201e+001 -5.213440e+001 -3.221662e+001 1.456998e+002 -9.083421e+001 6.362409e+001 -2.099828e+001 -9.928521e+001
3155312500 -2.488496e+001 -4.650127e+001 -3.262143e+001 7.025837e+001 -8.580434e+001 -6.378966e+000 -2.053263e+001 -9.465211e+001
3156406250 -2.373711e+001 -4.005014e+001 -3.406227e+001 -8.576903e+000 -8.027250e+001 -6.988945e+001 -2.024698e+001 -8.960507e+001
3157500000 -2.291041e+001 -3.335311e+001 -3.609673e+001 -9.667386e+001 -8.907779e+001 1.291653e+002 -2.015326e+001 -8.474117e+001
3158593750 -2.233931e+001 -2.647338e+001 -3.677085e+001 1.640348e+002 -8.472202e+001 5.446003e+001 -2.020949e+001 -8.010258e+001
3159687500 -2.197935e+001 -1.938913e+001 -3.525882e+001 7.060954e+001 -8.491794e+001 -7.549616e+001 -2.044965e+001 -7.571387e+001
3160781250 -2.178876e+001 -1.219359e+001 -3.353702e+001 -1.013708e+001 -8.742136e+001 1.009862e+002 -2.088817e+001 -7.179432e+001
3161875000 -2.180864e+001 -4.612546e+000 -3.277903e+001 -8.451687e+001 -8.207436e+001 1.300925e+002 -2.148375e+001 -6.850504e+001
3162968750 -2.198167e+001 3.002050e+000 -3.317511e+001 -1.589121e+002 -8.750494e+001 -1.303728e+002 -2.225092e+001 -6.641673e+001
3164062500 -2.234637e+001 1.029849e+001 -3.507148e+001 1.225355e+002 -8.588151e+001 -1.236251e+002 -2.319047e+001 -6.581068e+001
