!Agilent Technologies,E8363B,MY43030572,A.06.04.32
!Agilent E8363B: A.06.04.32
!Date: Tuesday, June 07, 2011 09:21:10
!Correction: S11(Full 2 Port(1,2)) S21(Full 2 Port(1,2)) S12(Full 2 Port(1,2)) S22(Full 2 Port(1,2)) 
!S2P File: Measurements: S11, S21, S12, S22:
# Hz S  dB   R 50
3000000000 -2.181294e+001 6.964720e+001 -3.009938e+001 1.479109e+002 -8.091609e+001 1.431336e+002 -1.667142e+001 -1.585452e+001
3001093750 -2.092718e+001 7.742982e+001 -3.127327e+001 6.287643e+001 -1.018592e+002 -8.370575e+001 -1.685249e+001 -1.263464e+001
3002187500 -2.033262e+001 8.566108e+001 -3.107456e+001 -2.422691e+001 -9.077880e+001 -1.639106e+002 -1.709211e+001 -9.082439e+000
3003281250 -1.994948e+001 9.381533e+001 -3.006640e+001 -1.119163e+002 -8.996635e+001 8.743822e+001 -1.747042e+001 -5.822214e+000
3004375000 -1.979663e+001 1.020316e+002 -2.876566e+001 1.653965e+002 -8.663233e+001 -1.027314e+002 -1.798225e+001 -3.148901e+000
3005468750 -1.984817e+001 1.103778e+002 -2.773434e+001 8.754758e+001 -8.165633e+001 5.894292e+001 -1.860120e+001 -1.388386e+000
3006562500 -2.010045e+001 1.189534e+002 -2.726647e+001 1.162900e+001 -8.344337e+001 2.880351e+001 -1.934656e+001 -6.347505e-001
3007656250 -2.056403e+001 1.275196e+002 -2.736142e+001 -6.456708e+001 -8.944363e+001 1.728727e+002 -2.013254e+001 -1.452717e+000
3008750000 -2.120984e+001 1.363494e+002 -2.785390e+001 -1.431265e+002 -8.889284e+001 8.387440e+001 -2.094029e+001 -4.154305e+000
3009843750 -2.218039e+001 1.450392e+002 -2.831462e+001 1.343788e+002 -8.151314e+001 1.446403e+002 -2.158725e+001 -8.971001e+000
3010937500 -2.352628e+001 1.540469e+002 -2.829462e+001 4.941193e+001 -8.354245e+001 -5.243414e+001 -2.195720e+001 -1.544827e+001
3012031250 -2.539411e+001 1.638003e+002 -2.764648e+001 -3.402249e+001 -8.369337e+001 1.577793e+002 -2.195063e+001 -2.251565e+001
3013125000 -2.806352e+001 1.752070e+002 -2.676065e+001 -1.139584e+002 -8.428356e+001 7.572208e+001 -2.152879e+001 -2.858526e+001
3014218750 -3.210280e+001 -1.687246e+002 -2.614447e+001 1.686785e+002 -8.531629e+001 -8.584795e+001 -2.087158e+001 -3.291428e+001
3015312500 -3.884898e+001 -1.307701e+002 -2.602705e+001 9.260735e+001 -8.433383e+001 2.236463e+001 -2.010964e+001 -3.504827e+001
3016406250 -3.810141e+001 -3.880468e+001 -2.649859e+001 1.573757e+001 -1.057886e+002 -8.115120e+001 -1.935016e+001 -3.537656e+001
3017500000 -3.168376e+001 -4.346437e+000 -2.750375e+001 -6.332962e+001 -9.138971e+001 1.689173e+002 -1.869770e+001 -3.435904e+001
3018593750 -2.766475e+001 1.129046e+001 -2.859904e+001 -1.456161e+002 -8.500291e+001 1.759142e+002 -1.814844e+001 -3.213482e+001
3019687500 -2.501113e+001 2.253631e+001 -2.914864e+001 1.294433e+002 -7.812479e+001 8.776074e+001 -1.770905e+001 -2.917241e+001
3020781250 -2.308618e+001 3.222525e+001 -2.904738e+001 4.538567e+001 -8.711306e+001 -1.062084e+002 -1.743636e+001 -2.579503e+001
3021875000 -2.167606e+001 4.121165e+001 -2.869168e+001 -3.449055e+001 -8.354775e+001 7.902263e+001 -1.728924e+001 -2.193658e+001
3022968750 -2.064740e+001 4.982817e+001 -2.859623e+001 -1.107070e+002 -8.051362e+001 8.895116e+001 -1.729459e+001 -1.812317e+001
3024062500 -1.988557e+001 5.823253e+001 -2.888222e+001 1.754501e+002 -8.542400e+001 1.392494e+002 -1.744091e+001 -1.392609e+001
3025156250 -1.936289e+001 6.686913e+001 -2.951424e+001 1.008110e+002 -9.656863e+001 8.487157e+001 -1.773491e+001 -1.006976e+001
3026250000 -1.901656e+001 7.519624e+001 -3.035013e+001 2.269736e+001 -8.816319e+001 6.033244e+001 -1.817403e+001 -6.426355e+000
3027343750 -1.887990e+001 8.324743e+001 -3.114702e+001 -6.087876e+001 -9.782624e+001 8.672787e+001 -1.879918e+001 -3.144026e+000
3028437500 -1.890258e+001 9.137801e+001 -3.130528e+001 -1.474476e+002 -8.660564e+001 -2.494787e+001 -1.958872e+001 -7.521623e-001
3029531250 -1.913011e+001 9.914617e+001 -3.092887e+001 1.268770e+002 -9.200502e+001 5.967200e+001 -2.055762e+001 3.399210e-001
3030625000 -1.955615e+001 1.069592e+002 -3.057222e+001 4.436602e+001 -8.972305e+001 -7.475579e+001 -2.172320e+001 -2.608199e-001
3031718750 -2.020994e+001 1.144346e+002 -3.078526e+001 -3.549507e+001 -8.537270e+001 -6.704662e+001 -2.299527e+001 -3.564268e+000
3032812500 -2.111172e+001 1.217262e+002 -3.168293e+001 -1.159947e+002 -8.435336e+001 1.760932e+002 -2.416145e+001 -1.074636e+001
3033906250 -2.229767e+001 1.289124e+002 -3.313565e+001 1.596082e+002 -8.726669e+001 -9.158890e+001 -2.496656e+001 -2.171284e+001
3035000000 -2.385286e+001 1.353710e+002 -3.418698e+001 6.757214e+001 -8.710844e+001 1.189297e+001 -2.489787e+001 -3.415515e+001
3036093750 -2.599447e+001 1.405574e+002 -3.369834e+001 -2.809058e+001 -7.777364e+001 -1.178055e+002 -2.404591e+001 -4.445739e+001
3037187500 -2.897858e+001 1.431710e+002 -3.231365e+001 -1.179760e+002 -8.086970e+001 -1.363481e+002 -2.287685e+001 -5.068729e+001
3038281250 -3.350844e+001 1.371941e+002 -3.132887e+001 1.577723e+002 -7.968902e+001 -5.686998e+001 -2.162410e+001 -5.340556e+001
3039375000 -3.894733e+001 9.595034e+001 -3.119360e+001 7.510925e+001 -8.441814e+001 4.761020e+001 -2.051053e+001 -5.359262e+001
3040468750 -3.480036e+001 4.358842e+001 -3.188960e+001 -1.088338e+001 -1.032282e+002 -1.737478e+002 -1.957448e+001 -5.200918e+001
3041562500 -2.993530e+001 3.377291e+001 -3.279674e+001 -1.038089e+002 -8.757500e+001 1.073336e+002 -1.881884e+001 -4.918867e+001
3042656250 -2.677806e+001 3.549357e+001 -3.280247e+001 1.589223e+002 -7.913199e+001 1.405732e+001 -1.826410e+001 -4.564586e+001
3043750000 -2.462405e+001 4.036912e+001 -3.162963e+001 6.674563e+001 -8.516208e+001 -1.698193e+002 -1.786871e+001 -4.160124e+001
3044843750 -2.304742e+001 4.689558e+001 -3.042775e+001 -1.749964e+001 -8.340549e+001 7.520537e+001 -1.765490e+001 -3.723880e+001
3045937500 -2.186703e+001 5.412176e+001 -2.991400e+001 -9.712922e+001 -8.141217e+001 1.188370e+002 -1.759113e+001 -3.263665e+001
3047031250 -2.101094e+001 6.173996e+001 -3.020386e+001 -1.755091e+002 -8.921098e+001 -1.571353e+002 -1.769397e+001 -2.810929e+001
3048125000 -2.041296e+001 6.950645e+001 -3.116130e+001 1.046167e+002 -8.649470e+001 8.922883e+001 -1.795241e+001 -2.380163e+001
3049218750 -2.004692e+001 7.755735e+001 -3.227894e+001 2.068920e+001 -9.734107e+001 6.939899e+001 -1.839342e+001 -1.944796e+001
3050312500 -1.992129e+001 8.574734e+001 -3.283826e+001 -6.667570e+001 -8.462289e+001 -9.251191e+001 -1.902350e+001 -1.573841e+001
3051406250 -1.997675e+001 9.433524e+001 -3.244510e+001 -1.513925e+002 -8.899959e+001 7.076656e+001 -1.982896e+001 -1.287707e+001
3052500000 -2.022327e+001 1.032359e+002 -3.159455e+001 1.294833e+002 -8.909759e+001 -1.121666e+002 -2.088006e+001 -1.129126e+001
3053593750 -2.066460e+001 1.125520e+002 -3.103759e+001 5.424943e+001 -8.206438e+001 -5.978476e+001 -2.216476e+001 -1.161317e+001
3054687500 -2.130775e+001 1.221739e+002 -3.107179e+001 -1.971742e+001 -9.163797e+001 -7.371676e+001 -2.363708e+001 -1.503951e+001
3055781250 -2.221148e+001 1.322590e+002 -3.182833e+001 -9.522104e+001 -8.691386e+001 -1.319845e+002 -2.505228e+001 -2.332237e+001
3056875000 -2.340322e+001 1.432032e+002 -3.331684e+001 -1.750399e+002 -9.113400e+001 -1.301949e+002 -2.598731e+001 -3.655014e+001
3057968750 -2.499359e+001 1.558814e+002 -3.496731e+001 9.825514e+001 -9.081881e+001 7.801914e+001 -2.577102e+001 -5.216826e+001
3059062500 -2.699373e+001 1.716570e+002 -3.564943e+001 7.613429e+000 -9.275073e+001 -5.794772e+001 -2.455911e+001 -6.400412e+001
3060156250 -2.934484e+001 -1.667393e+002 -3.574360e+001 -7.961355e+001 -9.395406e+001 -9.130688e+001 -2.297165e+001 -7.074317e+001
3061250000 -3.144484e+001 -1.350765e+002 -3.621977e+001 -1.550722e+002 -9.676228e+001 -2.051413e+001 -2.143370e+001 -7.312596e+001
3062343750 -3.170258e+001 -9.548870e+001 -3.757230e+001 1.428293e+002 -8.185055e+001 -3.823431e+001 -2.011674e+001 -7.250697e+001
3063437500 -2.987809e+001 -6.181105e+001 -3.854654e+001 9.461504e+001 -8.142075e+001 6.976511e+001 -1.901003e+001 -7.034829e+001
3064531250 -2.759802e+001 -3.860445e+001 -3.811702e+001 4.679846e+001 -8.360983e+001 1.662404e+002 -1.811495e+001 -6.713168e+001
3065625000 -2.561704e+001 -2.221551e+001 -3.732972e+001 -1.214644e+001 -8.996444e+001 2.074348e+001 -1.740576e+001 -6.307831e+001
3066718750 -2.407767e+001 -8.944802e+000 -3.780479e+001 -8.490099e+001 -8.603748e+001 7.119666e+001 -1.687835e+001 -5.864415e+001
3067812500 -2.289274e+001 2.267818e+000 -3.918605e+001 -1.697446e+002 -9.548596e+001 -1.215229e+002 -1.650381e+001 -5.378549e+001
3068906250 -2.200280e+001 1.227141e+001 -3.911707e+001 9.397527e+001 -8.689837e+001 -9.412506e+001 -1.627766e+001 -4.862841e+001
3070000000 -2.142295e+001 2.179081e+001 -3.701846e+001 3.883679e+000 -7.918175e+001 -8.571690e+001 -1.616018e+001 -4.358937e+001
3071093750 -2.105018e+001 3.082256e+001 -3.492069e+001 -7.446050e+001 -8.505164e+001 3.650084e+001 -1.619721e+001 -3.845807e+001
3072187500 -2.088796e+001 3.958598e+001 -3.384778e+001 -1.465558e+002 -9.295475e+001 -1.170418e+002 -1.634612e+001 -3.334581e+001
3073281250 -2.092452e+001 4.800496e+001 -3.405703e+001 1.434976e+002 -8.547591e+001 -1.591294e+001 -1.664997e+001 -2.849199e+001
3074375000 -2.116360e+001 5.604212e+001 -3.567967e+001 7.420469e+001 -8.525174e+001 9.793710e+001 -1.708018e+001 -2.378163e+001
3075468750 -2.161906e+001 6.368018e+001 -3.924998e+001 3.886887e+000 -9.614689e+001 -1.432132e+002 -1.766122e+001 -1.963968e+001
3076562500 -2.233527e+001 7.078516e+001 -4.587012e+001 -7.747430e+001 -8.047019e+001 -3.248373e+001 -1.841093e+001 -1.600328e+001
3077656250 -2.331382e+001 7.737927e+001 -5.064541e+001 1.433244e+002 -8.066731e+001 -1.428386e+002 -1.932195e+001 -1.314848e+001
3078750000 -2.468147e+001 8.323145e+001 -4.650475e+001 4.536592e+001 -8.021696e+001 8.553177e+001 -2.042848e+001 -1.137257e+001
3079843750 -2.650733e+001 8.767956e+001 -4.530080e+001 -3.949483e+000 -9.175987e+001 -1.076196e+002 -2.169147e+001 -1.136618e+001
3080937500 -2.904325e+001 8.933620e+001 -4.273765e+001 -3.222902e+001 -8.215941e+001 -1.539871e+002 -2.311530e+001 -1.383795e+001
3082031250 -3.238756e+001 8.317078e+001 -3.861445e+001 -7.847737e+001 -8.090206e+001 4.955051e+001 -2.452463e+001 -2.007215e+001
3083125000 -3.603961e+001 5.744303e+001 -3.602794e+001 -1.387601e+002 -7.693433e+001 -1.164094e+002 -2.560397e+001 -3.053091e+001
3084218750 -3.486305e+001 1.576080e+001 -3.550291e+001 1.555165e+002 -7.894902e+001 -6.098019e+001 -2.593964e+001 -4.389006e+001
3085312500 -3.099485e+001 -1.077649e+000 -3.706924e+001 8.737475e+001 -8.747660e+001 -1.446574e+002 -2.535943e+001 -5.594239e+001
3086406250 -2.788084e+001 -3.223855e+000 -4.128386e+001 1.408121e+001 -8.970138e+001 1.582991e+002 -2.428062e+001 -6.438683e+001
3087500000 -2.557649e+001 -9.673711e-001 -4.921446e+001 -9.092873e+001 -8.471055e+001 -1.103764e+002 -2.306482e+001 -6.890406e+001
3088593750 -2.388253e+001 3.750810e+000 -4.607205e+001 1.265541e+002 -9.011544e+001 -2.745330e+001 -2.194986e+001 -7.033013e+001
3089687500 -2.264405e+001 9.516523e+000 -4.225548e+001 4.946509e+001 -8.179760e+001 7.979896e+001 -2.101893e+001 -7.006493e+001
3090781250 -2.169868e+001 1.607596e+001 -4.218594e+001 -7.534693e+000 -8.372060e+001 -1.608121e+002 -2.021057e+001 -6.845507e+001
3091875000 -2.100526e+001 2.313173e+001 -4.363689e+001 -4.166437e+001 -8.668768e+001 -1.647706e+002 -1.961516e+001 -6.609315e+001
3092968750 -2.052973e+001 3.043445e+001 -4.178103e+001 -6.003415e+001 -9.186445e+001 4.166622e+001 -1.915743e+001 -6.324659e+001
3094062500 -2.027176e+001 3.777312e+001 -3.776973e+001 -1.002962e+002 -8.247006e+001 8.313496e+001 -1.882156e+001 -6.028981e+001
3095156250 -2.017915e+001 4.531111e+001 -3.525280e+001 -1.567030e+002 -9.103363e+001 -1.547883e+002 -1.861093e+001 -5.724349e+001
3096250000 -2.027025e+001 5.282901e+001 -3.446027e+001 1.393245e+002 -8.100911e+001 9.765151e+001 -1.852819e+001 -5.429396e+001
3097343750 -2.058340e+001 6.055793e+001 -3.560671e+001 6.903735e+001 -9.489401e+001 2.746819e+001 -1.853916e+001 -5.133174e+001
3098437500 -2.108800e+001 6.833771e+001 -3.875525e+001 -1.324383e+001 -8.039189e+001 9.113564e+001 -1.863816e+001 -4.877478e+001
3099531250 -2.180303e+001 7.619386e+001 -4.113513e+001 -1.283651e+002 -9.661901e+001 7.312247e+001 -1.880990e+001 -4.639573e+001
3100625000 -2.278443e+001 8.404702e+001 -3.720978e+001 1.237057e+002 -8.649343e+001 1.682274e+002 -1.902151e+001 -4.447386e+001
3101718750 -2.405853e+001 9.189515e+001 -3.390991e+001 4.472189e+001 -7.683309e+001 1.794179e+002 -1.929484e+001 -4.284642e+001
3102812500 -2.578237e+001 9.988998e+001 -3.251422e+001 -2.440123e+001 -8.219588e+001 1.456777e+002 -1.958866e+001 -4.183463e+001
3103906250 -2.815554e+001 1.079791e+002 -3.258361e+001 -8.876460e+001 -9.485920e+001 -1.031676e+001 -1.988601e+001 -4.120421e+001
3105000000 -3.162831e+001 1.167221e+002 -3.395088e+001 -1.496778e+002 -8.294411e+001 -1.127023e+002 -2.016492e+001 -4.100310e+001
3106093750 -3.772484e+001 1.273912e+002 -3.661111e+001 1.540847e+002 -9.412143e+001 1.352753e+002 -2.045691e+001 -4.127716e+001
3107187500 -5.715765e+001 -1.285962e+002 -4.019097e+001 1.055828e+002 -7.894611e+001 -7.028114e+001 -2.068691e+001 -4.164139e+001
3108281250 -3.755291e+001 -4.845763e+001 -4.369189e+001 5.843405e+001 -8.240165e+001 -1.649656e+002 -2.092607e+001 -4.231428e+001
3109375000 -3.194852e+001 -3.769011e+001 -4.716787e+001 -1.777955e+001 -8.411047e+001 1.161161e+002 -2.112600e+001 -4.294363e+001
3110468750 -2.869930e+001 -2.904268e+001 -4.421831e+001 -1.391568e+002 -8.411026e+001 5.931503e+001 -2.129518e+001 -4.341399e+001
3111562500 -2.656545e+001 -2.084028e+001 -3.746176e+001 1.347714e+002 -8.285721e+001 -1.527362e+002 -2.142894e+001 -4.403623e+001
3112656250 -2.505996e+001 -1.280712e+001 -3.322847e+001 6.310789e+001 -8.133988e+001 -1.006924e+002 -2.158632e+001 -4.439483e+001
3113750000 -2.399305e+001 -5.039940e+000 -3.095530e+001 -5.796341e+000 -8.341323e+001 8.517768e+001 -2.175818e+001 -4.486606e+001
3114843750 -2.328669e+001 2.729139e+000 -3.000149e+001 -7.495021e+001 -8.781100e+001 -7.920200e+001 -2.195325e+001 -4.543949e+001
3115937500 -2.282317e+001 1.035480e+001 -3.009312e+001 -1.471073e+002 -8.302610e+001 -1.234953e+002 -2.218049e+001 -4.623935e+001
3117031250 -2.260902e+001 1.804906e+001 -3.120983e+001 1.348776e+002 -8.315944e+001 -1.098611e+002 -2.243658e+001 -4.753399e+001
3118125000 -2.262897e+001 2.561279e+001 -3.257914e+001 4.672979e+001 -8.791022e+001 1.581503e+002 -2.267795e+001 -4.906635e+001
3119218750 -2.287765e+001 3.303173e+001 -3.244488e+001 -4.804848e+001 -9.124374e+001 -1.227314e+002 -2.290366e+001 -5.106130e+001
3120312500 -2.335226e+001 4.025216e+001 -3.083738e+001 -1.355032e+002 -8.385674e+001 8.248516e+001 -2.309127e+001 -5.372953e+001
3121406250 -2.408281e+001 4.746396e+001 -2.937563e+001 1.475385e+002 -8.025880e+001 -1.716403e+002 -2.314887e+001 -5.654472e+001
3122500000 -2.512792e+001 5.421710e+001 -2.863645e+001 7.547627e+001 -8.323415e+001 4.945906e+001 -2.307228e+001 -5.949531e+001
3123593750 -2.652821e+001 6.013458e+001 -2.896573e+001 4.964754e+000 -8.587432e+001 6.445276e+001 -2.289720e+001 -6.222725e+001
3124687500 -2.849699e+001 6.533769e+001 -3.052014e+001 -6.636800e+001 -8.435873e+001 1.191267e+002 -2.257560e+001 -6.432899e+001
3125781250 -3.125611e+001 6.814323e+001 -3.341340e+001 -1.414111e+002 -8.439812e+001 -1.487021e+002 -2.215644e+001 -6.581561e+001
3126875000 -3.536643e+001 6.442630e+001 -3.718518e+001 1.320057e+002 -8.272768e+001 -1.614003e+002 -2.176478e+001 -6.635608e+001
3127968750 -4.113504e+001 3.390154e+001 -3.853645e+001 2.990453e+001 -8.897581e+001 1.216288e+002 -2.133907e+001 -6.613190e+001
3129062500 -3.883726e+001 -2.630263e+001 -3.641848e+001 -5.673845e+001 -8.128145e+001 -1.677497e+002 -2.097207e+001 -6.490871e+001
3130156250 -3.354667e+001 -4.078572e+001 -3.437809e+001 -1.254689e+002 -8.637286e+001 -7.315096e+001 -2.066264e+001 -6.290343e+001
3131250000 -3.011303e+001 -4.074021e+001 -3.315068e+001 1.723136e+002 -8.706644e+001 5.659624e+001 -2.044314e+001 -6.035979e+001
3132343750 -2.777339e+001 -3.693858e+001 -3.296321e+001 1.125038e+002 -9.721285e+001 -1.222101e+002 -2.032658e+001 -5.729372e+001
3133437500 -2.606940e+001 -3.157993e+001 -3.370683e+001 5.400134e+001 -8.567625e+001 1.713990e+002 -2.028897e+001 -5.377974e+001
3134531250 -2.484992e+001 -2.525740e+001 -3.546378e+001 -4.786347e+000 -8.647143e+001 1.046120e+002 -2.040343e+001 -5.017558e+001
3135625000 -2.396357e+001 -1.857766e+001 -3.869246e+001 -6.827280e+001 -8.465812e+001 1.032522e+002 -2.065230e+001 -4.635666e+001
3136718750 -2.340992e+001 -1.184913e+001 -4.486195e+001 -1.517036e+002 -8.041763e+001 5.762076e+001 -2.104123e+001 -4.259512e+001
3137812500 -2.305187e+001 -4.790705e+000 -4.497639e+001 6.895527e+001 -8.165668e+001 -1.205598e+002 -2.163006e+001 -3.883986e+001
3138906250 -2.293841e+001 2.127680e+000 -3.928022e+001 -1.537834e+001 -8.999363e+001 3.329781e+001 -2.241537e+001 -3.556839e+001
3140000000 -2.302041e+001 9.288003e+000 -3.618234e+001 -7.667124e+001 -9.130888e+001 -5.374832e+001 -2.344783e+001 -3.271166e+001
3141093750 -2.333119e+001 1.623044e+001 -3.444084e+001 -1.325491e+002 -8.999074e+001 -1.087834e+002 -2.476638e+001 -3.073808e+001
3142187500 -2.388856e+001 2.276672e+001 -3.364299e+001 1.719127e+002 -8.963112e+001 1.266710e+002 -2.642249e+001 -3.061354e+001
3143281250 -2.473132e+001 2.915267e+001 -3.354121e+001 1.157686e+002 -8.342234e+001 1.082497e+000 -2.846291e+001 -3.444304e+001
3144375000 -2.590359e+001 3.518263e+001 -3.431143e+001 5.497332e+001 -8.266026e+001 1.758781e+002 -3.072054e+001 -4.524176e+001
3145468750 -2.752999e+001 4.033398e+001 -3.665495e+001 -1.613254e+001 -8.515958e+001 1.162410e+002 -3.220868e+001 -6.648797e+001
3146562500 -2.975216e+001 4.371762e+001 -4.032198e+001 -1.173607e+002 -8.503600e+001 -1.773473e+002 -3.144848e+001 -9.092425e+001
3147656250 -3.287181e+001 4.250943e+001 -3.746988e+001 1.189960e+002 -8.700005e+001 -3.935243e+001 -2.928238e+001 -1.060662e+002
3148750000 -3.719592e+001 2.833886e+001 -3.274847e+001 3.209606e+001 -8.853408e+001 -1.451496e+002 -2.699028e+001 -1.118895e+002
3149843750 -3.928897e+001 -1.983546e+001 -3.030799e+001 -4.268792e+001 -8.480685e+001 -2.754585e+001 -2.516906e+001 -1.126917e+002
3150937500 -3.492269e+001 -5.167671e+001 -2.977585e+001 -1.153015e+002 -8.389680e+001 -1.791915e+002 -2.370094e+001 -1.111364e+002
3152031250 -3.107018e+001 -5.828534e+001 -3.100471e+001 1.698314e+002 -8.199182e+001 1.317323e+002 -2.255844e+001 -1.079144e+002
3153125000 -2.832712e+001 -5.673334e+001 -3.417348e+001 8.384155e+001 -7.956678e+001 -4.252527e+001 -2.164934e+001 -1.039740e+002
3154218750 -2.636360e+001 -5.221685e+001 -3.653896e+001 -3.349228e+001 -8.153342e+001 -1.094101e+002 -2.099264e+001 -9.937619e+001
3155312500 -2.488322e+001 -4.655559e+001 -3.277479e+001 -1.439257e+002 -8.474199e+001 -1.616759e+002 -2.053844e+001 -9.458403e+001
3156406250 -2.374619e+001 -4.007724e+001 -2.953956e+001 1.332789e+002 -8.953970e+001 1.339530e+001 -2.023727e+001 -8.969076e+001
3157500000 -2.291013e+001 -3.345572e+001 -2.806243e+001 5.882832e+001 -1.013360e+002 2.194502e+001 -2.015613e+001 -8.482113e+001
3158593750 -2.233613e+001 -2.655002e+001 -2.820576e+001 -1.477981e+001 -8.134101e+001 -1.458691e+002 -2.021830e+001 -8.020351e+001
3159687500 -2.197747e+001 -1.942636e+001 -2.986183e+001 -9.241837e+001 -8.703099e+001 -1.502765e+002 -2.044922e+001 -7.582777e+001
3160781250 -2.178098e+001 -1.229248e+001 -3.253351e+001 1.755201e+002 -9.067335e+001 1.680040e+002 -2.090018e+001 -7.181934e+001
3161875000 -2.180645e+001 -4.672348e+000 -3.258777e+001 6.385394e+001 -8.556694e+001 9.808401e+001 -2.149847e+001 -6.856023e+001
3162968750 -2.197942e+001 3.000644e+000 -2.929646e+001 -3.192168e+001 -7.904541e+001 -5.931276e+001 -2.225612e+001 -6.639890e+001
3164062500 -2.235908e+001 1.024481e+001 -2.672782e+001 -1.106715e+002 -8.905990e+001 5.215728e+001 -2.318703e+001 -6.592307e+001
