!Agilent Technologies,E8363B,MY43030572,A.06.04.32
!Agilent E8363B: A.06.04.32
!Date: Tuesday, June 07, 2011 09:13:28
!Correction: S11(Full 2 Port(1,2)) S21(Full 2 Port(1,2)) S12(Full 2 Port(1,2)) S22(Full 2 Port(1,2)) 
!S2P File: Measurements: S11, S21, S12, S22:
# Hz S  dB   R 50
3000000000 -2.161086e+001 7.047641e+001 -4.160695e+001 -1.226712e+002 -8.701084e+001 -8.792479e+000 -1.644529e+001 -1.607531e+001
3001093750 -2.079366e+001 7.811404e+001 -4.455383e+001 -1.723289e+002 -7.942744e+001 1.712216e+002 -1.661755e+001 -1.299908e+001
3002187500 -2.023638e+001 8.628769e+001 -4.704819e+001 1.703504e+002 -8.429781e+001 1.387225e+002 -1.683689e+001 -9.597103e+000
3003281250 -1.992272e+001 9.454001e+001 -4.463015e+001 1.589431e+002 -8.369897e+001 -3.065808e+001 -1.721010e+001 -6.586050e+000
3004375000 -1.979395e+001 1.028270e+002 -4.142462e+001 1.260529e+002 -9.682275e+001 9.323304e+001 -1.772145e+001 -4.043895e+000
3005468750 -1.986370e+001 1.112950e+002 -3.827757e+001 8.198025e+001 -9.982719e+001 -1.475347e+002 -1.834169e+001 -2.396814e+000
3006562500 -2.014514e+001 1.198409e+002 -3.608139e+001 2.695247e+001 -8.134421e+001 -1.461424e+002 -1.905859e+001 -1.747441e+000
3007656250 -2.062774e+001 1.282669e+002 -3.527030e+001 -3.646680e+001 -8.617747e+001 -1.098473e+002 -1.982408e+001 -2.605918e+000
3008750000 -2.134341e+001 1.368658e+002 -3.569559e+001 -1.059126e+002 -7.889053e+001 1.072385e+002 -2.058587e+001 -5.362050e+000
3009843750 -2.238404e+001 1.456450e+002 -3.697521e+001 1.738676e+002 -8.919494e+001 -1.291814e+002 -2.119898e+001 -9.844398e+000
3010937500 -2.379943e+001 1.547496e+002 -3.729929e+001 8.089328e+001 -9.998335e+001 1.105590e+002 -2.152620e+001 -1.599097e+001
3012031250 -2.577349e+001 1.648975e+002 -3.511027e+001 -9.919365e+000 -8.809056e+001 -1.266328e+002 -2.151275e+001 -2.276080e+001
3013125000 -2.858382e+001 1.763673e+002 -3.228730e+001 -8.894367e+001 -8.024586e+001 7.225485e+001 -2.109767e+001 -2.871507e+001
3014218750 -3.291018e+001 -1.667173e+002 -3.022277e+001 -1.622111e+002 -8.513263e+001 -1.517605e+002 -2.046507e+001 -3.291090e+001
3015312500 -4.013592e+001 -1.225803e+002 -2.909773e+001 1.264136e+002 -9.117504e+001 1.728806e+002 -1.973943e+001 -3.503135e+001
3016406250 -3.727683e+001 -2.989585e+001 -2.893006e+001 5.486853e+001 -8.369398e+001 -5.652097e+001 -1.902276e+001 -3.540158e+001
3017500000 -3.108336e+001 -1.018052e+000 -2.950181e+001 -1.920168e+001 -8.227932e+001 -6.173762e+001 -1.839433e+001 -3.439804e+001
3018593750 -2.728287e+001 1.322354e+001 -3.032583e+001 -9.839439e+001 -9.909526e+001 -1.167114e+002 -1.786558e+001 -3.225914e+001
3019687500 -2.472935e+001 2.392676e+001 -3.073383e+001 1.756826e+002 -8.678098e+001 -1.340323e+002 -1.744532e+001 -2.934661e+001
3020781250 -2.289544e+001 3.330722e+001 -2.991164e+001 8.802518e+001 -9.456789e+001 5.399245e+001 -1.717944e+001 -2.596163e+001
3021875000 -2.156034e+001 4.218737e+001 -2.842296e+001 6.033470e+000 -9.518600e+001 2.874333e+001 -1.702717e+001 -2.236716e+001
3022968750 -2.058958e+001 5.072010e+001 -2.716059e+001 -7.057007e+001 -8.439554e+001 1.571276e+002 -1.702935e+001 -1.855424e+001
3024062500 -1.985826e+001 5.921859e+001 -2.648848e+001 -1.445414e+002 -8.216570e+001 1.314115e+002 -1.717930e+001 -1.463295e+001
3025156250 -1.936077e+001 6.774965e+001 -2.653848e+001 1.413971e+002 -8.529295e+001 1.027026e+002 -1.748154e+001 -1.089005e+001
3026250000 -1.904405e+001 7.599025e+001 -2.721997e+001 6.510668e+001 -8.639981e+001 -1.685497e+002 -1.791827e+001 -7.450262e+000
3027343750 -1.891687e+001 8.397659e+001 -2.835756e+001 -1.569423e+001 -8.990789e+001 -1.774108e+002 -1.853749e+001 -4.319222e+000
3028437500 -1.898783e+001 9.193984e+001 -2.921155e+001 -1.012017e+002 -8.392401e+001 -3.772733e+001 -1.930735e+001 -2.154601e+000
3029531250 -1.926914e+001 9.967167e+001 -2.914843e+001 1.719788e+002 -9.460183e+001 -8.849265e+001 -2.025320e+001 -1.180704e+000
3030625000 -1.972893e+001 1.074194e+002 -2.840583e+001 9.026675e+001 -8.410816e+001 -3.034820e+001 -2.137205e+001 -1.856992e+000
3031718750 -2.041630e+001 1.149497e+002 -2.772011e+001 1.469650e+001 -8.675340e+001 1.225885e+002 -2.254263e+001 -5.288406e+000
3032812500 -2.135772e+001 1.222065e+002 -2.746614e+001 -5.773901e+001 -8.537302e+001 1.275452e+002 -2.362024e+001 -1.236721e+001
3033906250 -2.259514e+001 1.290871e+002 -2.789922e+001 -1.291231e+002 -7.842637e+001 -1.318007e+002 -2.431488e+001 -2.272508e+001
3035000000 -2.423510e+001 1.352180e+002 -2.897921e+001 1.580535e+002 -8.567366e+001 1.539079e+002 -2.421010e+001 -3.448068e+001
3036093750 -2.648248e+001 1.397819e+002 -3.056121e+001 8.059818e+001 -9.384476e+001 -9.947630e+001 -2.345914e+001 -4.430085e+001
3037187500 -2.968998e+001 1.411384e+002 -3.204847e+001 -4.208026e+000 -9.402338e+001 -1.313062e+002 -2.237519e+001 -5.035873e+001
3038281250 -3.445844e+001 1.312485e+002 -3.217230e+001 -9.304427e+001 -8.462144e+001 -3.258305e+001 -2.120525e+001 -5.288977e+001
3039375000 -3.868299e+001 8.158458e+001 -3.109760e+001 -1.775007e+002 -9.139592e+001 6.802676e+001 -2.014038e+001 -5.312411e+001
3040468750 -3.369995e+001 4.023699e+001 -3.010924e+001 1.051673e+002 -9.079230e+001 1.707237e+002 -1.924219e+001 -5.153499e+001
3041562500 -2.928146e+001 3.370581e+001 -2.978154e+001 3.240072e+001 -8.675008e+001 -1.286059e+002 -1.851229e+001 -4.883822e+001
3042656250 -2.638029e+001 3.622573e+001 -3.041813e+001 -3.836199e+001 -8.731726e+001 2.791829e+001 -1.795411e+001 -4.542368e+001
3043750000 -2.431677e+001 4.124731e+001 -3.206545e+001 -1.095534e+002 -8.175262e+001 -4.926499e+001 -1.757819e+001 -4.145195e+001
3044843750 -2.282624e+001 4.781834e+001 -3.489368e+001 1.759299e+002 -8.639468e+001 7.464495e+001 -1.736023e+001 -3.743332e+001
3045937500 -2.170583e+001 5.492236e+001 -3.866240e+001 9.138727e+001 -8.769481e+001 -1.426132e+002 -1.730114e+001 -3.302341e+001
3047031250 -2.089756e+001 6.241193e+001 -4.068002e+001 -7.715300e+000 -8.455314e+001 -7.214185e+001 -1.741936e+001 -2.866407e+001
3048125000 -2.036989e+001 7.018933e+001 -3.957936e+001 -9.781432e+001 -9.138165e+001 -2.408591e+001 -1.768017e+001 -2.444879e+001
3049218750 -2.004094e+001 7.825813e+001 -3.859845e+001 -1.701585e+002 -7.960789e+001 1.258871e+002 -1.810717e+001 -2.029810e+001
3050312500 -1.995037e+001 8.649694e+001 -3.873872e+001 1.321177e+002 -8.852258e+001 -1.214172e+002 -1.873058e+001 -1.676096e+001
3051406250 -2.002355e+001 9.513515e+001 -3.918836e+001 8.600681e+001 -9.362525e+001 -1.135612e+002 -1.950993e+001 -1.411703e+001
3052500000 -2.029409e+001 1.039933e+002 -3.827955e+001 4.468383e+001 -8.105892e+001 -1.438315e+002 -2.051850e+001 -1.281999e+001
3053593750 -2.078509e+001 1.131364e+002 -3.671069e+001 -7.414575e+000 -8.692033e+001 -7.309356e+000 -2.173644e+001 -1.332177e+001
3054687500 -2.145371e+001 1.227432e+002 -3.616495e+001 -7.035800e+001 -8.027760e+001 3.280748e+001 -2.310103e+001 -1.701954e+001
3055781250 -2.242375e+001 1.327540e+002 -3.673339e+001 -1.443384e+002 -7.889344e+001 -1.009896e+002 -2.442208e+001 -2.491204e+001
3056875000 -2.367509e+001 1.439006e+002 -3.780218e+001 1.267552e+002 -9.945567e+001 1.022728e+002 -2.522270e+001 -3.747647e+001
3057968750 -2.532417e+001 1.567881e+002 -3.692348e+001 2.549876e+001 -8.308453e+001 -1.683780e+002 -2.504191e+001 -5.183770e+001
3059062500 -2.740110e+001 1.728866e+002 -3.405167e+001 -6.574268e+001 -8.859809e+001 -5.506919e+001 -2.394268e+001 -6.295208e+001
3060156250 -2.985310e+001 -1.646104e+002 -3.167697e+001 -1.458372e+002 -8.514240e+001 6.582886e+000 -2.248683e+001 -6.949186e+001
3061250000 -3.195327e+001 -1.311980e+002 -3.036450e+001 1.383454e+002 -8.864317e+001 -1.015567e+001 -2.104059e+001 -7.195038e+001
3062343750 -3.193554e+001 -9.043668e+001 -3.022852e+001 6.268733e+001 -7.884344e+001 1.214586e+002 -1.978721e+001 -7.153928e+001
3063437500 -2.988518e+001 -5.749722e+001 -3.113426e+001 -1.533997e+001 -8.538441e+001 2.987322e+001 -1.868660e+001 -6.953895e+001
3064531250 -2.749409e+001 -3.562618e+001 -3.264637e+001 -9.922105e+001 -8.534366e+001 3.415280e+001 -1.782666e+001 -6.642944e+001
3065625000 -2.554699e+001 -1.994839e+001 -3.367424e+001 1.695354e+002 -8.668069e+001 -6.601374e+001 -1.713374e+001 -6.263713e+001
3066718750 -2.403402e+001 -7.263133e+000 -3.312449e+001 7.787930e+001 -8.646905e+001 6.472995e+001 -1.660855e+001 -5.842302e+001
3067812500 -2.289367e+001 3.661967e+000 -3.181531e+001 -6.183604e+000 -8.060871e+001 1.091789e+002 -1.624943e+001 -5.372408e+001
3068906250 -2.206029e+001 1.360127e+001 -3.101764e+001 -8.492091e+001 -8.748086e+001 -1.490014e+002 -1.602659e+001 -4.882901e+001
3070000000 -2.149568e+001 2.298510e+001 -3.122995e+001 -1.605427e+002 -8.333995e+001 -7.785277e+001 -1.591901e+001 -4.387138e+001
3071093750 -2.114811e+001 3.185247e+001 -3.240877e+001 1.245139e+002 -8.961883e+001 1.537598e+002 -1.596537e+001 -3.879133e+001
3072187500 -2.100945e+001 4.050054e+001 -3.445677e+001 4.700519e+001 -9.118275e+001 9.943605e+001 -1.612029e+001 -3.388339e+001
3073281250 -2.107295e+001 4.875156e+001 -3.655107e+001 -3.815185e+001 -8.704816e+001 1.295718e+002 -1.641691e+001 -2.908563e+001
3074375000 -2.135855e+001 5.657186e+001 -3.728806e+001 -1.295928e+002 -8.157436e+001 -5.311726e+001 -1.683505e+001 -2.463946e+001
3075468750 -2.185304e+001 6.399807e+001 -3.634564e+001 1.440231e+002 -8.363763e+001 -5.328317e+001 -1.740842e+001 -2.074877e+001
3076562500 -2.262090e+001 7.108575e+001 -3.525064e+001 6.762345e+001 -8.526888e+001 1.608490e+002 -1.813596e+001 -1.737009e+001
3077656250 -2.367858e+001 7.737611e+001 -3.478524e+001 -2.042061e+000 -9.105744e+001 -5.367102e+001 -1.904149e+001 -1.479844e+001
3078750000 -2.512257e+001 8.284891e+001 -3.500484e+001 -7.080386e+001 -8.531233e+001 -1.029108e+002 -2.012329e+001 -1.325294e+001
3079843750 -2.703943e+001 8.660044e+001 -3.613630e+001 -1.422608e+002 -7.870568e+001 -3.483195e+001 -2.135410e+001 -1.352522e+001
3080937500 -2.966680e+001 8.682875e+001 -3.827239e+001 1.402868e+002 -9.183754e+001 9.742135e+001 -2.269603e+001 -1.633756e+001
3082031250 -3.305394e+001 7.748969e+001 -4.046692e+001 5.056657e+001 -8.448674e+001 1.240961e+002 -2.399076e+001 -2.249150e+001
3083125000 -3.585448e+001 4.680732e+001 -4.047480e+001 -4.506647e+001 -7.823463e+001 -5.310978e+001 -2.491943e+001 -3.233573e+001
3084218750 -3.376122e+001 1.077949e+001 -3.874572e+001 -1.276804e+002 -9.012046e+001 -1.708926e+002 -2.518414e+001 -4.477230e+001
3085312500 -3.017079e+001 -1.908478e+000 -3.726001e+001 1.610121e+002 -8.457858e+001 5.500709e+001 -2.462494e+001 -5.580246e+001
3086406250 -2.730335e+001 -3.004331e+000 -3.659258e+001 9.470478e+001 -9.074918e+001 -7.569686e+001 -2.362746e+001 -6.373177e+001
3087500000 -2.521708e+001 -4.225985e-001 -3.705737e+001 2.953329e+001 -8.484870e+001 -9.843922e+001 -2.250374e+001 -6.816097e+001
3088593750 -2.366121e+001 4.672299e+000 -3.883330e+001 -3.650078e+001 -8.176772e+001 1.518300e+002 -2.145724e+001 -6.961890e+001
3089687500 -2.247007e+001 1.051652e+001 -4.255150e+001 -1.066383e+002 -8.555041e+001 -6.447037e+001 -2.056603e+001 -6.948904e+001
3090781250 -2.158334e+001 1.718686e+001 -4.970472e+001 1.587538e+002 -8.315266e+001 -1.438575e+002 -1.983270e+001 -6.804839e+001
3091875000 -2.092737e+001 2.411847e+001 -4.940173e+001 1.172105e+001 -9.750451e+001 1.253188e+002 -1.925700e+001 -6.579832e+001
3092968750 -2.051011e+001 3.133791e+001 -4.561533e+001 -7.078851e+001 -9.174584e+001 4.966690e+001 -1.881586e+001 -6.306808e+001
3094062500 -2.028524e+001 3.860025e+001 -4.543515e+001 -1.235484e+002 -8.954359e+001 1.487010e+001 -1.849045e+001 -6.025067e+001
3095156250 -2.024496e+001 4.596618e+001 -4.490552e+001 -1.522035e+002 -9.291245e+001 1.073321e+002 -1.828231e+001 -5.727638e+001
3096250000 -2.038545e+001 5.351369e+001 -4.115039e+001 1.717763e+002 -8.652516e+001 1.048496e+002 -1.819914e+001 -5.455462e+001
3097343750 -2.072776e+001 6.115885e+001 -3.811177e+001 1.179141e+002 -8.753008e+001 -4.886626e+000 -1.820724e+001 -5.176765e+001
3098437500 -2.127483e+001 6.892349e+001 -3.667130e+001 5.598132e+001 -8.163699e+001 -7.487585e+001 -1.830050e+001 -4.941582e+001
3099531250 -2.202625e+001 7.669404e+001 -3.644451e+001 -1.072057e+001 -8.246138e+001 -1.187496e+002 -1.847597e+001 -4.704049e+001
3100625000 -2.305133e+001 8.438589e+001 -3.728532e+001 -8.412220e+001 -9.443192e+001 -1.390775e+002 -1.869265e+001 -4.527845e+001
3101718750 -2.438607e+001 9.181404e+001 -3.858253e+001 -1.701336e+002 -8.920966e+001 -7.599213e+001 -1.895157e+001 -4.370137e+001
3102812500 -2.623577e+001 9.942320e+001 -3.839574e+001 9.248323e+001 -9.139460e+001 1.407673e+002 -1.923997e+001 -4.271472e+001
3103906250 -2.877191e+001 1.070088e+002 -3.645087e+001 2.386438e+000 -8.653467e+001 1.462482e+002 -1.951595e+001 -4.215446e+001
3105000000 -3.256416e+001 1.147387e+002 -3.444086e+001 -7.451052e+001 -8.624413e+001 -1.230938e+002 -1.977535e+001 -4.202923e+001
3106093750 -3.963799e+001 1.231694e+002 -3.317031e+001 -1.452728e+002 -9.522646e+001 7.502309e+001 -2.005789e+001 -4.234983e+001
3107187500 -5.248724e+001 -5.221536e+001 -3.261261e+001 1.458434e+002 -8.040416e+001 -1.382821e+002 -2.027786e+001 -4.281129e+001
3108281250 -3.651087e+001 -4.091687e+001 -3.266649e+001 7.494159e+001 -8.681374e+001 3.926609e+001 -2.049503e+001 -4.359092e+001
3109375000 -3.142760e+001 -3.327922e+001 -3.309794e+001 -1.228226e+000 -8.026769e+001 -1.938929e+001 -2.069392e+001 -4.402471e+001
3110468750 -2.839399e+001 -2.582595e+001 -3.364149e+001 -8.604956e+001 -8.179151e+001 1.652386e+002 -2.085398e+001 -4.459597e+001
3111562500 -2.636073e+001 -1.838976e+001 -3.328205e+001 -1.768816e+002 -9.175746e+001 3.838983e+001 -2.098395e+001 -4.515396e+001
3112656250 -2.496228e+001 -1.072992e+001 -3.207732e+001 9.538979e+001 -8.571527e+001 2.290228e+001 -2.114040e+001 -4.551228e+001
3113750000 -2.399741e+001 -3.240055e+000 -3.095132e+001 1.414602e+001 -7.874565e+001 1.628503e+002 -2.130164e+001 -4.598629e+001
3114843750 -2.333802e+001 4.336072e+000 -3.046189e+001 -6.208510e+001 -8.882458e+001 1.462945e+002 -2.147639e+001 -4.653748e+001
3115937500 -2.293913e+001 1.196467e+001 -3.075521e+001 -1.366012e+002 -9.185407e+001 -9.121075e+001 -2.168341e+001 -4.736499e+001
3117031250 -2.276082e+001 1.951576e+001 -3.192834e+001 1.480829e+002 -8.541354e+001 2.969571e+001 -2.191580e+001 -4.871453e+001
3118125000 -2.282487e+001 2.687024e+001 -3.390171e+001 6.885344e+001 -8.459530e+001 -1.434589e+002 -2.213960e+001 -5.024492e+001
3119218750 -2.313173e+001 3.410062e+001 -3.607559e+001 -1.727374e+001 -8.735925e+001 3.112284e+001 -2.234683e+001 -5.226898e+001
3120312500 -2.364072e+001 4.110220e+001 -3.714922e+001 -1.084805e+002 -8.444651e+001 5.540018e+001 -2.251936e+001 -5.482394e+001
3121406250 -2.447644e+001 4.799894e+001 -3.685027e+001 1.688746e+002 -8.122966e+001 -9.949030e+001 -2.258170e+001 -5.753023e+001
3122500000 -2.559713e+001 5.440368e+001 -3.632307e+001 9.720378e+001 -8.130553e+001 -1.312214e+002 -2.251459e+001 -6.029766e+001
3123593750 -2.714138e+001 5.982703e+001 -3.600964e+001 3.363960e+001 -8.568871e+001 -1.368843e+002 -2.233349e+001 -6.279779e+001
3124687500 -2.924719e+001 6.432817e+001 -3.601049e+001 -2.717895e+001 -9.078819e+001 3.994904e+001 -2.203584e+001 -6.470638e+001
3125781250 -3.220618e+001 6.529510e+001 -3.631569e+001 -9.048347e+001 -8.153228e+001 -1.667522e+002 -2.162867e+001 -6.603500e+001
3126875000 -3.655552e+001 5.699200e+001 -3.725144e+001 -1.605292e+002 -9.431216e+001 -8.099059e+000 -2.124872e+001 -6.655545e+001
3127968750 -4.085675e+001 1.427270e+001 -3.902221e+001 1.188376e+002 -8.327859e+001 1.610520e+002 -2.082821e+001 -6.644968e+001
3129062500 -3.685264e+001 -3.046713e+001 -4.007211e+001 2.475959e+001 -7.941984e+001 -3.617167e+001 -2.050115e+001 -6.535863e+001
3130156250 -3.242327e+001 -3.948417e+001 -3.887431e+001 -6.963209e+001 -9.426730e+001 -1.667855e+002 -2.020107e+001 -6.347715e+001
3131250000 -2.938118e+001 -3.902214e+001 -3.705659e+001 -1.494376e+002 -8.456489e+001 -1.871869e+001 -2.001659e+001 -6.110804e+001
3132343750 -2.732152e+001 -3.525067e+001 -3.593922e+001 1.399402e+002 -7.898988e+001 -6.139610e+000 -1.990597e+001 -5.810469e+001
3133437500 -2.579132e+001 -2.977339e+001 -3.549802e+001 7.394170e+001 -8.871654e+001 -1.465856e+002 -1.989061e+001 -5.478483e+001
3134531250 -2.469100e+001 -2.348940e+001 -3.592242e+001 6.381401e+000 -8.234968e+001 1.299895e+001 -2.000006e+001 -5.129308e+001
3135625000 -2.388155e+001 -1.680297e+001 -3.758518e+001 -6.572870e+001 -9.007890e+001 1.324075e+002 -2.024542e+001 -4.767425e+001
3136718750 -2.337561e+001 -1.001390e+001 -4.052863e+001 -1.500492e+002 -8.995279e+001 -1.655809e+002 -2.063811e+001 -4.413223e+001
3137812500 -2.306200e+001 -3.254281e+000 -4.233139e+001 9.859395e+001 -8.409441e+001 1.725098e+002 -2.119162e+001 -4.080289e+001
3138906250 -2.299484e+001 3.627487e+000 -3.977576e+001 -8.145056e+000 -8.658879e+001 -9.317913e+001 -2.197175e+001 -3.793599e+001
3140000000 -2.316314e+001 1.038881e+001 -3.723370e+001 -9.232298e+001 -8.031920e+001 -1.426912e+002 -2.297947e+001 -3.563745e+001
3141093750 -2.355433e+001 1.715771e+001 -3.653291e+001 -1.704840e+002 -8.192511e+001 -1.385495e+002 -2.422822e+001 -3.414392e+001
3142187500 -2.417893e+001 2.377205e+001 -3.768538e+001 1.104172e+002 -8.348238e+001 7.268766e+001 -2.580281e+001 -3.488885e+001
3143281250 -2.509621e+001 3.000382e+001 -4.119905e+001 1.875259e+001 -7.979781e+001 -1.060311e+002 -2.765407e+001 -3.933995e+001
3144375000 -2.636275e+001 3.561729e+001 -4.337468e+001 -1.060656e+002 -1.030018e+002 -1.047491e+002 -2.951688e+001 -4.998295e+001
3145468750 -2.807878e+001 4.014401e+001 -3.951403e+001 1.428755e+002 -8.141930e+001 5.429649e+000 -3.062691e+001 -6.849831e+001
3146562500 -3.045485e+001 4.223019e+001 -3.664785e+001 5.756088e+001 -8.847426e+001 -1.646571e+001 -2.994641e+001 -8.883090e+001
3147656250 -3.376068e+001 3.790695e+001 -3.571540e+001 -2.185970e+001 -8.352803e+001 -1.878293e+001 -2.815775e+001 -1.023583e+002
3148750000 -3.792392e+001 1.608873e+001 -3.622952e+001 -1.036321e+002 -9.195474e+001 -1.543680e+002 -2.615650e+001 -1.085035e+002
3149843750 -3.797217e+001 -3.172607e+001 -3.737245e+001 1.636392e+002 -8.026437e+001 -1.109686e+002 -2.447048e+001 -1.099264e+002
3150937500 -3.376434e+001 -5.353467e+001 -3.734296e+001 6.054600e+001 -9.857897e+001 -1.546620e+002 -2.309617e+001 -1.088766e+002
3152031250 -3.035580e+001 -5.764637e+001 -3.550480e+001 -3.471729e+001 -8.989995e+001 -8.271738e+001 -2.202513e+001 -1.062874e+002
3153125000 -2.784926e+001 -5.535820e+001 -3.397065e+001 -1.188507e+002 -8.417443e+001 8.713168e+001 -2.116606e+001 -1.026713e+002
3154218750 -2.603172e+001 -5.051636e+001 -3.369915e+001 1.627321e+002 -8.656620e+001 -1.770986e+002 -2.055029e+001 -9.849348e+001
3155312500 -2.462838e+001 -4.477721e+001 -3.476923e+001 8.442007e+001 -9.729301e+001 1.327127e+001 -2.010212e+001 -9.393944e+001
3156406250 -2.357810e+001 -3.853093e+001 -3.730884e+001 4.925101e-001 -8.288805e+001 -1.382464e+002 -1.981404e+001 -8.928571e+001
3157500000 -2.282078e+001 -3.202644e+001 -4.026725e+001 -1.014979e+002 -8.628574e+001 -6.111013e+001 -1.971986e+001 -8.463303e+001
3158593750 -2.232379e+001 -2.513011e+001 -3.947438e+001 1.485445e+002 -8.672730e+001 1.782388e+002 -1.976543e+001 -8.022942e+001
3159687500 -2.202906e+001 -1.813217e+001 -3.709941e+001 6.092214e+001 -9.428290e+001 -9.239793e+001 -2.001134e+001 -7.615733e+001
3160781250 -2.188696e+001 -1.085998e+001 -3.586147e+001 -1.279833e+001 -8.548562e+001 1.128442e+002 -2.041824e+001 -7.247214e+001
3161875000 -2.194524e+001 -3.339556e+000 -3.593908e+001 -8.158568e+001 -8.302744e+001 -1.174465e+002 -2.099020e+001 -6.952458e+001
3162968750 -2.216701e+001 4.120727e+000 -3.759994e+001 -1.506575e+002 -9.080737e+001 6.317220e+001 -2.174052e+001 -6.774091e+001
3164062500 -2.259516e+001 1.118001e+001 -4.144892e+001 1.333748e+002 -8.365765e+001 -1.184561e+002 -2.262015e+001 -6.728957e+001
