!Agilent Technologies,E8363B,MY43030572,A.06.04.32
!Agilent E8363B: A.06.04.32
!Date: Tuesday, June 07, 2011 09:18:55
!Correction: S11(Full 2 Port(1,2)) S21(Full 2 Port(1,2)) S12(Full 2 Port(1,2)) S22(Full 2 Port(1,2)) 
!S2P File: Measurements: S11, S21, S12, S22:
# Hz S  dB   R 50
3000000000 -2.176340e+001 6.961629e+001 -3.798151e+001 2.578924e+001 -8.335985e+001 3.665839e+001 -1.666649e+001 -1.594688e+001
3001093750 -2.090850e+001 7.720178e+001 -3.507515e+001 -6.069352e+001 -8.109911e+001 -1.788980e+002 -1.685151e+001 -1.274955e+001
3002187500 -2.032302e+001 8.538184e+001 -3.249541e+001 -1.328607e+002 -9.185983e+001 -1.478224e+002 -1.707919e+001 -9.222709e+000
3003281250 -1.997172e+001 9.360522e+001 -3.098353e+001 1.567714e+002 -8.327081e+001 1.448579e+002 -1.746397e+001 -5.956332e+000
3004375000 -1.981717e+001 1.019364e+002 -3.047450e+001 8.718697e+001 -8.045008e+001 8.843917e+001 -1.798016e+001 -3.321595e+000
3005468750 -1.985518e+001 1.104534e+002 -3.061876e+001 1.696078e+001 -8.383796e+001 -6.555109e+000 -1.860154e+001 -1.538271e+000
3006562500 -2.008333e+001 1.190315e+002 -3.106901e+001 -5.726249e+001 -7.877745e+001 1.119444e+002 -1.933722e+001 -7.123967e-001
3007656250 -2.052862e+001 1.274987e+002 -3.139005e+001 -1.379903e+002 -8.917968e+001 -6.745600e+001 -2.013758e+001 -1.589967e+000
3008750000 -2.121860e+001 1.360021e+002 -3.106510e+001 1.367507e+002 -8.750206e+001 -1.489545e+002 -2.092839e+001 -4.350845e+000
3009843750 -2.219947e+001 1.447818e+002 -2.983845e+001 5.358276e+001 -8.705205e+001 6.372219e+001 -2.156606e+001 -9.126354e+000
3010937500 -2.356839e+001 1.538465e+002 -2.845560e+001 -2.449107e+001 -7.996538e+001 1.525696e+002 -2.195880e+001 -1.556166e+001
3012031250 -2.542395e+001 1.639242e+002 -2.735541e+001 -9.894082e+001 -8.242372e+001 7.816235e+001 -2.194568e+001 -2.260406e+001
3013125000 -2.809554e+001 1.752731e+002 -2.672917e+001 -1.720891e+002 -8.566669e+001 -9.455524e+001 -2.151851e+001 -2.875011e+001
3014218750 -3.210572e+001 -1.686297e+002 -2.667091e+001 1.135410e+002 -8.708280e+001 -1.244049e+002 -2.085831e+001 -3.300407e+001
3015312500 -3.884209e+001 -1.312515e+002 -2.703347e+001 3.662214e+001 -9.509295e+001 -2.784872e+001 -2.010264e+001 -3.516243e+001
3016406250 -3.816207e+001 -3.783016e+001 -2.755353e+001 -4.460192e+001 -7.877946e+001 3.318732e+001 -1.935954e+001 -3.552291e+001
3017500000 -3.165876e+001 -4.035659e+000 -2.778118e+001 -1.294773e+002 -8.287931e+001 -1.461944e+002 -1.869787e+001 -3.442210e+001
3018593750 -2.758911e+001 1.139561e+001 -2.739566e+001 1.451389e+002 -8.846557e+001 -1.093198e+002 -1.813756e+001 -3.225689e+001
3019687500 -2.495958e+001 2.244698e+001 -2.672735e+001 6.267592e+001 -9.216936e+001 -6.054312e+001 -1.770616e+001 -2.922668e+001
3020781250 -2.305796e+001 3.203605e+001 -2.629892e+001 -1.619970e+001 -9.012302e+001 -6.234533e+001 -1.743593e+001 -2.588952e+001
3021875000 -2.167909e+001 4.102694e+001 -2.637247e+001 -9.304592e+001 -8.294140e+001 -5.498404e+000 -1.728598e+001 -2.207459e+001
3022968750 -2.065502e+001 4.966986e+001 -2.703033e+001 -1.693249e+002 -8.401436e+001 1.649115e+002 -1.729140e+001 -1.823388e+001
3024062500 -1.988454e+001 5.817918e+001 -2.812724e+001 1.137063e+002 -9.760738e+001 1.432734e+002 -1.742580e+001 -1.413701e+001
3025156250 -1.936433e+001 6.678545e+001 -2.924436e+001 3.428650e+001 -8.396055e+001 4.594359e+000 -1.773590e+001 -1.021546e+001
3026250000 -1.901649e+001 7.512396e+001 -3.005097e+001 -4.715972e+001 -8.146963e+001 -1.655733e+002 -1.817268e+001 -6.530894e+000
3027343750 -1.884935e+001 8.315406e+001 -3.025341e+001 -1.282186e+002 -1.046166e+002 1.324306e+002 -1.880455e+001 -3.306092e+000
3028437500 -1.890166e+001 9.120495e+001 -3.019473e+001 1.538618e+002 -1.022717e+002 -2.923817e+000 -1.958559e+001 -9.147061e-001
3029531250 -1.914285e+001 9.892349e+001 -3.020317e+001 7.866217e+001 -8.361980e+001 1.495137e+002 -2.056488e+001 2.640924e-001
3030625000 -1.956967e+001 1.067504e+002 -3.063387e+001 4.657400e+000 -8.790119e+001 -6.008990e+001 -2.172877e+001 -3.641837e-001
3031718750 -2.022912e+001 1.143901e+002 -3.175945e+001 -6.972355e+001 -8.507356e+001 -7.330864e+001 -2.298426e+001 -3.746182e+000
3032812500 -2.112863e+001 1.217083e+002 -3.340198e+001 -1.475014e+002 -8.689469e+001 6.797962e+000 -2.418077e+001 -1.101143e+001
3033906250 -2.230131e+001 1.287833e+002 -3.523355e+001 1.278620e+002 -8.542831e+001 -1.101055e+001 -2.493636e+001 -2.174234e+001
3035000000 -2.385425e+001 1.351399e+002 -3.623037e+001 3.858987e+001 -8.081432e+001 -4.647478e+001 -2.487041e+001 -3.435742e+001
3036093750 -2.600377e+001 1.402301e+002 -3.608340e+001 -4.865292e+001 -8.602032e+001 1.079616e+002 -2.405963e+001 -4.461185e+001
3037187500 -2.901269e+001 1.426552e+002 -3.605399e+001 -1.273959e+002 -8.824902e+001 -1.431465e+002 -2.285734e+001 -5.074900e+001
3038281250 -3.358870e+001 1.364808e+002 -3.702599e+001 1.611283e+002 -9.646230e+001 -1.508651e+002 -2.160077e+001 -5.354706e+001
3039375000 -3.903476e+001 9.472661e+001 -3.954185e+001 9.656427e+001 -7.874950e+001 9.962233e+001 -2.050661e+001 -5.367801e+001
3040468750 -3.476898e+001 4.282367e+001 -4.460533e+001 4.536438e+001 -8.748550e+001 -1.196848e+002 -1.955362e+001 -5.209469e+001
3041562500 -2.992733e+001 3.358032e+001 -4.856414e+001 4.494657e+001 -8.719378e+001 4.200029e+001 -1.880588e+001 -4.930392e+001
3042656250 -2.679303e+001 3.545781e+001 -4.318885e+001 1.647128e+001 -8.569601e+001 -7.769192e+001 -1.824261e+001 -4.570004e+001
3043750000 -2.460735e+001 4.035489e+001 -4.058827e+001 -4.729905e+001 -7.610766e+001 -1.083200e+001 -1.786032e+001 -4.164526e+001
3044843750 -2.302688e+001 4.692498e+001 -4.061344e+001 -1.226473e+002 -8.533077e+001 -5.822786e+001 -1.765010e+001 -3.735953e+001
3045937500 -2.183452e+001 5.403381e+001 -4.169933e+001 1.490873e+002 -8.127354e+001 -1.462179e+002 -1.759213e+001 -3.277837e+001
3047031250 -2.098053e+001 6.155254e+001 -4.086658e+001 4.868916e+001 -9.207318e+001 -2.334520e+001 -1.768797e+001 -2.824030e+001
3048125000 -2.041815e+001 6.931614e+001 -3.803908e+001 -4.221554e+001 -7.718620e+001 3.017948e+001 -1.794738e+001 -2.376482e+001
3049218750 -2.006021e+001 7.739211e+001 -3.554077e+001 -1.202911e+002 -8.243653e+001 1.038351e+002 -1.839288e+001 -1.959946e+001
3050312500 -1.993010e+001 8.566905e+001 -3.423391e+001 1.666345e+002 -9.887253e+001 -1.663820e+002 -1.901823e+001 -1.584990e+001
3051406250 -1.997294e+001 9.437439e+001 -3.411006e+001 9.491032e+001 -9.259032e+001 8.537807e+001 -1.982059e+001 -1.307027e+001
3052500000 -2.020999e+001 1.031922e+002 -3.491852e+001 2.405012e+001 -8.857669e+001 5.134418e+001 -2.087176e+001 -1.151080e+001
3053593750 -2.064572e+001 1.124445e+002 -3.608729e+001 -5.092616e+001 -8.334309e+001 8.925488e+001 -2.215610e+001 -1.174312e+001
3054687500 -2.130946e+001 1.219968e+002 -3.695729e+001 -1.340412e+002 -8.661173e+001 1.250803e+002 -2.360124e+001 -1.529146e+001
3055781250 -2.223200e+001 1.320401e+002 -3.627328e+001 1.381897e+002 -8.185531e+001 -9.619319e+001 -2.506437e+001 -2.336033e+001
3056875000 -2.344196e+001 1.430916e+002 -3.437717e+001 5.347490e+001 -8.317840e+001 1.117284e+002 -2.596476e+001 -3.677488e+001
3057968750 -2.502506e+001 1.559360e+002 -3.263851e+001 -2.509781e+001 -8.624869e+001 -1.381906e+002 -2.574354e+001 -5.235514e+001
3059062500 -2.700002e+001 1.719614e+002 -3.169734e+001 -1.000639e+002 -8.383908e+001 -9.570181e+001 -2.452979e+001 -6.414853e+001
3060156250 -2.935361e+001 -1.667462e+002 -3.170662e+001 -1.752797e+002 -7.788906e+001 -5.007064e+001 -2.294887e+001 -7.086130e+001
3061250000 -3.146251e+001 -1.352742e+002 -3.277275e+001 1.070205e+002 -8.231725e+001 -1.546666e+002 -2.142368e+001 -7.322130e+001
3062343750 -3.173351e+001 -9.531111e+001 -3.447179e+001 2.264877e+001 -9.067572e+001 1.098187e+001 -2.010702e+001 -7.252557e+001
3063437500 -2.990131e+001 -6.154768e+001 -3.559240e+001 -7.144015e+001 -8.461494e+001 -3.227406e+001 -1.898902e+001 -7.048206e+001
3064531250 -2.753100e+001 -3.848230e+001 -3.482196e+001 -1.649325e+002 -8.521800e+001 4.179363e+001 -1.810785e+001 -6.719872e+001
3065625000 -2.558719e+001 -2.218740e+001 -3.354589e+001 1.121133e+002 -7.899513e+001 -1.787984e+002 -1.740437e+001 -6.319796e+001
3066718750 -2.405270e+001 -9.136135e+000 -3.282924e+001 3.783206e+001 -9.130888e+001 1.762395e+002 -1.686959e+001 -5.872095e+001
3067812500 -2.288792e+001 2.062645e+000 -3.294680e+001 -3.332347e+001 -8.427264e+001 -1.200908e+002 -1.650185e+001 -5.387336e+001
3068906250 -2.201887e+001 1.221960e+001 -3.407762e+001 -1.056057e+002 -9.616410e+001 -1.053623e+002 -1.625673e+001 -4.874152e+001
3070000000 -2.142270e+001 2.177493e+001 -3.628196e+001 1.767082e+002 -8.744609e+001 -9.040140e+001 -1.614888e+001 -4.366021e+001
3071093750 -2.104576e+001 3.085387e+001 -3.886577e+001 8.414520e+001 -8.395094e+001 -1.432628e+002 -1.618986e+001 -3.847714e+001
3072187500 -2.087508e+001 3.958775e+001 -3.832264e+001 -1.884923e+001 -8.273289e+001 -7.370978e+001 -1.634340e+001 -3.347533e+001
3073281250 -2.091319e+001 4.785743e+001 -3.557331e+001 -1.059570e+002 -7.942400e+001 -1.289059e+002 -1.664950e+001 -2.855840e+001
3074375000 -2.115773e+001 5.586382e+001 -3.320566e+001 1.794718e+002 -8.371209e+001 -1.015770e+001 -1.708548e+001 -2.395506e+001
3075468750 -2.161933e+001 6.349810e+001 -3.202810e+001 1.079889e+002 -8.881519e+001 -1.011361e+002 -1.766525e+001 -1.976358e+001
3076562500 -2.234012e+001 7.070493e+001 -3.205269e+001 3.599059e+001 -8.857520e+001 -5.682692e+001 -1.841146e+001 -1.614360e+001
3077656250 -2.333372e+001 7.725529e+001 -3.317031e+001 -4.057708e+001 -8.308446e+001 1.459265e+002 -1.933161e+001 -1.322109e+001
3078750000 -2.471846e+001 8.304556e+001 -3.476912e+001 -1.286819e+002 -8.751865e+001 1.246894e+002 -2.042799e+001 -1.146689e+001
3079843750 -2.653264e+001 8.768660e+001 -3.467372e+001 1.282263e+002 -9.621562e+001 2.370911e+001 -2.169882e+001 -1.159693e+001
3080937500 -2.906147e+001 8.918939e+001 -3.211579e+001 3.164598e+001 -9.047395e+001 -8.563806e+001 -2.312512e+001 -1.419691e+001
3082031250 -3.240802e+001 8.288931e+001 -2.985437e+001 -5.223967e+001 -8.809033e+001 1.527291e+002 -2.453006e+001 -2.030684e+001
3083125000 -3.598062e+001 5.684606e+001 -2.882133e+001 -1.304057e+002 -8.137737e+001 -2.744618e+000 -2.558567e+001 -3.077299e+001
3084218750 -3.478026e+001 1.512578e+001 -2.904975e+001 1.527263e+002 -9.134824e+001 3.850461e+001 -2.592978e+001 -4.400024e+001
3085312500 -3.091038e+001 -1.136726e+000 -3.038955e+001 7.336849e+001 -8.692365e+001 -7.456012e+001 -2.533594e+001 -5.622908e+001
3086406250 -2.782420e+001 -3.667391e+000 -3.230128e+001 -1.331781e+001 -9.488122e+001 -1.284508e+002 -2.426067e+001 -6.456830e+001
3087500000 -2.557231e+001 -1.274737e+000 -3.317714e+001 -1.093559e+002 -8.311327e+001 -1.110207e+002 -2.304483e+001 -6.893797e+001
3088593750 -2.389247e+001 3.578687e+000 -3.191851e+001 1.579874e+002 -9.100903e+001 -2.470772e+001 -2.193269e+001 -7.033908e+001
3089687500 -2.263908e+001 9.448712e+000 -3.029525e+001 7.702091e+001 -7.810264e+001 4.218013e+001 -2.099383e+001 -7.000516e+001
3090781250 -2.168842e+001 1.604193e+001 -2.940796e+001 3.255305e+000 -9.190778e+001 -1.819920e+001 -2.020964e+001 -6.857153e+001
3091875000 -2.099027e+001 2.311391e+001 -2.946268e+001 -6.787862e+001 -1.021296e+002 -1.126077e+001 -1.960150e+001 -6.616474e+001
3092968750 -2.051559e+001 3.035230e+001 -3.066159e+001 -1.405316e+002 -8.604678e+001 -7.758884e+001 -1.914961e+001 -6.332308e+001
3094062500 -2.025736e+001 3.764968e+001 -3.307308e+001 1.413515e+002 -8.502913e+001 1.683927e+002 -1.881257e+001 -6.039436e+001
3095156250 -2.018566e+001 4.508427e+001 -3.598019e+001 4.772286e+001 -9.377393e+001 8.377132e+001 -1.860746e+001 -5.740141e+001
3096250000 -2.029027e+001 5.266514e+001 -3.576426e+001 -5.771189e+001 -8.104358e+001 1.491708e+002 -1.851873e+001 -5.434869e+001
3097343750 -2.059514e+001 6.048264e+001 -3.313058e+001 -1.455343e+002 -9.366319e+001 1.219695e+002 -1.853348e+001 -5.146073e+001
3098437500 -2.109334e+001 6.838578e+001 -3.104068e+001 1.397824e+002 -8.268588e+001 7.026510e+001 -1.863536e+001 -4.892069e+001
3099531250 -2.179726e+001 7.623643e+001 -2.999803e+001 6.932891e+001 -8.368742e+001 7.397652e+001 -1.880350e+001 -4.654427e+001
3100625000 -2.277903e+001 8.408131e+001 -3.015622e+001 -1.481835e+000 -8.536326e+001 1.651662e+002 -1.903139e+001 -4.459509e+001
3101718750 -2.405123e+001 9.170141e+001 -3.146235e+001 -7.634103e+001 -7.964851e+001 1.724916e+002 -1.929080e+001 -4.296526e+001
3102812500 -2.580583e+001 9.956429e+001 -3.394180e+001 -1.620148e+002 -7.818837e+001 -7.863159e+001 -1.958810e+001 -4.198566e+001
3103906250 -2.818661e+001 1.078638e+002 -3.537715e+001 9.252222e+001 -8.771904e+001 1.160432e+002 -1.987761e+001 -4.142878e+001
3105000000 -3.175278e+001 1.167236e+002 -3.320359e+001 -1.020764e+001 -8.111151e+001 -1.144850e+002 -2.016327e+001 -4.120906e+001
3106093750 -3.786289e+001 1.277224e+002 -3.072490e+001 -9.497389e+001 -8.239142e+001 1.568943e+002 -2.046051e+001 -4.142030e+001
3107187500 -5.652824e+001 -1.300073e+002 -2.944076e+001 -1.729469e+002 -7.874621e+001 1.215771e+002 -2.069308e+001 -4.177967e+001
3108281250 -3.754152e+001 -4.818081e+001 -2.942168e+001 1.093004e+002 -7.835125e+001 -5.950768e+001 -2.091412e+001 -4.251901e+001
3109375000 -3.192407e+001 -3.740038e+001 -3.050801e+001 2.662126e+001 -9.108462e+001 6.307809e+001 -2.111072e+001 -4.309910e+001
3110468750 -2.864366e+001 -2.888995e+001 -3.184768e+001 -6.617447e+001 -7.853191e+001 1.180184e+002 -2.126886e+001 -4.358127e+001
3111562500 -2.650413e+001 -2.090305e+001 -3.159866e+001 -1.655451e+002 -9.103734e+001 -1.409300e+002 -2.142118e+001 -4.410957e+001
3112656250 -2.503369e+001 -1.307714e+001 -2.993847e+001 1.035411e+002 -8.868360e+001 -4.380252e+001 -2.157242e+001 -4.450548e+001
3113750000 -2.398517e+001 -5.244239e+000 -2.848509e+001 2.331634e+001 -1.022474e+002 1.654842e+002 -2.174818e+001 -4.497312e+001
3114843750 -2.328981e+001 2.594083e+000 -2.783586e+001 -5.252619e+001 -8.161525e+001 -6.853151e+001 -2.192967e+001 -4.561937e+001
3115937500 -2.282196e+001 1.034537e+001 -2.813996e+001 -1.287054e+002 -8.026346e+001 -3.232840e+001 -2.216132e+001 -4.636079e+001
3117031250 -2.261937e+001 1.797215e+001 -2.928463e+001 1.512684e+002 -7.952935e+001 -9.599554e+001 -2.242174e+001 -4.773554e+001
3118125000 -2.261592e+001 2.558579e+001 -3.058842e+001 6.357847e+001 -8.290500e+001 1.236512e+002 -2.266691e+001 -4.917707e+001
3119218750 -2.286953e+001 3.299333e+001 -3.073528e+001 -3.026836e+001 -9.352885e+001 1.049687e+002 -2.288997e+001 -5.121302e+001
3120312500 -2.333904e+001 4.020784e+001 -2.945551e+001 -1.185621e+002 -8.287786e+001 -2.065949e+001 -2.308971e+001 -5.383518e+001
3121406250 -2.410029e+001 4.728557e+001 -2.809005e+001 1.620793e+002 -8.237696e+001 -5.501370e+001 -2.314359e+001 -5.668706e+001
3122500000 -2.515084e+001 5.397821e+001 -2.745225e+001 8.792096e+001 -8.113437e+001 -4.728954e+001 -2.305876e+001 -5.965320e+001
3123593750 -2.656287e+001 6.017090e+001 -2.783876e+001 1.586784e+001 -8.352060e+001 -4.677494e+001 -2.285440e+001 -6.235289e+001
3124687500 -2.853178e+001 6.533894e+001 -2.923670e+001 -5.535390e+001 -8.457269e+001 2.892481e+001 -2.254721e+001 -6.446776e+001
3125781250 -3.127155e+001 6.816604e+001 -3.131534e+001 -1.287064e+002 -8.986179e+001 1.468340e+002 -2.215245e+001 -6.595341e+001
3126875000 -3.534635e+001 6.434923e+001 -3.333718e+001 1.505477e+002 -8.586646e+001 -3.001497e+001 -2.174920e+001 -6.649068e+001
3127968750 -4.110791e+001 3.346735e+001 -3.352895e+001 6.106848e+001 -9.199490e+001 -1.064471e+002 -2.131358e+001 -6.622195e+001
3129062500 -3.868220e+001 -2.618667e+001 -3.162666e+001 -2.374301e+001 -8.225741e+001 -2.478120e+001 -2.096037e+001 -6.510222e+001
3130156250 -3.343099e+001 -4.072131e+001 -2.949354e+001 -9.968311e+001 -8.693637e+001 4.654556e+001 -2.065992e+001 -6.297085e+001
3131250000 -3.006060e+001 -4.104132e+001 -2.811163e+001 -1.708313e+002 -8.578745e+001 1.096126e+002 -2.044050e+001 -6.045041e+001
3132343750 -2.776087e+001 -3.723938e+001 -2.763264e+001 1.203487e+002 -8.248660e+001 -5.293877e+000 -2.031406e+001 -5.745470e+001
3133437500 -2.606783e+001 -3.172705e+001 -2.782206e+001 5.137145e+001 -8.601616e+001 -9.669719e+001 -2.029024e+001 -5.391729e+001
3134531250 -2.486312e+001 -2.539317e+001 -2.859421e+001 -2.145397e+001 -8.627661e+001 1.718043e+002 -2.040873e+001 -5.024871e+001
3135625000 -2.396984e+001 -1.863210e+001 -2.954926e+001 -1.022303e+002 -8.938427e+001 1.734875e+002 -2.064103e+001 -4.647149e+001
3136718750 -2.340043e+001 -1.181187e+001 -2.969745e+001 1.687359e+002 -8.048106e+001 3.716665e+001 -2.104279e+001 -4.268740e+001
3137812500 -2.304119e+001 -4.868560e+000 -2.839868e+001 7.932519e+001 -8.473957e+001 -1.728651e+002 -2.162111e+001 -3.899399e+001
3138906250 -2.291577e+001 2.033148e+000 -2.673032e+001 -2.560143e+000 -8.001104e+001 1.056571e+002 -2.241562e+001 -3.571946e+001
3140000000 -2.303011e+001 9.080529e+000 -2.553992e+001 -7.839291e+001 -8.865858e+001 -1.197342e+002 -2.345038e+001 -3.285874e+001
3141093750 -2.334005e+001 1.587289e+001 -2.515176e+001 -1.520401e+002 -8.155746e+001 -1.725434e+001 -2.477228e+001 -3.099643e+001
3142187500 -2.391355e+001 2.263189e+001 -2.561609e+001 1.339562e+002 -8.788044e+001 3.964675e+001 -2.642129e+001 -3.091574e+001
3143281250 -2.475152e+001 2.927029e+001 -2.685084e+001 5.677556e+001 -9.069704e+001 -1.665249e+002 -2.848708e+001 -3.469517e+001
3144375000 -2.590203e+001 3.521912e+001 -2.835444e+001 -2.694535e+001 -9.512141e+001 -1.376727e+002 -3.071141e+001 -4.569266e+001
3145468750 -2.751724e+001 4.027635e+001 -2.901003e+001 -1.174152e+002 -9.123585e+001 1.120168e+002 -3.218416e+001 -6.700054e+001
3146562500 -2.972122e+001 4.335668e+001 -2.816713e+001 1.549249e+002 -8.248522e+001 -3.181579e+001 -3.137904e+001 -9.116061e+001
3147656250 -3.292356e+001 4.162363e+001 -2.683612e+001 7.588965e+001 -8.154970e+001 -1.723517e+002 -2.922871e+001 -1.060227e+002
3148750000 -3.726435e+001 2.676122e+001 -2.589674e+001 2.314701e+000 -8.198061e+001 4.176865e+001 -2.695415e+001 -1.117671e+002
3149843750 -3.924819e+001 -2.116875e+001 -2.567498e+001 -6.961674e+001 -8.345808e+001 4.035004e+001 -2.514031e+001 -1.127875e+002
3150937500 -3.495144e+001 -5.272963e+001 -2.618977e+001 -1.427104e+002 -8.027736e+001 7.213477e+001 -2.367445e+001 -1.111242e+002
3152031250 -3.110140e+001 -5.850037e+001 -2.738678e+001 1.381427e+002 -9.300357e+001 -1.141632e+001 -2.253729e+001 -1.080183e+002
3153125000 -2.833489e+001 -5.660109e+001 -2.860085e+001 4.916977e+001 -8.236769e+001 1.530034e+002 -2.163115e+001 -1.039644e+002
3154218750 -2.634446e+001 -5.203555e+001 -2.837225e+001 -4.653555e+001 -8.869198e+001 6.613831e+001 -2.097912e+001 -9.936669e+001
3155312500 -2.484810e+001 -4.656970e+001 -2.677431e+001 -1.355712e+002 -8.614229e+001 -5.998489e+001 -2.052041e+001 -9.464915e+001
3156406250 -2.370810e+001 -4.029960e+001 -2.540257e+001 1.445442e+002 -8.996508e+001 5.363598e+001 -2.024245e+001 -8.978404e+001
3157500000 -2.288369e+001 -3.369434e+001 -2.486425e+001 6.975423e+001 -8.503029e+001 1.308185e+002 -2.012740e+001 -8.488818e+001
3158593750 -2.234142e+001 -2.675343e+001 -2.527134e+001 -3.835498e+000 -8.190647e+001 -4.585769e+001 -2.020933e+001 -8.029200e+001
3159687500 -2.199489e+001 -1.951407e+001 -2.674715e+001 -7.985980e+001 -8.610069e+001 8.067244e+001 -2.045679e+001 -7.593755e+001
3160781250 -2.179777e+001 -1.230171e+001 -2.902526e+001 -1.641897e+002 -7.925700e+001 -6.739738e+001 -2.089513e+001 -7.191485e+001
3161875000 -2.180502e+001 -4.632870e+000 -3.047338e+001 9.725276e+001 -9.001012e+001 7.986039e+001 -2.149661e+001 -6.875317e+001
3162968750 -2.196844e+001 2.914531e+000 -2.904282e+001 -7.520851e-001 -8.660340e+001 -5.006849e+001 -2.225158e+001 -6.655386e+001
3164062500 -2.233982e+001 1.003981e+001 -2.686646e+001 -8.376142e+001 -9.180501e+001 1.451165e+002 -2.317816e+001 -6.611311e+001
